;$FILEVERSION=1.3
;$STARTTIME=43468.2817554992
;
;   F:\Galx_1133 Selector 6 box\PCAN_Data\ENC_CAN\Hm_504802.trc
;   Start time: 1/3/2019 06:45:43.675.1
;-------------------------------------------------------------------------------
;   Bus  Name        Connection           Protocol
;   1    CEDS_2_CAN  CEDS_2_CAN@pcan_usb  CAN
;-------------------------------------------------------------------------------
;   Message Number
;   |         Time Offset (ms)
;   |         |       Bus
;   |         |       |    Type
;   |         |       |    |       ID (hex)
;   |         |       |    |       |    Reserved
;   |         |       |    |       |    |   Data Length Code
;   |         |       |    |       |    |   |    Data Bytes (hex) ...
;   |         |       |    |       |    |   |    |
;   |         |       |    |       |    |   |    |
;---+-- ------+------ +- --+-- ----+--- +- -+-- -+ -- -- -- -- -- -- --
     1)         4.028 1  Rx        001A -  8    5B 07 B3 FA 00 00 00 00 
     2)         4.625 1  Rx        001B -  8    07 B3 74 00 68 82 90 D2 
     3)         9.020 1  Rx        001A -  8    5C 07 B3 FA 00 00 00 00 
     4)         9.617 1  Rx        001B -  8    07 B3 74 00 1C 1A 79 5D 
     5)        14.054 1  Rx        001A -  8    5D 07 B3 FA 00 00 00 00 
     6)        14.609 1  Rx        001B -  8    07 B3 74 00 87 BF 35 32 
     7)        19.046 1  Rx        001A -  8    5E 07 B3 FA 00 00 00 00 
     8)        19.643 1  Rx        001B -  8    07 B3 74 00 F0 21 E7 C2 
     9)        24.037 1  Rx        001A -  8    5F 07 B3 FA 00 00 00 00 
    10)        24.592 1  Rx        001B -  8    07 B3 74 00 6B 84 AB AD 
    11)        29.029 1  Rx        001A -  8    60 07 B3 FA 00 00 00 00 
    12)        29.626 1  Rx        001B -  8    07 B3 74 00 0D 39 02 D8 
    13)        34.020 1  Rx        001A -  8    61 07 B3 FA 00 00 00 00 
    14)        34.618 1  Rx        001B -  8    07 B3 74 00 96 9C 4E B7 
    15)        39.012 1  Rx        001A -  8    62 07 B3 FA 00 00 00 00 
    16)        39.609 1  Rx        001B -  8    07 B3 74 00 E1 02 9C 47 
    17)        44.046 1  Rx        001A -  8    63 07 B3 FA 00 00 00 00 
    18)        44.601 1  Rx        001B -  8    07 B3 74 00 7A A7 D0 28 
    19)        49.038 1  Rx        001A -  8    64 07 B3 FA 00 00 00 00 
    20)        49.592 1  Rx        001B -  8    07 B3 74 00 0E 3F 39 A7 
    21)        54.029 1  Rx        001A -  8    65 07 B3 FA 00 00 00 00 
    22)        54.626 1  Rx        001B -  8    07 B3 74 00 95 9A 75 C8 
    23)        59.021 1  Rx        001A -  8    66 07 B3 FA 00 00 00 00 
    24)        59.618 1  Rx        001B -  8    07 B3 74 00 E2 04 A7 38 
    25)        64.012 1  Rx        001A -  8    67 07 B3 FA 00 00 00 00 
    26)        64.610 1  Rx        001B -  8    07 B3 74 00 79 A1 EB 57 
    27)        69.004 1  Rx        001A -  8    68 07 B3 FA 00 00 00 00 
    28)        69.601 1  Rx        001B -  8    07 B3 74 00 0B 35 74 26 
    29)        74.038 1  Rx        001A -  8    69 07 B3 FA 00 00 00 00 
    30)        74.635 1  Rx        001B -  8    07 B3 74 00 90 90 38 49 
    31)        79.030 1  Rx        001A -  8    6A 07 B3 FA 00 00 00 00 
    32)        79.627 1  Rx        001B -  8    07 B3 74 00 E7 0E EA B9 
    33)        84.021 1  Rx        001A -  8    6B 07 B3 FA 00 00 00 00 
    34)        84.619 1  Rx        001B -  8    07 B3 74 00 7C AB A6 D6 
    35)        89.013 1  Rx        001A -  8    6C 07 B3 FA 00 00 00 00 
    36)        89.610 1  Rx        001B -  8    07 B3 74 00 08 33 4F 59 
    37)        94.047 1  Rx        001A -  8    6D 07 B3 FA 00 00 00 00 
    38)        94.602 1  Rx        001B -  8    07 B3 74 00 93 96 03 36 
    39)        99.039 1  Rx        001A -  8    6E 07 B3 FA 00 00 00 00 
    40)        99.593 1  Rx        001B -  8    07 B3 74 00 E4 08 D1 C6 
    41)       104.030 1  Rx        001A -  8    6F 07 B3 FA 00 00 00 00 
    42)       104.628 1  Rx        001B -  8    07 B3 74 00 7F AD 9D A9 
    43)       109.022 1  Rx        001A -  8    70 07 B3 FA 00 00 00 00 
    44)       109.619 1  Rx        001B -  8    07 B3 74 00 01 21 EF 24 
    45)       114.013 1  Rx        001A -  8    71 07 B3 FA 00 00 00 00 
    46)       114.611 1  Rx        001B -  8    07 B3 74 00 9A 84 A3 4B 
    47)       119.005 1  Rx        001A -  8    72 07 B3 FA 00 00 00 00 
    48)       119.602 1  Rx        001B -  8    07 B3 74 00 ED 1A 71 BB 
    49)       124.039 1  Rx        001A -  8    73 07 B3 FA 00 00 00 00 
    50)       124.594 1  Rx        001B -  8    07 B3 74 00 76 BF 3D D4 
    51)       129.031 1  Rx        001A -  8    74 07 B3 FA 00 00 00 00 
    52)       129.628 1  Rx        001B -  8    07 B3 74 00 02 27 D4 5B 
    53)       134.022 1  Rx        001A -  8    75 07 B3 FA 00 00 00 00 
    54)       134.620 1  Rx        001B -  8    07 B3 74 00 99 82 98 34 
    55)       139.014 1  Rx        001A -  8    76 07 B3 FA 00 00 00 00 
    56)       139.611 1  Rx        001B -  8    07 B3 74 00 EE 1C 4A C4 
    57)       144.048 1  Rx        001A -  8    77 07 B3 FA 00 00 00 00 
    58)       144.603 1  Rx        001B -  8    07 B3 74 00 75 B9 06 AB 
    59)       149.040 1  Rx        001A -  8    78 07 B3 FA 00 00 00 00 
    60)       149.594 1  Rx        001B -  8    07 B3 74 00 07 2D 99 DA 
    61)       154.031 1  Rx        001A -  8    79 07 B3 FA 00 00 00 00 
    62)       154.586 1  Rx        001B -  8    07 B3 74 00 9C 88 D5 B5 
    63)       159.023 1  Rx        001A -  8    7A 07 B3 FA 00 00 00 00 
    64)       159.620 1  Rx        001B -  8    07 B3 74 00 EB 16 07 45 
    65)       164.014 1  Rx        001A -  8    7B 07 B3 FA 00 00 00 00 
    66)       164.612 1  Rx        001B -  8    07 B3 74 00 70 B3 4B 2A 
    67)       169.006 1  Rx        001A -  8    7C 07 B3 FA 00 00 00 00 
    68)       169.603 1  Rx        001B -  8    07 B3 74 00 04 2B A2 A5 
    69)       174.040 1  Rx        001A -  8    7D 07 B3 FA 00 00 00 00 
    70)       174.595 1  Rx        001B -  8    07 B3 74 00 9F 8E EE CA 
    71)       179.032 1  Rx        001A -  8    7E 07 B3 FA 00 00 00 00 
    72)       179.586 1  Rx        001B -  8    07 B3 74 00 E8 10 3C 3A 
    73)       184.023 1  Rx        001A -  8    7F 07 B3 FA 00 00 00 00 
    74)       184.621 1  Rx        001B -  8    07 B3 74 00 73 B5 70 55 
    75)       189.015 1  Rx        001A -  8    80 07 B3 FA 00 00 00 00 
    76)       189.612 1  Rx        001B -  8    07 B3 74 00 45 AC 01 30 
    77)       194.049 1  Rx        001A -  8    81 07 B3 FA 00 00 00 00 
    78)       194.604 1  Rx        001B -  8    07 B3 74 00 DE 09 4D 5F 
    79)       199.041 1  Rx        001A -  8    82 07 B3 FA 00 00 00 00 
    80)       199.595 1  Rx        001B -  8    07 B3 74 00 A9 97 9F AF 
    81)       204.032 1  Rx        001A -  8    83 07 B3 FA 00 00 00 00 
    82)       204.587 1  Rx        001B -  8    07 B3 74 00 32 32 D3 C0 
    83)       209.024 1  Rx        001A -  8    84 07 B3 FA 00 00 00 00 
    84)       209.621 1  Rx        001B -  8    07 B3 74 00 46 AA 3A 4F 
    85)       214.015 1  Rx        001A -  8    85 07 B3 FA 00 00 00 00 
    86)       214.613 1  Rx        001B -  8    07 B3 74 00 DD 0F 76 20 
    87)       219.007 1  Rx        001A -  8    86 07 B3 FA 00 00 00 00 
    88)       219.604 1  Rx        001B -  8    07 B3 74 00 AA 91 A4 D0 
    89)       224.041 1  Rx        001A -  8    87 07 B3 FA 00 00 00 00 
    90)       224.596 1  Rx        001B -  8    07 B3 74 00 31 34 E8 BF 
    91)       229.033 1  Rx        001A -  8    88 07 B3 FA 00 00 00 00 
    92)       229.587 1  Rx        001B -  8    07 B3 74 00 43 A0 77 CE 
    93)       234.024 1  Rx        001A -  8    89 07 B3 FA 00 00 00 00 
    94)       234.622 1  Rx        001B -  8    07 B3 74 00 D8 05 3B A1 
    95)       239.016 1  Rx        001A -  8    8A 07 B3 FA 00 00 00 00 
    96)       239.613 1  Rx        001B -  8    07 B3 74 00 AF 9B E9 51 
    97)       244.008 1  Rx        001A -  8    8B 07 B3 FA 00 00 00 00 
    98)       244.605 1  Rx        001B -  8    07 B3 74 00 34 3E A5 3E 
    99)       248.999 1  Rx        001A -  8    8C 07 B3 FA 00 00 00 00 
   100)       249.596 1  Rx        001B -  8    07 B3 74 00 40 A6 4C B1 
   101)       254.033 1  Rx        001A -  8    8D 07 B3 FA 00 00 00 00 
   102)       254.588 1  Rx        001B -  8    07 B3 74 00 DB 03 00 DE 
   103)       259.025 1  Rx        001A -  8    8E 07 B3 FA 00 00 00 00 
   104)       259.580 1  Rx        001B -  8    07 B3 74 00 AC 9D D2 2E 
   105)       264.016 1  Rx        001A -  8    8F 07 B3 FA 00 00 00 00 
   106)       264.614 1  Rx        001B -  8    07 B3 74 00 37 38 9E 41 
   107)       269.008 1  Rx        001A -  8    90 07 B3 FA 00 00 00 00 
   108)       269.605 1  Rx        001B -  8    07 B3 74 00 49 B4 EC CC 
   109)       274.000 1  Rx        001A -  8    91 07 B3 FA 00 00 00 00 
   110)       274.597 1  Rx        001B -  8    07 B3 74 00 D2 11 A0 A3 
   111)       279.034 1  Rx        001A -  8    92 07 B3 FA 00 00 00 00 
   112)       279.588 1  Rx        001B -  8    07 B3 74 00 A5 8F 72 53 
   113)       284.025 1  Rx        001A -  8    93 07 B3 FA 00 00 00 00 
   114)       284.623 1  Rx        001B -  8    07 B3 74 00 3E 2A 3E 3C 
   115)       289.017 1  Rx        001A -  8    94 07 B3 FA 00 00 00 00 
   116)       289.614 1  Rx        001B -  8    07 B3 74 00 4A B2 D7 B3 
   117)       294.009 1  Rx        001A -  8    95 07 B3 FA 00 00 00 00 
   118)       294.606 1  Rx        001B -  8    07 B3 74 00 D1 17 9B DC 
   119)       299.000 1  Rx        001A -  8    96 07 B3 FA 00 00 00 00 
   120)       299.597 1  Rx        001B -  8    07 B3 74 00 A6 89 49 2C 
   121)       304.034 1  Rx        001A -  8    97 07 B3 FA 00 00 00 00 
   122)       304.589 1  Rx        001B -  8    07 B3 74 00 3D 2C 05 43 
   123)       309.026 1  Rx        001A -  8    98 07 B3 FA 00 00 00 00 
   124)       309.581 1  Rx        001B -  8    07 B3 74 00 4F B8 9A 32 
   125)       314.018 1  Rx        001A -  8    99 07 B3 FA 00 00 00 00 
   126)       314.615 1  Rx        001B -  8    07 B3 74 00 D4 1D D6 5D 
   127)       319.009 1  Rx        001A -  8    9A 07 B3 FA 00 00 00 00 
   128)       319.606 1  Rx        001B -  8    07 B3 74 00 A3 83 04 AD 
   129)       324.001 1  Rx        001A -  8    9B 07 B3 FA 00 00 00 00 
   130)       324.598 1  Rx        001B -  8    07 B3 74 00 38 26 48 C2 
   131)       329.035 1  Rx        001A -  8    9C 07 B3 FA 00 00 00 00 
   132)       329.590 1  Rx        001B -  8    07 B3 74 00 4C BE A1 4D 
   133)       334.026 1  Rx        001A -  8    9D 07 B3 FA 00 00 00 00 
   134)       334.581 1  Rx        001B -  8    07 B3 74 00 D7 1B ED 22 
   135)       339.018 1  Rx        001A -  8    9E 07 B3 FA 00 00 00 00 
   136)       339.615 1  Rx        001B -  8    07 B3 74 00 A0 85 3F D2 
   137)       344.010 1  Rx        001A -  8    9F 07 B3 FA 00 00 00 00 
   138)       344.607 1  Rx        001B -  8    07 B3 74 00 3B 20 73 BD 
   139)       349.044 1  Rx        001A -  8    A0 07 B3 FA 00 00 00 00 
   140)       349.598 1  Rx        001B -  8    07 B3 74 00 5D 9D DA C8 
   141)       354.035 1  Rx        001A -  8    A1 07 B3 FA 00 00 00 00 
   142)       354.590 1  Rx        001B -  8    07 B3 74 00 C6 38 96 A7 
   143)       359.027 1  Rx        001A -  8    A2 07 B3 FA 00 00 00 00 
   144)       359.582 1  Rx        001B -  8    07 B3 74 00 B1 A6 44 57 
   145)       364.019 1  Rx        001A -  8    A3 07 B3 FA 00 00 00 00 
   146)       364.616 1  Rx        001B -  8    07 B3 74 00 2A 03 08 38 
   147)       369.010 1  Rx        001A -  8    A4 07 B3 FA 00 00 00 00 
   148)       369.607 1  Rx        001B -  8    07 B3 74 00 5E 9B E1 B7 
   149)       374.002 1  Rx        001A -  8    A5 07 B3 FA 00 00 00 00 
   150)       374.599 1  Rx        001B -  8    07 B3 74 00 C5 3E AD D8 
   151)       378.993 1  Rx        001A -  8    A6 07 B3 FA 00 00 00 00 
   152)       379.591 1  Rx        001B -  8    07 B3 74 00 B2 A0 7F 28 
   153)       384.027 1  Rx        001A -  8    A7 07 B3 FA 00 00 00 00 
   154)       384.582 1  Rx        001B -  8    07 B3 74 00 29 05 33 47 
   155)       389.019 1  Rx        001A -  8    A8 07 B3 FA 00 00 00 00 
   156)       389.574 1  Rx        001B -  8    07 B3 74 00 5B 91 AC 36 
   157)       394.011 1  Rx        001A -  8    A9 07 B3 FA 00 00 00 00 
   158)       394.608 1  Rx        001B -  8    07 B3 74 00 C0 34 E0 59 
   159)       399.002 1  Rx        001A -  8    AA 07 B3 FA 00 00 00 00 
   160)       399.599 1  Rx        001B -  8    07 B3 74 00 B7 AA 32 A9 
   161)       403.994 1  Rx        001A -  8    AB 07 B3 FA 00 00 00 00 
   162)       404.591 1  Rx        001B -  8    07 B3 74 00 2C 0F 7E C6 
   163)       409.028 1  Rx        001A -  8    AC 07 B3 FA 00 00 00 00 
   164)       409.583 1  Rx        001B -  8    07 B3 74 00 58 97 97 49 
   165)       414.020 1  Rx        001A -  8    AD 07 B3 FA 00 00 00 00 
   166)       414.574 1  Rx        001B -  8    07 B3 74 00 C3 32 DB 26 
   167)       419.011 1  Rx        001A -  8    AE 07 B3 FA 00 00 00 00 
   168)       419.608 1  Rx        001B -  8    07 B3 74 00 B4 AC 09 D6 
   169)       424.003 1  Rx        001A -  8    AF 07 B3 FA 00 00 00 00 
   170)       424.600 1  Rx        001B -  8    07 B3 74 00 2F 09 45 B9 
   171)       428.994 1  Rx        001A -  8    B0 07 B3 FA 00 00 00 00 
   172)       429.592 1  Rx        001B -  8    07 B3 74 00 51 85 37 34 
   173)       434.029 1  Rx        001A -  8    B1 07 B3 FA 00 00 00 00 
   174)       434.583 1  Rx        001B -  8    07 B3 74 00 CA 20 7B 5B 
   175)       439.020 1  Rx        001A -  8    B2 07 B3 FA 00 00 00 00 
   176)       439.575 1  Rx        001B -  8    07 B3 74 00 BD BE A9 AB 
   177)       444.012 1  Rx        001A -  8    B3 07 B3 FA 00 00 00 00 
   178)       444.609 1  Rx        001B -  8    07 B3 74 00 26 1B E5 C4 
   179)       449.003 1  Rx        001A -  8    B4 07 B3 FA 00 00 00 00 
   180)       449.601 1  Rx        001B -  8    07 B3 74 00 52 83 0C 4B 
   181)       453.995 1  Rx        001A -  8    B5 07 B3 FA 00 00 00 00 
   182)       454.592 1  Rx        001B -  8    07 B3 74 00 C9 26 40 24 
   183)       458.986 1  Rx        001A -  8    B6 07 B3 FA 00 00 00 00 
   184)       459.584 1  Rx        001B -  8    07 B3 74 00 BE B8 92 D4 
   185)       464.021 1  Rx        001A -  8    B7 07 B3 FA 00 00 00 00 
   186)       464.575 1  Rx        001B -  8    07 B3 74 00 25 1D DE BB 
   187)       469.012 1  Rx        001A -  8    B8 07 B3 FA 00 00 00 00 
   188)       469.609 1  Rx        001B -  8    07 B3 74 00 57 89 41 CA 
   189)       474.004 1  Rx        001A -  8    B9 07 B3 FA 00 00 00 00 
   190)       474.601 1  Rx        001B -  8    07 B3 74 00 CC 2C 0D A5 
   191)       478.995 1  Rx        001A -  8    BA 07 B3 FA 00 00 00 00 
   192)       479.593 1  Rx        001B -  8    07 B3 74 00 BB B2 DF 55 
   193)       484.030 1  Rx        001A -  8    BB 07 B3 FA 00 00 00 00 
   194)       484.584 1  Rx        001B -  8    07 B3 74 00 20 17 93 3A 
   195)       489.021 1  Rx        001A -  8    BC 07 B3 FA 00 00 00 00 
   196)       489.576 1  Rx        001B -  8    07 B3 74 00 54 8F 7A B5 
   197)       494.013 1  Rx        001A -  8    BD 07 B3 FA 00 00 00 00 
   198)       494.567 1  Rx        001B -  8    07 B3 74 00 CF 2A 36 DA 
   199)       499.004 1  Rx        001A -  8    BE 07 B3 FA 00 00 00 00 
   200)       499.602 1  Rx        001B -  8    07 B3 74 00 B8 B4 E4 2A 
   201)       503.996 1  Rx        001A -  8    BF 07 B3 FA 00 00 00 00 
   202)       504.593 1  Rx        001B -  8    07 B3 74 00 23 11 A8 45 
   203)       508.987 1  Rx        001A -  8    C0 07 B3 FA 00 00 00 00 
   204)       509.585 1  Rx        001B -  8    07 B3 74 00 75 CF B6 C0 
   205)       514.022 1  Rx        001A -  8    C1 07 B3 FA 00 00 00 00 
   206)       514.576 1  Rx        001B -  8    07 B3 74 00 EE 6A FA AF 
   207)       519.013 1  Rx        001A -  8    C2 07 B3 FA 00 00 00 00 
   208)       519.611 1  Rx        001B -  8    07 B3 74 00 99 F4 28 5F 
   209)       524.005 1  Rx        001A -  8    C3 07 B3 FA 00 00 00 00 
   210)       524.602 1  Rx        001B -  8    07 B3 74 00 02 51 64 30 
   211)       528.996 1  Rx        001A -  8    C4 07 B3 FA 00 00 00 00 
   212)       529.594 1  Rx        001B -  8    07 B3 74 00 76 C9 8D BF 
   213)       533.988 1  Rx        001A -  8    C5 07 B3 FA 00 00 00 00 
   214)       534.585 1  Rx        001B -  8    07 B3 74 00 ED 6C C1 D0 
   215)       539.022 1  Rx        001A -  8    C6 07 B3 FA 00 00 00 00 
   216)       539.577 1  Rx        001B -  8    07 B3 74 00 9A F2 13 20 
   217)       544.014 1  Rx        001A -  8    C7 07 B3 FA 00 00 00 00 
   218)       544.611 1  Rx        001B -  8    07 B3 74 00 01 57 5F 4F 
   219)       549.005 1  Rx        001A -  8    C8 07 B3 FA 00 00 00 00 
   220)       549.603 1  Rx        001B -  8    07 B3 74 00 73 C3 C0 3E 
   221)       553.997 1  Rx        001A -  8    C9 07 B3 FA 00 00 00 00 
   222)       554.594 1  Rx        001B -  8    07 B3 74 00 E8 66 8C 51 
   223)       558.988 1  Rx        001A -  8    CA 07 B3 FA 00 00 00 00 
   224)       559.586 1  Rx        001B -  8    07 B3 74 00 9F F8 5E A1 
   225)       563.980 1  Rx        001A -  8    CB 07 B3 FA 00 00 00 00 
   226)       564.577 1  Rx        001B -  8    07 B3 74 00 04 5D 12 CE 
   227)       569.014 1  Rx        001A -  8    CC 07 B3 FA 00 00 00 00 
   228)       569.569 1  Rx        001B -  8    07 B3 74 00 70 C5 FB 41 
   229)       574.006 1  Rx        001A -  8    CD 07 B3 FA 00 00 00 00 
   230)       574.603 1  Rx        001B -  8    07 B3 74 00 EB 60 B7 2E 
   231)       578.997 1  Rx        001A -  8    CE 07 B3 FA 00 00 00 00 
   232)       579.595 1  Rx        001B -  8    07 B3 74 00 9C FE 65 DE 
   233)       583.989 1  Rx        001A -  8    CF 07 B3 FA 00 00 00 00 
   234)       584.586 1  Rx        001B -  8    07 B3 74 00 07 5B 29 B1 
   235)       588.981 1  Rx        001A -  8    D0 07 B3 FA 00 00 00 00 
   236)       589.578 1  Rx        001B -  8    07 B3 74 00 79 D7 5B 3C 
   237)       594.015 1  Rx        001A -  8    D1 07 B3 FA 00 00 00 00 
   238)       594.569 1  Rx        001B -  8    07 B3 74 00 E2 72 17 53 
   239)       599.006 1  Rx        001A -  8    D2 07 B3 FA 00 00 00 00 
   240)       599.561 1  Rx        001B -  8    07 B3 74 00 95 EC C5 A3 
   241)       603.998 1  Rx        001A -  8    D3 07 B3 FA 00 00 00 00 
   242)       604.553 1  Rx        001B -  8    07 B3 74 00 0E 49 89 CC 
   243)       608.989 1  Rx        001A -  8    D4 07 B3 FA 00 00 00 00 
   244)       609.587 1  Rx        001B -  8    07 B3 74 00 7A D1 60 43 
   245)       613.981 1  Rx        001A -  8    D5 07 B3 FA 00 00 00 00 
   246)       614.578 1  Rx        001B -  8    07 B3 74 00 E1 74 2C 2C 
   247)       618.973 1  Rx        001A -  8    D6 07 B3 FA 00 00 00 00 
   248)       619.570 1  Rx        001B -  8    07 B3 74 00 96 EA FE DC 
   249)       624.007 1  Rx        001A -  8    D7 07 B3 FA 00 00 00 00 
   250)       624.561 1  Rx        001B -  8    07 B3 74 00 0D 4F B2 B3 
   251)       628.998 1  Rx        001A -  8    D8 07 B3 FA 00 00 00 00 
   252)       629.596 1  Rx        001B -  8    07 B3 74 00 7F DB 2D C2 
   253)       633.990 1  Rx        001A -  8    D9 07 B3 FA 00 00 00 00 
   254)       634.587 1  Rx        001B -  8    07 B3 74 00 E4 7E 61 AD 
   255)       638.982 1  Rx        001A -  8    DA 07 B3 FA 00 00 00 00 
   256)       639.579 1  Rx        001B -  8    07 B3 74 00 93 E0 B3 5D 
   257)       644.016 1  Rx        001A -  8    DB 07 B3 FA 00 00 00 00 
   258)       644.570 1  Rx        001B -  8    07 B3 74 00 08 45 FF 32 
   259)       649.007 1  Rx        001A -  8    DC 07 B3 FA 00 00 00 00 
   260)       649.562 1  Rx        001B -  8    07 B3 74 00 7C DD 16 BD 
   261)       653.999 1  Rx        001A -  8    DD 07 B3 FA 00 00 00 00 
   262)       654.554 1  Rx        001B -  8    07 B3 74 00 E7 78 5A D2 
   263)       658.991 1  Rx        001A -  8    DE 07 B3 FA 00 00 00 00 
   264)       659.588 1  Rx        001B -  8    07 B3 74 00 90 E6 88 22 
   265)       663.982 1  Rx        001A -  8    DF 07 B3 FA 00 00 00 00 
   266)       664.579 1  Rx        001B -  8    07 B3 74 00 0B 43 C4 4D 
   267)       669.016 1  Rx        001A -  8    E0 07 B3 FA 00 00 00 00 
   268)       669.571 1  Rx        001B -  8    07 B3 74 00 6D FE 6D 38 
   269)       674.008 1  Rx        001A -  8    E1 07 B3 FA 00 00 00 00 
   270)       674.563 1  Rx        001B -  8    07 B3 74 00 F6 5B 21 57 
   271)       678.999 1  Rx        001A -  8    E2 07 B3 FA 00 00 00 00 
   272)       679.554 1  Rx        001B -  8    07 B3 74 00 81 C5 F3 A7 
   273)       683.991 1  Rx        001A -  8    E3 07 B3 FA 00 00 00 00 
   274)       684.588 1  Rx        001B -  8    07 B3 74 00 1A 60 BF C8 
   275)       688.983 1  Rx        001A -  8    E4 07 B3 FA 00 00 00 00 
   276)       689.580 1  Rx        001B -  8    07 B3 74 00 6E F8 56 47 
   277)       693.974 1  Rx        001A -  8    E5 07 B3 FA 00 00 00 00 
   278)       694.571 1  Rx        001B -  8    07 B3 74 00 F5 5D 1A 28 
   279)       698.966 1  Rx        001A -  8    E6 07 B3 FA 00 00 00 00 
   280)       699.563 1  Rx        001B -  8    07 B3 74 00 82 C3 C8 D8 
   281)       704.000 1  Rx        001A -  8    E7 07 B3 FA 00 00 00 00 
   282)       704.555 1  Rx        001B -  8    07 B3 74 00 19 66 84 B7 
   283)       708.992 1  Rx        001A -  8    E8 07 B3 FA 00 00 00 00 
   284)       709.589 1  Rx        001B -  8    07 B3 74 00 6B F2 1B C6 
   285)       713.983 1  Rx        001A -  8    E9 07 B3 FA 00 00 00 00 
   286)       714.580 1  Rx        001B -  8    07 B3 74 00 F0 57 57 A9 
   287)       718.975 1  Rx        001A -  8    EA 07 B3 FA 00 00 00 00 
   288)       719.572 1  Rx        001B -  8    07 B3 74 00 87 C9 85 59 
   289)       724.009 1  Rx        001A -  8    EB 07 B3 FA 00 00 00 00 
   290)       724.564 1  Rx        001B -  8    07 B3 74 00 1C 6C C9 36 
   291)       729.001 1  Rx        001A -  8    EC 07 B3 FA 00 00 00 00 
   292)       729.555 1  Rx        001B -  8    07 B3 74 00 68 F4 20 B9 
   293)       733.992 1  Rx        001A -  8    ED 07 B3 FA 00 00 00 00 
   294)       734.589 1  Rx        001B -  8    07 B3 74 00 F3 51 6C D6 
   295)       738.984 1  Rx        001A -  8    EE 07 B3 FA 00 00 00 00 
   296)       739.581 1  Rx        001B -  8    07 B3 74 00 84 CF BE 26 
   297)       743.975 1  Rx        001A -  8    EF 07 B3 FA 00 00 00 00 
   298)       744.573 1  Rx        001B -  8    07 B3 74 00 1F 6A F2 49 
   299)       748.967 1  Rx        001A -  8    F0 07 B3 FA 00 00 00 00 
   300)       749.564 1  Rx        001B -  8    07 B3 74 00 61 E6 80 C4 
   301)       754.001 1  Rx        001A -  8    F1 07 B3 FA 00 00 00 00 
   302)       754.556 1  Rx        001B -  8    07 B3 74 00 FA 43 CC AB 
   303)       758.993 1  Rx        001A -  8    F2 07 B3 FA 00 00 00 00 
   304)       759.590 1  Rx        001B -  8    07 B3 74 00 8D DD 1E 5B 
   305)       763.984 1  Rx        001A -  8    F3 07 B3 FA 00 00 00 00 
   306)       764.581 1  Rx        001B -  8    07 B3 74 00 16 78 52 34 
   307)       768.976 1  Rx        001A -  8    F4 07 B3 FA 00 00 00 00 
   308)       769.573 1  Rx        001B -  8    07 B3 74 00 62 E0 BB BB 
   309)       774.010 1  Rx        001A -  8    F5 07 B3 FA 00 00 00 00 
   310)       774.565 1  Rx        001B -  8    07 B3 74 00 F9 45 F7 D4 
   311)       779.002 1  Rx        001A -  8    F6 07 B3 FA 00 00 00 00 
   312)       779.556 1  Rx        001B -  8    07 B3 74 00 8E DB 25 24 
   313)       783.993 1  Rx        001A -  8    F7 07 B3 FA 00 00 00 00 
   314)       784.548 1  Rx        001B -  8    07 B3 74 00 15 7E 69 4B 
   315)       788.985 1  Rx        001A -  8    F8 07 B3 FA 00 00 00 00 
   316)       789.582 1  Rx        001B -  8    07 B3 74 00 67 EA F6 3A 
   317)       793.976 1  Rx        001A -  8    F9 07 B3 FA 00 00 00 00 
   318)       794.574 1  Rx        001B -  8    07 B3 74 00 FC 4F BA 55 
   319)       798.968 1  Rx        001A -  8    FA 07 B3 FA 00 00 00 00 
   320)       799.565 1  Rx        001B -  8    07 B3 74 00 8B D1 68 A5 
   321)       804.002 1  Rx        001A -  8    FB 07 B3 FA 00 00 00 00 
   322)       804.557 1  Rx        001B -  8    07 B3 74 00 10 74 24 CA 
   323)       808.994 1  Rx        001A -  8    FC 07 B3 FA 00 00 00 00 
   324)       809.548 1  Rx        001B -  8    07 B3 74 00 64 EC CD 45 
   325)       813.985 1  Rx        001A -  8    FD 07 B3 FA 00 00 00 00 
   326)       814.582 1  Rx        001B -  8    07 B3 74 00 FF 49 81 2A 
   327)       818.977 1  Rx        001A -  8    FE 07 B3 FA 00 00 00 00 
   328)       819.574 1  Rx        001B -  8    07 B3 74 00 88 D7 53 DA 
   329)       823.968 1  Rx        001A -  8    FF 07 B3 FA 00 00 00 00 
   330)       824.566 1  Rx        001B -  8    07 B3 74 00 13 72 1F B5 
   331)       829.003 1  Rx        001A -  8    00 07 B3 FA 00 00 00 00 
   332)       829.557 1  Rx        001B -  8    07 B3 74 00 25 6B 6E D0 
   333)       833.994 1  Rx        001A -  8    01 07 B3 FA 00 00 00 00 
   334)       834.549 1  Rx        001B -  8    07 B3 74 00 BE CE 22 BF 
   335)       838.986 1  Rx        001A -  8    02 07 B3 FA 00 00 00 00 
   336)       839.583 1  Rx        001B -  8    07 B3 74 00 C9 50 F0 4F 
   337)       843.977 1  Rx        001A -  8    03 07 B3 FA 00 00 00 00 
   338)       844.575 1  Rx        001B -  8    07 B3 74 00 52 F5 BC 20 
   339)       848.969 1  Rx        001A -  8    04 07 B3 FA 00 00 00 00 
   340)       849.566 1  Rx        001B -  8    07 B3 74 00 26 6D 55 AF 
   341)       854.003 1  Rx        001A -  8    05 07 B3 FA 00 00 00 00 
   342)       854.558 1  Rx        001B -  8    07 B3 74 00 BD C8 19 C0 
   343)       858.995 1  Rx        001A -  8    06 07 B3 FA 00 00 00 00 
   344)       859.549 1  Rx        001B -  8    07 B3 74 00 CA 56 CB 30 
   345)       863.986 1  Rx        001A -  8    07 07 B3 FA 00 00 00 00 
   346)       864.584 1  Rx        001B -  8    07 B3 74 00 51 F3 87 5F 
   347)       868.978 1  Rx        001A -  8    08 07 B3 FA 00 00 00 00 
   348)       869.575 1  Rx        001B -  8    07 B3 74 00 23 67 18 2E 
   349)       873.969 1  Rx        001A -  8    09 07 B3 FA 00 00 00 00 
   350)       874.567 1  Rx        001B -  8    07 B3 74 00 B8 C2 54 41 
   351)       878.961 1  Rx        001A -  8    0A 07 B3 FA 00 00 00 00 
   352)       879.558 1  Rx        001B -  8    07 B3 74 00 CF 5C 86 B1 
   353)       883.995 1  Rx        001A -  8    0B 07 B3 FA 00 00 00 00 
   354)       884.550 1  Rx        001B -  8    07 B3 74 00 54 F9 CA DE 
   355)       888.987 1  Rx        001A -  8    0C 07 B3 FA 00 00 00 00 
   356)       889.541 1  Rx        001B -  8    07 B3 74 00 20 61 23 51 
   357)       893.978 1  Rx        001A -  8    0D 07 B3 FA 00 00 00 00 
   358)       894.576 1  Rx        001B -  8    07 B3 74 00 BB C4 6F 3E 
   359)       898.970 1  Rx        001A -  8    0E 07 B3 FA 00 00 00 00 
   360)       899.567 1  Rx        001B -  8    07 B3 74 00 CC 5A BD CE 
   361)       904.004 1  Rx        001A -  8    0F 07 B3 FA 00 00 00 00 
   362)       904.559 1  Rx        001B -  8    07 B3 74 00 57 FF F1 A1 
   363)       908.996 1  Rx        001A -  8    10 07 B3 FA 00 00 00 00 
   364)       909.550 1  Rx        001B -  8    07 B3 74 00 29 73 83 2C 
   365)       913.987 1  Rx        001A -  8    11 07 B3 FA 00 00 00 00 
   366)       914.542 1  Rx        001B -  8    07 B3 74 00 B2 D6 CF 43 
   367)       918.979 1  Rx        001A -  8    12 07 B3 FA 00 00 00 00 
   368)       919.576 1  Rx        001B -  8    07 B3 74 00 C5 48 1D B3 
   369)       923.970 1  Rx        001A -  8    13 07 B3 FA 00 00 00 00 
   370)       924.568 1  Rx        001B -  8    07 B3 74 00 5E ED 51 DC 
   371)       928.962 1  Rx        001A -  8    14 07 B3 FA 00 00 00 00 
   372)       929.559 1  Rx        001B -  8    07 B3 74 00 2A 75 B8 53 
   373)       933.996 1  Rx        001A -  8    15 07 B3 FA 00 00 00 00 
   374)       934.551 1  Rx        001B -  8    07 B3 74 00 B1 D0 F4 3C 
   375)       938.988 1  Rx        001A -  8    16 07 B3 FA 00 00 00 00 
   376)       939.585 1  Rx        001B -  8    07 B3 74 00 C6 4E 26 CC 
   377)       943.979 1  Rx        001A -  8    17 07 B3 FA 00 00 00 00 
   378)       944.534 1  Rx        001B -  8    07 B3 74 00 5D EB 6A A3 
   379)       948.971 1  Rx        001A -  8    18 07 B3 FA 00 00 00 00 
   380)       949.568 1  Rx        001B -  8    07 B3 74 00 2F 7F F5 D2 
   381)       954.005 1  Rx        001A -  8    19 07 B3 FA 00 00 00 00 
   382)       954.560 1  Rx        001B -  8    07 B3 74 00 B4 DA B9 BD 
   383)       958.997 1  Rx        001A -  8    1A 07 B3 FA 00 00 00 00 
   384)       959.551 1  Rx        001B -  8    07 B3 74 00 C3 44 6B 4D 
   385)       964.011 1  Rx        001A -  8    1B 07 B3 FA 00 00 00 00 
   386)       964.566 1  Rx        001B -  8    07 B3 74 00 58 E1 27 22 
   387)       969.003 1  Rx        001A -  8    1C 07 B3 FA 00 00 00 00 
   388)       969.558 1  Rx        001B -  8    07 B3 74 00 2C 79 CE AD 
   389)       973.994 1  Rx        001A -  8    1D 07 B3 FA 00 00 00 00 
   390)       974.592 1  Rx        001B -  8    07 B3 74 00 B7 DC 82 C2 
   391)       978.986 1  Rx        001A -  8    1E 07 B3 FA 00 00 00 00 
   392)       979.583 1  Rx        001B -  8    07 B3 74 00 C0 42 50 32 
   393)       984.020 1  Rx        001A -  8    1F 07 B3 FA 00 00 00 00 
   394)       984.575 1  Rx        001B -  8    07 B3 74 00 5B E7 1C 5D 
   395)       989.012 1  Rx        001A -  8    20 07 B3 FA 00 00 00 00 
   396)       989.566 1  Rx        001B -  8    07 B3 74 00 3D 5A B5 28 
   397)       994.003 1  Rx        001A -  8    21 07 B3 FA 00 00 00 00 
   398)       994.601 1  Rx        001B -  8    07 B3 74 00 A6 FF F9 47 
   399)       998.995 1  Rx        001A -  8    22 07 B3 FA 00 00 00 00 
   400)       999.592 1  Rx        001B -  8    07 B3 74 00 D1 61 2B B7 
   401)      1003.987 1  Rx        001A -  8    23 07 B3 FA 00 00 00 00 
   402)      1004.584 1  Rx        001B -  8    07 B3 74 00 4A C4 67 D8 
   403)      1008.978 1  Rx        001A -  8    24 07 B3 FA 00 00 00 00 
   404)      1009.575 1  Rx        001B -  8    07 B3 74 00 3E 5C 8E 57 
   405)      1014.012 1  Rx        001A -  8    25 07 B3 FA 00 00 00 00 
   406)      1014.567 1  Rx        001B -  8    07 B3 74 00 A5 F9 C2 38 
   407)      1019.004 1  Rx        001A -  8    26 07 B3 FA 00 00 00 00 
   408)      1019.559 1  Rx        001B -  8    07 B3 74 00 D2 67 10 C8 
   409)      1023.995 1  Rx        001A -  8    27 07 B3 FA 00 00 00 00 
   410)      1024.593 1  Rx        001B -  8    07 B3 74 00 49 C2 5C A7 
   411)      1028.987 1  Rx        001A -  8    28 07 B3 FA 00 00 00 00 
   412)      1029.584 1  Rx        001B -  8    07 B3 74 00 3B 56 C3 D6 
   413)      1034.021 1  Rx        001A -  8    29 07 B3 FA 00 00 00 00 
   414)      1034.576 1  Rx        001B -  8    07 B3 74 00 A0 F3 8F B9 
   415)      1039.013 1  Rx        001A -  8    2A 07 B3 FA 00 00 00 00 
   416)      1039.567 1  Rx        001B -  8    07 B3 74 00 D7 6D 5D 49 
   417)      1044.004 1  Rx        001A -  8    2B 07 B3 FA 00 00 00 00 
   418)      1044.602 1  Rx        001B -  8    07 B3 74 00 4C C8 11 26 
   419)      1048.996 1  Rx        001A -  8    2C 07 B3 FA 00 00 00 00 
   420)      1049.593 1  Rx        001B -  8    07 B3 74 00 38 50 F8 A9 
   421)      1053.988 1  Rx        001A -  8    2D 07 B3 FA 00 00 00 00 
   422)      1054.585 1  Rx        001B -  8    07 B3 74 00 A3 F5 B4 C6 
   423)      1058.979 1  Rx        001A -  8    2E 07 B3 FA 00 00 00 00 
   424)      1059.576 1  Rx        001B -  8    07 B3 74 00 D4 6B 66 36 
   425)      1064.013 1  Rx        001A -  8    2F 07 B3 FA 00 00 00 00 
   426)      1064.568 1  Rx        001B -  8    07 B3 74 00 4F CE 2A 59 
   427)      1069.005 1  Rx        001A -  8    30 07 B3 FA 00 00 00 00 
   428)      1069.560 1  Rx        001B -  8    07 B3 74 00 31 42 58 D4 
   429)      1073.997 1  Rx        001A -  8    31 07 B3 FA 00 00 00 00 
   430)      1074.551 1  Rx        001B -  8    07 B3 74 00 AA E7 14 BB 
   431)      1078.988 1  Rx        001A -  8    32 07 B3 FA 00 00 00 00 
   432)      1079.585 1  Rx        001B -  8    07 B3 74 00 DD 79 C6 4B 
   433)      1084.022 1  Rx        001A -  8    33 07 B3 FA 00 00 00 00 
   434)      1084.577 1  Rx        001B -  8    07 B3 74 00 46 DC 8A 24 
   435)      1089.014 1  Rx        001A -  8    34 07 B3 FA 00 00 00 00 
   436)      1089.569 1  Rx        001B -  8    07 B3 74 00 32 44 63 AB 
   437)      1094.005 1  Rx        001A -  8    35 07 B3 FA 00 00 00 00 
   438)      1094.560 1  Rx        001B -  8    07 B3 74 00 A9 E1 2F C4 
   439)      1098.997 1  Rx        001A -  8    36 07 B3 FA 00 00 00 00 
   440)      1099.594 1  Rx        001B -  8    07 B3 74 00 DE 7F FD 34 
   441)      1103.989 1  Rx        001A -  8    37 07 B3 FA 00 00 00 00 
   442)      1104.586 1  Rx        001B -  8    07 B3 74 00 45 DA B1 5B 
   443)      1108.980 1  Rx        001A -  8    38 07 B3 FA 00 00 00 00 
   444)      1109.577 1  Rx        001B -  8    07 B3 74 00 37 4E 2E 2A 
   445)      1114.014 1  Rx        001A -  8    39 07 B3 FA 00 00 00 00 
   446)      1114.569 1  Rx        001B -  8    07 B3 74 00 AC EB 62 45 
   447)      1119.006 1  Rx        001A -  8    3A 07 B3 FA 00 00 00 00 
   448)      1119.561 1  Rx        001B -  8    07 B3 74 00 DB 75 B0 B5 
   449)      1123.998 1  Rx        001A -  8    3B 07 B3 FA 00 00 00 00 
   450)      1124.595 1  Rx        001B -  8    07 B3 74 00 40 D0 FC DA 
   451)      1128.989 1  Rx        001A -  8    3C 07 B3 FA 00 00 00 00 
   452)      1129.586 1  Rx        001B -  8    07 B3 74 00 34 48 15 55 
   453)      1134.023 1  Rx        001A -  8    3D 07 B3 FA 00 00 00 00 
   454)      1134.578 1  Rx        001B -  8    07 B3 74 00 AF ED 59 3A 
   455)      1139.015 1  Rx        001A -  8    3E 07 B3 FA 00 00 00 00 
   456)      1139.570 1  Rx        001B -  8    07 B3 74 00 D8 73 8B CA 
   457)      1144.007 1  Rx        001A -  8    3F 07 B3 FA 00 00 00 00 
   458)      1144.561 1  Rx        001B -  8    07 B3 74 00 43 D6 C7 A5 
   459)      1148.998 1  Rx        001A -  8    40 07 B3 FA 00 00 00 00 
   460)      1149.595 1  Rx        001B -  8    07 B3 74 00 15 08 D9 20 
   461)      1153.990 1  Rx        001A -  8    41 07 B3 FA 00 00 00 00 
   462)      1154.587 1  Rx        001B -  8    07 B3 74 00 8E AD 95 4F 
   463)      1158.981 1  Rx        001A -  8    42 07 B3 FA 00 00 00 00 
   464)      1159.579 1  Rx        001B -  8    07 B3 74 00 F9 33 47 BF 
   465)      1163.973 1  Rx        001A -  8    43 07 B3 FA 00 00 00 00 
   466)      1164.570 1  Rx        001B -  8    07 B3 74 00 62 96 0B D0 
   467)      1169.007 1  Rx        001A -  8    44 07 B3 FA 00 00 00 00 
   468)      1169.562 1  Rx        001B -  8    07 B3 74 00 16 0E E2 5F 
   469)      1173.999 1  Rx        001A -  8    45 07 B3 FA 00 00 00 00 
   470)      1174.553 1  Rx        001B -  8    07 B3 74 00 8D AB AE 30 
   471)      1178.990 1  Rx        001A -  8    46 07 B3 FA 00 00 00 00 
   472)      1179.587 1  Rx        001B -  8    07 B3 74 00 FA 35 7C C0 
   473)      1183.982 1  Rx        001A -  8    47 07 B3 FA 00 00 00 00 
   474)      1184.579 1  Rx        001B -  8    07 B3 74 00 61 90 30 AF 
   475)      1188.973 1  Rx        001A -  8    48 07 B3 FA 00 00 00 00 
   476)      1189.571 1  Rx        001B -  8    07 B3 74 00 13 04 AF DE 
   477)      1194.008 1  Rx        001A -  8    49 07 B3 FA 00 00 00 00 
   478)      1194.562 1  Rx        001B -  8    07 B3 74 00 88 A1 E3 B1 
   479)      1198.999 1  Rx        001A -  8    4A 07 B3 FA 00 00 00 00 
   480)      1199.596 1  Rx        001B -  8    07 B3 74 00 FF 3F 31 41 
   481)      1203.991 1  Rx        001A -  8    4B 07 B3 FA 00 00 00 00 
   482)      1204.588 1  Rx        001B -  8    07 B3 74 00 64 9A 7D 2E 
   483)      1208.982 1  Rx        001A -  8    4C 07 B3 FA 00 00 00 00 
   484)      1209.580 1  Rx        001B -  8    07 B3 74 00 10 02 94 A1 
   485)      1213.974 1  Rx        001A -  8    4D 07 B3 FA 00 00 00 00 
   486)      1214.571 1  Rx        001B -  8    07 B3 74 00 8B A7 D8 CE 
   487)      1219.008 1  Rx        001A -  8    4E 07 B3 FA 00 00 00 00 
   488)      1219.563 1  Rx        001B -  8    07 B3 74 00 FC 39 0A 3E 
   489)      1224.000 1  Rx        001A -  8    4F 07 B3 FA 00 00 00 00 
   490)      1224.554 1  Rx        001B -  8    07 B3 74 00 67 9C 46 51 
   491)      1228.991 1  Rx        001A -  8    50 07 B3 FA 00 00 00 00 
   492)      1229.588 1  Rx        001B -  8    07 B3 74 00 19 10 34 DC 
   493)      1233.983 1  Rx        001A -  8    51 07 B3 FA 00 00 00 00 
   494)      1234.580 1  Rx        001B -  8    07 B3 74 00 82 B5 78 B3 
   495)      1238.974 1  Rx        001A -  8    52 07 B3 FA 00 00 00 00 
   496)      1239.572 1  Rx        001B -  8    07 B3 74 00 F5 2B AA 43 
   497)      1244.009 1  Rx        001A -  8    53 07 B3 FA 00 00 00 00 
   498)      1244.563 1  Rx        001B -  8    07 B3 74 00 6E 8E E6 2C 
   499)      1249.000 1  Rx        001A -  8    54 07 B3 FA 00 00 00 00 
   500)      1249.555 1  Rx        001B -  8    07 B3 74 00 1A 16 0F A3 
   501)      1253.992 1  Rx        001A -  8    55 07 B3 FA 00 00 00 00 
   502)      1254.546 1  Rx        001B -  8    07 B3 74 00 81 B3 43 CC 
   503)      1258.983 1  Rx        001A -  8    56 07 B3 FA 00 00 00 00 
   504)      1259.581 1  Rx        001B -  8    07 B3 74 00 F6 2D 91 3C 
   505)      1263.975 1  Rx        001A -  8    57 07 B3 FA 00 00 00 00 
   506)      1264.572 1  Rx        001B -  8    07 B3 74 00 6D 88 DD 53 
   507)      1268.966 1  Rx        001A -  8    58 07 B3 FA 00 00 00 00 
   508)      1269.564 1  Rx        001B -  8    07 B3 74 00 1F 1C 42 22 
   509)      1274.001 1  Rx        001A -  8    59 07 B3 FA 00 00 00 00 
   510)      1274.555 1  Rx        001B -  8    07 B3 74 00 84 B9 0E 4D 
   511)      1278.992 1  Rx        001A -  8    5A 07 B3 FA 00 00 00 00 
   512)      1279.590 1  Rx        001B -  8    07 B3 74 00 F3 27 DC BD 
   513)      1283.984 1  Rx        001A -  8    5B 07 B3 FA 00 00 00 00 
   514)      1284.581 1  Rx        001B -  8    07 B3 74 00 68 82 90 D2 
   515)      1288.975 1  Rx        001A -  8    5C 07 B3 FA 00 00 00 00 
   516)      1289.573 1  Rx        001B -  8    07 B3 74 00 1C 1A 79 5D 
   517)      1294.010 1  Rx        001A -  8    5D 07 B3 FA 00 00 00 00 
   518)      1294.564 1  Rx        001B -  8    07 B3 74 00 87 BF 35 32 
   519)      1298.959 1  Rx        001A -  8    5E 07 B3 FA 00 00 00 00 
   520)      1299.556 1  Rx        001B -  8    07 B3 74 00 F0 21 E7 C2 
   521)      1303.993 1  Rx        001A -  8    5F 07 B3 FA 00 00 00 00 
   522)      1304.547 1  Rx        001B -  8    07 B3 74 00 6B 84 AB AD 
   523)      1308.984 1  Rx        001A -  8    60 07 B3 FA 00 00 00 00 
   524)      1309.582 1  Rx        001B -  8    07 B3 74 00 0D 39 02 D8 
   525)      1313.976 1  Rx        001A -  8    61 07 B3 FA 00 00 00 00 
   526)      1314.573 1  Rx        001B -  8    07 B3 74 00 96 9C 4E B7 
   527)      1318.967 1  Rx        001A -  8    62 07 B3 FA 00 00 00 00 
   528)      1319.565 1  Rx        001B -  8    07 B3 74 00 E1 02 9C 47 
   529)      1324.002 1  Rx        001A -  8    63 07 B3 FA 00 00 00 00 
   530)      1324.556 1  Rx        001B -  8    07 B3 74 00 7A A7 D0 28 
   531)      1328.993 1  Rx        001A -  8    64 07 B3 FA 00 00 00 00 
   532)      1329.548 1  Rx        001B -  8    07 B3 74 00 0E 3F 39 A7 
   533)      1333.985 1  Rx        001A -  8    65 07 B3 FA 00 00 00 00 
   534)      1334.582 1  Rx        001B -  8    07 B3 74 00 95 9A 75 C8 
   535)      1338.976 1  Rx        001A -  8    66 07 B3 FA 00 00 00 00 
   536)      1339.574 1  Rx        001B -  8    07 B3 74 00 E2 04 A7 38 
   537)      1343.968 1  Rx        001A -  8    67 07 B3 FA 00 00 00 00 
   538)      1344.565 1  Rx        001B -  8    07 B3 74 00 79 A1 EB 57 
   539)      1348.960 1  Rx        001A -  8    68 07 B3 FA 00 00 00 00 
   540)      1349.557 1  Rx        001B -  8    07 B3 74 00 0B 35 74 26 
   541)      1353.994 1  Rx        001A -  8    69 07 B3 FA 00 00 00 00 
   542)      1354.548 1  Rx        001B -  8    07 B3 74 00 90 90 38 49 
   543)      1358.985 1  Rx        001A -  8    6A 07 B3 FA 00 00 00 00 
   544)      1359.540 1  Rx        001B -  8    07 B3 74 00 E7 0E EA B9 
   545)      1363.977 1  Rx        001A -  8    6B 07 B3 FA 00 00 00 00 
   546)      1364.574 1  Rx        001B -  8    07 B3 74 00 7C AB A6 D6 
   547)      1368.969 1  Rx        001A -  8    6C 07 B3 FA 00 00 00 00 
   548)      1369.566 1  Rx        001B -  8    07 B3 74 00 08 33 4F 59 
   549)      1374.003 1  Rx        001A -  8    6D 07 B3 FA 00 00 00 00 
   550)      1374.557 1  Rx        001B -  8    07 B3 74 00 93 96 03 36 
   551)      1378.994 1  Rx        001A -  8    6E 07 B3 FA 00 00 00 00 
   552)      1379.549 1  Rx        001B -  8    07 B3 74 00 E4 08 D1 C6 
   553)      1383.986 1  Rx        001A -  8    6F 07 B3 FA 00 00 00 00 
   554)      1384.583 1  Rx        001B -  8    07 B3 74 00 7F AD 9D A9 
   555)      1388.977 1  Rx        001A -  8    70 07 B3 FA 00 00 00 00 
   556)      1389.575 1  Rx        001B -  8    07 B3 74 00 01 21 EF 24 
   557)      1393.969 1  Rx        001A -  8    71 07 B3 FA 00 00 00 00 
   558)      1394.566 1  Rx        001B -  8    07 B3 74 00 9A 84 A3 4B 
   559)      1398.961 1  Rx        001A -  8    72 07 B3 FA 00 00 00 00 
   560)      1399.558 1  Rx        001B -  8    07 B3 74 00 ED 1A 71 BB 
   561)      1403.952 1  Rx        001A -  8    73 07 B3 FA 00 00 00 00 
   562)      1404.549 1  Rx        001B -  8    07 B3 74 00 76 BF 3D D4 
   563)      1408.986 1  Rx        001A -  8    74 07 B3 FA 00 00 00 00 
   564)      1409.541 1  Rx        001B -  8    07 B3 74 00 02 27 D4 5B 
   565)      1413.978 1  Rx        001A -  8    75 07 B3 FA 00 00 00 00 
   566)      1414.575 1  Rx        001B -  8    07 B3 74 00 99 82 98 34 
   567)      1418.970 1  Rx        001A -  8    76 07 B3 FA 00 00 00 00 
   568)      1419.567 1  Rx        001B -  8    07 B3 74 00 EE 1C 4A C4 
   569)      1423.961 1  Rx        001A -  8    77 07 B3 FA 00 00 00 00 
   570)      1424.558 1  Rx        001B -  8    07 B3 74 00 75 B9 06 AB 
   571)      1428.953 1  Rx        001A -  8    78 07 B3 FA 00 00 00 00 
   572)      1429.550 1  Rx        001B -  8    07 B3 74 00 07 2D 99 DA 
   573)      1433.987 1  Rx        001A -  8    79 07 B3 FA 00 00 00 00 
   574)      1434.542 1  Rx        001B -  8    07 B3 74 00 9C 88 D5 B5 
   575)      1438.978 1  Rx        001A -  8    7A 07 B3 FA 00 00 00 00 
   576)      1439.533 1  Rx        001B -  8    07 B3 74 00 EB 16 07 45 
   577)      1443.970 1  Rx        001A -  8    7B 07 B3 FA 00 00 00 00 
   578)      1444.567 1  Rx        001B -  8    07 B3 74 00 70 B3 4B 2A 
   579)      1448.962 1  Rx        001A -  8    7C 07 B3 FA 00 00 00 00 
   580)      1449.559 1  Rx        001B -  8    07 B3 74 00 04 2B A2 A5 
   581)      1453.953 1  Rx        001A -  8    7D 07 B3 FA 00 00 00 00 
   582)      1454.550 1  Rx        001B -  8    07 B3 74 00 9F 8E EE CA 
   583)      1458.987 1  Rx        001A -  8    7E 07 B3 FA 00 00 00 00 
   584)      1459.542 1  Rx        001B -  8    07 B3 74 00 E8 10 3C 3A 
   585)      1463.979 1  Rx        001A -  8    7F 07 B3 FA 00 00 00 00 
   586)      1464.534 1  Rx        001B -  8    07 B3 74 00 73 B5 70 55 
   587)      1468.971 1  Rx        001A -  8    80 07 B3 FA 00 00 00 00 
   588)      1469.568 1  Rx        001B -  8    07 B3 74 00 45 AC 01 30 
   589)      1473.962 1  Rx        001A -  8    81 07 B3 FA 00 00 00 00 
   590)      1474.559 1  Rx        001B -  8    07 B3 74 00 DE 09 4D 5F 
   591)      1478.954 1  Rx        001A -  8    82 07 B3 FA 00 00 00 00 
   592)      1479.551 1  Rx        001B -  8    07 B3 74 00 A9 97 9F AF 
   593)      1483.988 1  Rx        001A -  8    83 07 B3 FA 00 00 00 00 
   594)      1484.543 1  Rx        001B -  8    07 B3 74 00 32 32 D3 C0 
   595)      1488.980 1  Rx        001A -  8    84 07 B3 FA 00 00 00 00 
   596)      1489.534 1  Rx        001B -  8    07 B3 74 00 46 AA 3A 4F 
   597)      1493.971 1  Rx        001A -  8    85 07 B3 FA 00 00 00 00 
   598)      1494.526 1  Rx        001B -  8    07 B3 74 00 DD 0F 76 20 
   599)      1498.963 1  Rx        001A -  8    86 07 B3 FA 00 00 00 00 
   600)      1499.560 1  Rx        001B -  8    07 B3 74 00 AA 91 A4 D0 
   601)      1503.954 1  Rx        001A -  8    87 07 B3 FA 00 00 00 00 
   602)      1504.552 1  Rx        001B -  8    07 B3 74 00 31 34 E8 BF 
   603)      1508.946 1  Rx        001A -  8    88 07 B3 FA 00 00 00 00 
   604)      1509.543 1  Rx        001B -  8    07 B3 74 00 43 A0 77 CE 
   605)      1513.980 1  Rx        001A -  8    89 07 B3 FA 00 00 00 00 
   606)      1514.535 1  Rx        001B -  8    07 B3 74 00 D8 05 3B A1 
   607)      1518.972 1  Rx        001A -  8    8A 07 B3 FA 00 00 00 00 
   608)      1519.526 1  Rx        001B -  8    07 B3 74 00 AF 9B E9 51 
   609)      1523.963 1  Rx        001A -  8    8B 07 B3 FA 00 00 00 00 
   610)      1524.560 1  Rx        001B -  8    07 B3 74 00 34 3E A5 3E 
   611)      1528.955 1  Rx        001A -  8    8C 07 B3 FA 00 00 00 00 
   612)      1529.552 1  Rx        001B -  8    07 B3 74 00 40 A6 4C B1 
   613)      1533.946 1  Rx        001A -  8    8D 07 B3 FA 00 00 00 00 
   614)      1534.544 1  Rx        001B -  8    07 B3 74 00 DB 03 00 DE 
   615)      1538.938 1  Rx        001A -  8    8E 07 B3 FA 00 00 00 00 
   616)      1539.535 1  Rx        001B -  8    07 B3 74 00 AC 9D D2 2E 
   617)      1543.972 1  Rx        001A -  8    8F 07 B3 FA 00 00 00 00 
   618)      1544.527 1  Rx        001B -  8    07 B3 74 00 37 38 9E 41 
   619)      1548.964 1  Rx        001A -  8    90 07 B3 FA 00 00 00 00 
   620)      1549.518 1  Rx        001B -  8    07 B3 74 00 49 B4 EC CC 
   621)      1553.955 1  Rx        001A -  8    91 07 B3 FA 00 00 00 00 
   622)      1554.553 1  Rx        001B -  8    07 B3 74 00 D2 11 A0 A3 
   623)      1558.947 1  Rx        001A -  8    92 07 B3 FA 00 00 00 00 
   624)      1559.544 1  Rx        001B -  8    07 B3 74 00 A5 8F 72 53 
   625)      1563.981 1  Rx        001A -  8    93 07 B3 FA 00 00 00 00 
   626)      1564.536 1  Rx        001B -  8    07 B3 74 00 3E 2A 3E 3C 
   627)      1568.973 1  Rx        001A -  8    94 07 B3 FA 00 00 00 00 
   628)      1569.527 1  Rx        001B -  8    07 B3 74 00 4A B2 D7 B3 
   629)      1573.964 1  Rx        001A -  8    95 07 B3 FA 00 00 00 00 
   630)      1574.519 1  Rx        001B -  8    07 B3 74 00 D1 17 9B DC 
   631)      1578.956 1  Rx        001A -  8    96 07 B3 FA 00 00 00 00 
   632)      1579.553 1  Rx        001B -  8    07 B3 74 00 A6 89 49 2C 
   633)      1583.947 1  Rx        001A -  8    97 07 B3 FA 00 00 00 00 
   634)      1584.545 1  Rx        001B -  8    07 B3 74 00 3D 2C 05 43 
   635)      1588.939 1  Rx        001A -  8    98 07 B3 FA 00 00 00 00 
   636)      1589.536 1  Rx        001B -  8    07 B3 74 00 4F B8 9A 32 
   637)      1593.973 1  Rx        001A -  8    99 07 B3 FA 00 00 00 00 
   638)      1594.528 1  Rx        001B -  8    07 B3 74 00 D4 1D D6 5D 
   639)      1598.965 1  Rx        001A -  8    9A 07 B3 FA 00 00 00 00 
   640)      1599.562 1  Rx        001B -  8    07 B3 74 00 A3 83 04 AD 
   641)      1603.956 1  Rx        001A -  8    9B 07 B3 FA 00 00 00 00 
   642)      1604.554 1  Rx        001B -  8    07 B3 74 00 38 26 48 C2 
   643)      1608.948 1  Rx        001A -  8    9C 07 B3 FA 00 00 00 00 
   644)      1609.545 1  Rx        001B -  8    07 B3 74 00 4C BE A1 4D 
   645)      1613.939 1  Rx        001A -  8    9D 07 B3 FA 00 00 00 00 
   646)      1614.537 1  Rx        001B -  8    07 B3 74 00 D7 1B ED 22 
   647)      1618.974 1  Rx        001A -  8    9E 07 B3 FA 00 00 00 00 
   648)      1619.528 1  Rx        001B -  8    07 B3 74 00 A0 85 3F D2 
   649)      1623.965 1  Rx        001A -  8    9F 07 B3 FA 00 00 00 00 
   650)      1624.520 1  Rx        001B -  8    07 B3 74 00 3B 20 73 BD 
   651)      1628.957 1  Rx        001A -  8    A0 07 B3 FA 00 00 00 00 
   652)      1629.554 1  Rx        001B -  8    07 B3 74 00 5D 9D DA C8 
   653)      1633.948 1  Rx        001A -  8    A1 07 B3 FA 00 00 00 00 
   654)      1634.546 1  Rx        001B -  8    07 B3 74 00 C6 38 96 A7 
   655)      1638.940 1  Rx        001A -  8    A2 07 B3 FA 00 00 00 00 
   656)      1639.537 1  Rx        001B -  8    07 B3 74 00 B1 A6 44 57 
   657)      1643.974 1  Rx        001A -  8    A3 07 B3 FA 00 00 00 00 
   658)      1644.529 1  Rx        001B -  8    07 B3 74 00 2A 03 08 38 
   659)      1648.966 1  Rx        001A -  8    A4 07 B3 FA 00 00 00 00 
   660)      1649.563 1  Rx        001B -  8    07 B3 74 00 5E 9B E1 B7 
   661)      1653.957 1  Rx        001A -  8    A5 07 B3 FA 00 00 00 00 
   662)      1654.555 1  Rx        001B -  8    07 B3 74 00 C5 3E AD D8 
   663)      1658.949 1  Rx        001A -  8    A6 07 B3 FA 00 00 00 00 
   664)      1659.546 1  Rx        001B -  8    07 B3 74 00 B2 A0 7F 28 
   665)      1663.940 1  Rx        001A -  8    A7 07 B3 FA 00 00 00 00 
   666)      1664.538 1  Rx        001B -  8    07 B3 74 00 29 05 33 47 
   667)      1668.932 1  Rx        001A -  8    A8 07 B3 FA 00 00 00 00 
   668)      1669.529 1  Rx        001B -  8    07 B3 74 00 5B 91 AC 36 
   669)      1673.966 1  Rx        001A -  8    A9 07 B3 FA 00 00 00 00 
   670)      1674.521 1  Rx        001B -  8    07 B3 74 00 C0 34 E0 59 
   671)      1678.958 1  Rx        001A -  8    AA 07 B3 FA 00 00 00 00 
   672)      1679.512 1  Rx        001B -  8    07 B3 74 00 B7 AA 32 A9 
