;$FILEVERSION=1.3
;$STARTTIME=43467.3834462503
;
;   F:\Galx_1133 Selector 6 box\PCAN_Data\ENC_CAN\Idle.trc
;   Start time: 1/2/2019 09:12:09.756.0
;-------------------------------------------------------------------------------
;   Bus  Name        Connection           Protocol
;   1    CEDS_2_CAN  CEDS_2_CAN@pcan_usb  CAN
;-------------------------------------------------------------------------------
;   Message Number
;   |         Time Offset (ms)
;   |         |       Bus
;   |         |       |    Type
;   |         |       |    |       ID (hex)
;   |         |       |    |       |    Reserved
;   |         |       |    |       |    |   Data Length Code
;   |         |       |    |       |    |   |    Data Bytes (hex) ...
;   |         |       |    |       |    |   |    |
;   |         |       |    |       |    |   |    |
;---+-- ------+------ +- --+-- ----+--- +- -+-- -+ -- -- -- -- -- -- --
     1)     18588.013 1  Rx        002A -  8    0F 00 11 94 00 04 00 00 
     2)     18588.483 1  Rx        002B -  8    00 11 94 00 AA D2 02 B0 
     3)     18588.995 1  Rx        001A -  8    10 00 11 94 00 04 00 00 
     4)     18589.464 1  Rx        001B -  8    00 11 94 00 D4 5E 70 3D 
     5)     18589.933 1  Rx        002A -  8    10 00 11 94 00 04 00 00 
     6)     18590.402 1  Rx        002B -  8    00 11 94 00 D4 5E 70 3D 
     7)     18590.914 1  Rx        001A -  8    11 00 11 94 00 04 00 00 
     8)     18591.384 1  Rx        001B -  8    00 11 94 00 4F FB 3C 52 
     9)     18592.493 1  Rx        002A -  8    11 00 11 94 00 04 00 00 
    10)     18594.967 1  Rx        002B -  8    00 11 94 00 4F FB 3C 52 
    11)     18597.484 1  Rx        001A -  8    12 00 11 94 00 04 00 00 
    12)     18599.959 1  Rx        001B -  8    00 11 94 00 38 65 EE A2 
    13)     18602.476 1  Rx        002A -  8    12 00 11 94 00 04 00 00 
    14)     18604.950 1  Rx        002B -  8    00 11 94 00 38 65 EE A2 
    15)     18607.468 1  Rx        001A -  8    13 00 11 94 00 04 00 00 
    16)     18609.985 1  Rx        001B -  8    00 11 94 00 A3 C0 A2 CD 
    17)     18612.459 1  Rx        002A -  8    13 00 11 94 00 04 00 00 
    18)     18614.976 1  Rx        002B -  8    00 11 94 00 A3 C0 A2 CD 
    19)     18617.493 1  Rx        001A -  8    14 00 11 94 00 04 00 00 
    20)     18619.968 1  Rx        001B -  8    00 11 94 00 D7 58 4B 42 
    21)     18622.485 1  Rx        002A -  8    14 00 11 94 00 04 00 00 
    22)     18624.959 1  Rx        002B -  8    00 11 94 00 D7 58 4B 42 
    23)     18627.477 1  Rx        001A -  8    15 00 11 94 00 04 00 00 
    24)     18629.994 1  Rx        001B -  8    00 11 94 00 4C FD 07 2D 
    25)     18632.468 1  Rx        002A -  8    15 00 11 94 00 04 00 00 
    26)     18634.985 1  Rx        002B -  8    00 11 94 00 4C FD 07 2D 
    27)     18637.460 1  Rx        001A -  8    16 00 11 94 00 04 00 00 
    28)     18639.977 1  Rx        001B -  8    00 11 94 00 3B 63 D5 DD 
    29)     18642.494 1  Rx        002A -  8    16 00 11 94 00 04 00 00 
    30)     18644.968 1  Rx        002B -  8    00 11 94 00 3B 63 D5 DD 
    31)     18647.485 1  Rx        001A -  8    17 00 11 94 00 04 00 00 
    32)     18649.960 1  Rx        001B -  8    00 11 94 00 A0 C6 99 B2 
    33)     18652.477 1  Rx        002A -  8    17 00 11 94 00 04 00 00 
    34)     18654.994 1  Rx        002B -  8    00 11 94 00 A0 C6 99 B2 
    35)     18657.469 1  Rx        001A -  8    18 00 11 94 00 04 00 00 
    36)     18659.986 1  Rx        001B -  8    00 11 94 00 D2 52 06 C3 
    37)     18662.460 1  Rx        002A -  8    18 00 11 94 00 04 00 00 
    38)     18664.977 1  Rx        002B -  8    00 11 94 00 D2 52 06 C3 
    39)     18667.452 1  Rx        001A -  8    19 00 11 94 00 04 00 00 
    40)     18669.969 1  Rx        001B -  8    00 11 94 00 49 F7 4A AC 
    41)     18672.486 1  Rx        002A -  8    19 00 11 94 00 04 00 00 
    42)     18674.960 1  Rx        002B -  8    00 11 94 00 49 F7 4A AC 
    43)     18677.478 1  Rx        001A -  8    1A 00 11 94 00 04 00 00 
    44)     18679.952 1  Rx        001B -  8    00 11 94 00 3E 69 98 5C 
    45)     18682.469 1  Rx        002A -  8    1A 00 11 94 00 04 00 00 
    46)     18684.986 1  Rx        002B -  8    00 11 94 00 3E 69 98 5C 
    47)     18687.461 1  Rx        001A -  8    1B 00 11 94 00 04 00 00 
    48)     18689.978 1  Rx        001B -  8    00 11 94 00 A5 CC D4 33 
    49)     18692.452 1  Rx        002A -  8    1B 00 11 94 00 04 00 00 
    50)     18694.969 1  Rx        002B -  8    00 11 94 00 A5 CC D4 33 
    51)     18697.487 1  Rx        001A -  8    1C 00 11 94 00 04 00 00 
    52)     18699.961 1  Rx        001B -  8    00 11 94 00 D1 54 3D BC 
    53)     18702.478 1  Rx        002A -  8    1C 00 11 94 00 04 00 00 
    54)     18704.953 1  Rx        002B -  8    00 11 94 00 D1 54 3D BC 
    55)     18707.470 1  Rx        001A -  8    1D 00 11 94 00 04 00 00 
    56)     18709.944 1  Rx        001B -  8    00 11 94 00 4A F1 71 D3 
    57)     18712.461 1  Rx        002A -  8    1D 00 11 94 00 04 00 00 
    58)     18714.978 1  Rx        002B -  8    00 11 94 00 4A F1 71 D3 
    59)     18717.495 1  Rx        001A -  8    1E 00 11 94 00 04 00 00 
    60)     18719.970 1  Rx        001B -  8    00 11 94 00 3D 6F A3 23 
    61)     18722.487 1  Rx        002A -  8    1E 00 11 94 00 04 00 00 
    62)     18724.961 1  Rx        002B -  8    00 11 94 00 3D 6F A3 23 
    63)     18727.479 1  Rx        001A -  8    1F 00 11 94 00 04 00 00 
    64)     18729.953 1  Rx        001B -  8    00 11 94 00 A6 CA EF 4C 
    65)     18732.470 1  Rx        002A -  8    1F 00 11 94 00 04 00 00 
    66)     18734.945 1  Rx        002B -  8    00 11 94 00 A6 CA EF 4C 
    67)     18737.462 1  Rx        001A -  8    20 00 11 94 00 04 00 00 
    68)     18739.979 1  Rx        001B -  8    00 11 94 00 C0 77 46 39 
    69)     18742.496 1  Rx        002A -  8    20 00 11 94 00 04 00 00 
    70)     18744.970 1  Rx        002B -  8    00 11 94 00 C0 77 46 39 
    71)     18747.488 1  Rx        001A -  8    21 00 11 94 00 04 00 00 
    72)     18749.962 1  Rx        001B -  8    00 11 94 00 5B D2 0A 56 
    73)     18752.479 1  Rx        002A -  8    21 00 11 94 00 04 00 00 
    74)     18754.954 1  Rx        002B -  8    00 11 94 00 5B D2 0A 56 
    75)     18757.471 1  Rx        001A -  8    22 00 11 94 00 04 00 00 
    76)     18759.945 1  Rx        001B -  8    00 11 94 00 2C 4C D8 A6 
    77)     18762.462 1  Rx        002A -  8    22 00 11 94 00 04 00 00 
    78)     18764.937 1  Rx        002B -  8    00 11 94 00 2C 4C D8 A6 
    79)     18767.454 1  Rx        001A -  8    23 00 11 94 00 04 00 00 
    80)     18769.971 1  Rx        001B -  8    00 11 94 00 B7 E9 94 C9 
    81)     18772.488 1  Rx        002A -  8    23 00 11 94 00 04 00 00 
    82)     18774.963 1  Rx        002B -  8    00 11 94 00 B7 E9 94 C9 
    83)     18777.480 1  Rx        001A -  8    24 00 11 94 00 04 00 00 
    84)     18779.954 1  Rx        001B -  8    00 11 94 00 C3 71 7D 46 
    85)     18782.471 1  Rx        002A -  8    24 00 11 94 00 04 00 00 
    86)     18784.946 1  Rx        002B -  8    00 11 94 00 C3 71 7D 46 
    87)     18787.463 1  Rx        001A -  8    25 00 11 94 00 04 00 00 
    88)     18789.937 1  Rx        001B -  8    00 11 94 00 58 D4 31 29 
    89)     18792.454 1  Rx        002A -  8    25 00 11 94 00 04 00 00 
    90)     18794.971 1  Rx        002B -  8    00 11 94 00 58 D4 31 29 
    91)     18797.489 1  Rx        001A -  8    26 00 11 94 00 04 00 00 
    92)     18799.963 1  Rx        001B -  8    00 11 94 00 2F 4A E3 D9 
    93)     18802.480 1  Rx        002A -  8    26 00 11 94 00 04 00 00 
    94)     18804.955 1  Rx        002B -  8    00 11 94 00 2F 4A E3 D9 
    95)     18807.472 1  Rx        001A -  8    27 00 11 94 00 04 00 00 
    96)     18809.989 1  Rx        001B -  8    00 11 94 00 B4 EF AF B6 
    97)     18812.463 1  Rx        002A -  8    27 00 11 94 00 04 00 00 
    98)     18814.980 1  Rx        002B -  8    00 11 94 00 B4 EF AF B6 
    99)     18817.455 1  Rx        001A -  8    28 00 11 94 00 04 00 00 
   100)     18819.972 1  Rx        001B -  8    00 11 94 00 C6 7B 30 C7 
   101)     18822.489 1  Rx        002A -  8    28 00 11 94 00 04 00 00 
   102)     18824.964 1  Rx        002B -  8    00 11 94 00 C6 7B 30 C7 
   103)     18827.481 1  Rx        001A -  8    29 00 11 94 00 04 00 00 
   104)     18829.955 1  Rx        001B -  8    00 11 94 00 5D DE 7C A8 
   105)     18832.472 1  Rx        002A -  8    29 00 11 94 00 04 00 00 
   106)     18834.947 1  Rx        002B -  8    00 11 94 00 5D DE 7C A8 
   107)     18837.464 1  Rx        001A -  8    2A 00 11 94 00 04 00 00 
   108)     18839.981 1  Rx        001B -  8    00 11 94 00 2A 40 AE 58 
   109)     18842.498 1  Rx        002A -  8    2A 00 11 94 00 04 00 00 
   110)     18844.973 1  Rx        002B -  8    00 11 94 00 2A 40 AE 58 
   111)     18847.490 1  Rx        001A -  8    2B 00 11 94 00 04 00 00 
   112)     18849.964 1  Rx        001B -  8    00 11 94 00 B1 E5 E2 37 
   113)     18852.481 1  Rx        002A -  8    2B 00 11 94 00 04 00 00 
   114)     18854.956 1  Rx        002B -  8    00 11 94 00 B1 E5 E2 37 
   115)     18857.473 1  Rx        001A -  8    2C 00 11 94 00 04 00 00 
   116)     18859.947 1  Rx        001B -  8    00 11 94 00 C5 7D 0B B8 
   117)     18862.464 1  Rx        002A -  8    2C 00 11 94 00 04 00 00 
   118)     18864.939 1  Rx        002B -  8    00 11 94 00 C5 7D 0B B8 
   119)     18867.456 1  Rx        001A -  8    2D 00 11 94 00 04 00 00 
   120)     18869.973 1  Rx        001B -  8    00 11 94 00 5E D8 47 D7 
   121)     18872.447 1  Rx        002A -  8    2D 00 11 94 00 04 00 00 
   122)     18874.965 1  Rx        002B -  8    00 11 94 00 5E D8 47 D7 
   123)     18877.482 1  Rx        001A -  8    2E 00 11 94 00 04 00 00 
   124)     18879.956 1  Rx        001B -  8    00 11 94 00 29 46 95 27 
   125)     18882.473 1  Rx        002A -  8    2E 00 11 94 00 04 00 00 
   126)     18884.948 1  Rx        002B -  8    00 11 94 00 29 46 95 27 
   127)     18887.465 1  Rx        001A -  8    2F 00 11 94 00 04 00 00 
   128)     18889.939 1  Rx        001B -  8    00 11 94 00 B2 E3 D9 48 
   129)     18892.456 1  Rx        002A -  8    2F 00 11 94 00 04 00 00 
   130)     18894.931 1  Rx        002B -  8    00 11 94 00 B2 E3 D9 48 
   131)     18897.491 1  Rx        001A -  8    30 00 11 94 00 04 00 00 
   132)     18899.965 1  Rx        001B -  8    00 11 94 00 CC 6F AB C5 
   133)     18902.482 1  Rx        002A -  8    30 00 11 94 00 04 00 00 
   134)     18904.957 1  Rx        002B -  8    00 11 94 00 CC 6F AB C5 
   135)     18907.474 1  Rx        001A -  8    31 00 11 94 00 04 00 00 
   136)     18909.948 1  Rx        001B -  8    00 11 94 00 57 CA E7 AA 
   137)     18912.465 1  Rx        002A -  8    31 00 11 94 00 04 00 00 
   138)     18914.940 1  Rx        002B -  8    00 11 94 00 57 CA E7 AA 
   139)     18917.457 1  Rx        001A -  8    32 00 11 94 00 04 00 00 
   140)     18919.974 1  Rx        001B -  8    00 11 94 00 20 54 35 5A 
   141)     18922.449 1  Rx        002A -  8    32 00 11 94 00 04 00 00 
   142)     18924.966 1  Rx        002B -  8    00 11 94 00 20 54 35 5A 
   143)     18927.440 1  Rx        001A -  8    33 00 11 94 00 04 00 00 
   144)     18929.957 1  Rx        001B -  8    00 11 94 00 BB F1 79 35 
   145)     18932.474 1  Rx        002A -  8    33 00 11 94 00 04 00 00 
   146)     18934.949 1  Rx        002B -  8    00 11 94 00 BB F1 79 35 
   147)     18937.466 1  Rx        001A -  8    34 00 11 94 00 04 00 00 
   148)     18939.940 1  Rx        001B -  8    00 11 94 00 CF 69 90 BA 
   149)     18942.457 1  Rx        002A -  8    34 00 11 94 00 04 00 00 
   150)     18944.932 1  Rx        002B -  8    00 11 94 00 CF 69 90 BA 
   151)     18947.449 1  Rx        001A -  8    35 00 11 94 00 04 00 00 
   152)     18949.966 1  Rx        001B -  8    00 11 94 00 54 CC DC D5 
   153)     18952.483 1  Rx        002A -  8    35 00 11 94 00 04 00 00 
   154)     18954.958 1  Rx        002B -  8    00 11 94 00 54 CC DC D5 
   155)     18957.475 1  Rx        001A -  8    36 00 11 94 00 04 00 00 
   156)     18959.949 1  Rx        001B -  8    00 11 94 00 23 52 0E 25 
   157)     18962.466 1  Rx        002A -  8    36 00 11 94 00 04 00 00 
   158)     18964.941 1  Rx        002B -  8    00 11 94 00 23 52 0E 25 
   159)     18967.458 1  Rx        001A -  8    37 00 11 94 00 04 00 00 
   160)     18969.932 1  Rx        001B -  8    00 11 94 00 B8 F7 42 4A 
   161)     18972.450 1  Rx        002A -  8    37 00 11 94 00 04 00 00 
   162)     18974.967 1  Rx        002B -  8    00 11 94 00 B8 F7 42 4A 
   163)     18977.484 1  Rx        001A -  8    38 00 11 94 00 04 00 00 
   164)     18979.958 1  Rx        001B -  8    00 11 94 00 CA 63 DD 3B 
   165)     18982.475 1  Rx        002A -  8    38 00 11 94 00 04 00 00 
   166)     18984.950 1  Rx        002B -  8    00 11 94 00 CA 63 DD 3B 
   167)     18987.467 1  Rx        001A -  8    39 00 11 94 00 04 00 00 
   168)     18989.941 1  Rx        001B -  8    00 11 94 00 51 C6 91 54 
   169)     18992.459 1  Rx        002A -  8    39 00 11 94 00 04 00 00 
   170)     18994.933 1  Rx        002B -  8    00 11 94 00 51 C6 91 54 
   171)     18997.450 1  Rx        001A -  8    3A 00 11 94 00 04 00 00 
   172)     18999.967 1  Rx        001B -  8    00 11 94 00 26 58 43 A4 
   173)     19002.442 1  Rx        002A -  8    3A 00 11 94 00 04 00 00 
   174)     19004.959 1  Rx        002B -  8    00 11 94 00 26 58 43 A4 
   175)     19007.476 1  Rx        001A -  8    3B 00 11 94 00 04 00 00 
   176)     19009.950 1  Rx        001B -  8    00 11 94 00 BD FD 0F CB 
   177)     19012.467 1  Rx        002A -  8    3B 00 11 94 00 04 00 00 
   178)     19014.942 1  Rx        002B -  8    00 11 94 00 BD FD 0F CB 
   179)     19017.459 1  Rx        001A -  8    3C 00 11 94 00 04 00 00 
   180)     19019.933 1  Rx        001B -  8    00 11 94 00 C9 65 E6 44 
   181)     19022.451 1  Rx        002A -  8    3C 00 11 94 00 04 00 00 
   182)     19024.968 1  Rx        002B -  8    00 11 94 00 C9 65 E6 44 
   183)     19027.442 1  Rx        001A -  8    3D 00 11 94 00 04 00 00 
   184)     19029.959 1  Rx        001B -  8    00 11 94 00 52 C0 AA 2B 
   185)     19032.476 1  Rx        002A -  8    3D 00 11 94 00 04 00 00 
   186)     19034.951 1  Rx        002B -  8    00 11 94 00 52 C0 AA 2B 
   187)     19037.468 1  Rx        001A -  8    3E 00 11 94 00 04 00 00 
   188)     19039.942 1  Rx        001B -  8    00 11 94 00 25 5E 78 DB 
   189)     19042.460 1  Rx        002A -  8    3E 00 11 94 00 04 00 00 
   190)     19044.934 1  Rx        002B -  8    00 11 94 00 25 5E 78 DB 
   191)     19047.451 1  Rx        001A -  8    3F 00 11 94 00 04 00 00 
   192)     19050.182 1  Rx        001B -  8    00 11 94 00 BE FB 34 B4 
   193)     19052.443 1  Rx        002A -  8    3F 00 11 94 00 04 00 00 
   194)     19054.960 1  Rx        002B -  8    00 11 94 00 BE FB 34 B4 
   195)     19057.477 1  Rx        001A -  8    40 00 11 94 00 04 00 00 
   196)     19059.951 1  Rx        001B -  8    00 11 94 00 E8 25 2A 31 
   197)     19062.468 1  Rx        002A -  8    40 00 11 94 00 04 00 00 
   198)     19064.943 1  Rx        002B -  8    00 11 94 00 E8 25 2A 31 
   199)     19067.460 1  Rx        001A -  8    41 00 11 94 00 04 00 00 
   200)     19069.935 1  Rx        001B -  8    00 11 94 00 73 80 66 5E 
   201)     19072.452 1  Rx        002A -  8    41 00 11 94 00 04 00 00 
   202)     19074.969 1  Rx        002B -  8    00 11 94 00 73 80 66 5E 
   203)     19077.443 1  Rx        001A -  8    42 00 11 94 00 04 00 00 
   204)     19079.960 1  Rx        001B -  8    00 11 94 00 04 1E B4 AE 
   205)     19082.435 1  Rx        002A -  8    42 00 11 94 00 04 00 00 
   206)     19084.952 1  Rx        002B -  8    00 11 94 00 04 1E B4 AE 
   207)     19087.469 1  Rx        001A -  8    43 00 11 94 00 04 00 00 
   208)     19089.943 1  Rx        001B -  8    00 11 94 00 9F BB F8 C1 
   209)     19092.461 1  Rx        002A -  8    43 00 11 94 00 04 00 00 
   210)     19094.978 1  Rx        002B -  8    00 11 94 00 9F BB F8 C1 
   211)     19097.452 1  Rx        001A -  8    44 00 11 94 00 04 00 00 
   212)     19099.927 1  Rx        001B -  8    00 11 94 00 EB 23 11 4E 
   213)     19102.444 1  Rx        002A -  8    44 00 11 94 00 04 00 00 
   214)     19104.961 1  Rx        002B -  8    00 11 94 00 EB 23 11 4E 
   215)     19107.435 1  Rx        001A -  8    45 00 11 94 00 04 00 00 
   216)     19110.166 1  Rx        001B -  8    00 11 94 00 70 86 5D 21 
   217)     19112.427 1  Rx        002A -  8    45 00 11 94 00 04 00 00 
   218)     19114.944 1  Rx        002B -  8    00 11 94 00 70 86 5D 21 
   219)     19117.461 1  Rx        001A -  8    46 00 11 94 00 04 00 00 
   220)     19119.936 1  Rx        001B -  8    00 11 94 00 07 18 8F D1 
   221)     19122.453 1  Rx        002A -  8    46 00 11 94 00 04 00 00 
   222)     19124.970 1  Rx        002B -  8    00 11 94 00 07 18 8F D1 
   223)     19127.444 1  Rx        001A -  8    47 00 11 94 00 04 00 00 
   224)     19129.961 1  Rx        001B -  8    00 11 94 00 9C BD C3 BE 
   225)     19132.436 1  Rx        002A -  8    47 00 11 94 00 04 00 00 
   226)     19134.953 1  Rx        002B -  8    00 11 94 00 9C BD C3 BE 
   227)     19137.470 1  Rx        001A -  8    48 00 11 94 00 04 00 00 
   228)     19139.944 1  Rx        001B -  8    00 11 94 00 EE 29 5C CF 
   229)     19142.462 1  Rx        002A -  8    48 00 11 94 00 04 00 00 
   230)     19144.936 1  Rx        002B -  8    00 11 94 00 EE 29 5C CF 
   231)     19147.453 1  Rx        001A -  8    49 00 11 94 00 04 00 00 
   232)     19149.928 1  Rx        001B -  8    00 11 94 00 75 8C 10 A0 
   233)     19152.445 1  Rx        002A -  8    49 00 11 94 00 04 00 00 
   234)     19154.962 1  Rx        002B -  8    00 11 94 00 75 8C 10 A0 
   235)     19157.436 1  Rx        001A -  8    4A 00 11 94 00 04 00 00 
   236)     19159.953 1  Rx        001B -  8    00 11 94 00 02 12 C2 50 
   237)     19162.428 1  Rx        002A -  8    4A 00 11 94 00 04 00 00 
   238)     19164.945 1  Rx        002B -  8    00 11 94 00 02 12 C2 50 
   239)     19167.462 1  Rx        001A -  8    4B 00 11 94 00 04 00 00 
   240)     19169.937 1  Rx        001B -  8    00 11 94 00 99 B7 8E 3F 
   241)     19172.454 1  Rx        002A -  8    4B 00 11 94 00 04 00 00 
   242)     19174.928 1  Rx        002B -  8    00 11 94 00 99 B7 8E 3F 
   243)     19177.445 1  Rx        001A -  8    4C 00 11 94 00 04 00 00 
   244)     19179.920 1  Rx        001B -  8    00 11 94 00 ED 2F 67 B0 
   245)     19182.437 1  Rx        002A -  8    4C 00 11 94 00 04 00 00 
   246)     19184.954 1  Rx        002B -  8    00 11 94 00 ED 2F 67 B0 
   247)     19187.428 1  Rx        001A -  8    4D 00 11 94 00 04 00 00 
   248)     19189.946 1  Rx        001B -  8    00 11 94 00 76 8A 2B DF 
   249)     19192.463 1  Rx        002A -  8    4D 00 11 94 00 04 00 00 
   250)     19194.937 1  Rx        002B -  8    00 11 94 00 76 8A 2B DF 
   251)     19197.454 1  Rx        001A -  8    4E 00 11 94 00 04 00 00 
   252)     19199.929 1  Rx        001B -  8    00 11 94 00 01 14 F9 2F 
   253)     19202.446 1  Rx        002A -  8    4E 00 11 94 00 04 00 00 
   254)     19204.963 1  Rx        002B -  8    00 11 94 00 01 14 F9 2F 
   255)     19207.437 1  Rx        001A -  8    4F 00 11 94 00 04 00 00 
   256)     19209.954 1  Rx        001B -  8    00 11 94 00 9A B1 B5 40 
   257)     19212.429 1  Rx        002A -  8    4F 00 11 94 00 04 00 00 
   258)     19214.946 1  Rx        002B -  8    00 11 94 00 9A B1 B5 40 
   259)     19217.463 1  Rx        001A -  8    50 00 11 94 00 04 00 00 
   260)     19219.938 1  Rx        001B -  8    00 11 94 00 E4 3D C7 CD 
   261)     19222.455 1  Rx        002A -  8    50 00 11 94 00 04 00 00 
   262)     19224.929 1  Rx        002B -  8    00 11 94 00 E4 3D C7 CD 
   263)     19227.446 1  Rx        001A -  8    51 00 11 94 00 04 00 00 
   264)     19229.921 1  Rx        001B -  8    00 11 94 00 7F 98 8B A2 
   265)     19232.438 1  Rx        002A -  8    51 00 11 94 00 04 00 00 
   266)     19234.955 1  Rx        002B -  8    00 11 94 00 7F 98 8B A2 
   267)     19237.429 1  Rx        001A -  8    52 00 11 94 00 04 00 00 
   268)     19239.947 1  Rx        001B -  8    00 11 94 00 08 06 59 52 
   269)     19242.464 1  Rx        002A -  8    52 00 11 94 00 04 00 00 
   270)     19244.938 1  Rx        002B -  8    00 11 94 00 08 06 59 52 
   271)     19247.455 1  Rx        001A -  8    53 00 11 94 00 04 00 00 
   272)     19249.930 1  Rx        001B -  8    00 11 94 00 93 A3 15 3D 
   273)     19252.447 1  Rx        002A -  8    53 00 11 94 00 04 00 00 
   274)     19254.921 1  Rx        002B -  8    00 11 94 00 93 A3 15 3D 
   275)     19257.438 1  Rx        001A -  8    54 00 11 94 00 04 00 00 
   276)     19259.956 1  Rx        001B -  8    00 11 94 00 E7 3B FC B2 
   277)     19262.430 1  Rx        002A -  8    54 00 11 94 00 04 00 00 
   278)     19264.947 1  Rx        002B -  8    00 11 94 00 E7 3B FC B2 
   279)     19267.464 1  Rx        001A -  8    55 00 11 94 00 04 00 00 
   280)     19269.939 1  Rx        001B -  8    00 11 94 00 7C 9E B0 DD 
   281)     19272.456 1  Rx        002A -  8    55 00 11 94 00 04 00 00 
   282)     19274.930 1  Rx        002B -  8    00 11 94 00 7C 9E B0 DD 
   283)     19277.447 1  Rx        001A -  8    56 00 11 94 00 04 00 00 
   284)     19279.964 1  Rx        001B -  8    00 11 94 00 0B 00 62 2D 
   285)     19282.439 1  Rx        002A -  8    56 00 11 94 00 04 00 00 
   286)     19284.956 1  Rx        002B -  8    00 11 94 00 0B 00 62 2D 
   287)     19287.430 1  Rx        001A -  8    57 00 11 94 00 04 00 00 
   288)     19289.948 1  Rx        001B -  8    00 11 94 00 90 A5 2E 42 
   289)     19292.422 1  Rx        002A -  8    57 00 11 94 00 04 00 00 
   290)     19294.939 1  Rx        002B -  8    00 11 94 00 90 A5 2E 42 
   291)     19297.456 1  Rx        001A -  8    58 00 11 94 00 04 00 00 
   292)     19299.931 1  Rx        001B -  8    00 11 94 00 E2 31 B1 33 
   293)     19302.448 1  Rx        002A -  8    58 00 11 94 00 04 00 00 
   294)     19304.922 1  Rx        002B -  8    00 11 94 00 E2 31 B1 33 
   295)     19307.439 1  Rx        001A -  8    59 00 11 94 00 04 00 00 
   296)     19309.957 1  Rx        001B -  8    00 11 94 00 79 94 FD 5C 
   297)     19312.431 1  Rx        002A -  8    59 00 11 94 00 04 00 00 
   298)     19314.948 1  Rx        002B -  8    00 11 94 00 79 94 FD 5C 
   299)     19317.423 1  Rx        001A -  8    5A 00 11 94 00 04 00 00 
   300)     19319.940 1  Rx        001B -  8    00 11 94 00 0E 0A 2F AC 
   301)     19322.457 1  Rx        002A -  8    5A 00 11 94 00 04 00 00 
   302)     19324.931 1  Rx        002B -  8    00 11 94 00 0E 0A 2F AC 
   303)     19327.448 1  Rx        001A -  8    5B 00 11 94 00 04 00 00 
   304)     19329.923 1  Rx        001B -  8    00 11 94 00 95 AF 63 C3 
   305)     19332.440 1  Rx        002A -  8    5B 00 11 94 00 04 00 00 
   306)     19334.914 1  Rx        002B -  8    00 11 94 00 95 AF 63 C3 
   307)     19337.432 1  Rx        001A -  8    5C 00 11 94 00 04 00 00 
   308)     19339.949 1  Rx        001B -  8    00 11 94 00 E1 37 8A 4C 
   309)     19342.466 1  Rx        002A -  8    5C 00 11 94 00 04 00 00 
   310)     19344.940 1  Rx        002B -  8    00 11 94 00 E1 37 8A 4C 
   311)     19347.457 1  Rx        001A -  8    5D 00 11 94 00 04 00 00 
   312)     19349.932 1  Rx        001B -  8    00 11 94 00 7A 92 C6 23 
   313)     19352.449 1  Rx        002A -  8    5D 00 11 94 00 04 00 00 
   314)     19354.923 1  Rx        002B -  8    00 11 94 00 7A 92 C6 23 
   315)     19357.440 1  Rx        001A -  8    5E 00 11 94 00 04 00 00 
   316)     19359.915 1  Rx        001B -  8    00 11 94 00 0D 0C 14 D3 
   317)     19362.432 1  Rx        002A -  8    5E 00 11 94 00 04 00 00 
   318)     19364.949 1  Rx        002B -  8    00 11 94 00 0D 0C 14 D3 
   319)     19367.424 1  Rx        001A -  8    5F 00 11 94 00 04 00 00 
   320)     19369.941 1  Rx        001B -  8    00 11 94 00 96 A9 58 BC 
   321)     19372.458 1  Rx        002A -  8    5F 00 11 94 00 04 00 00 
   322)     19374.932 1  Rx        002B -  8    00 11 94 00 96 A9 58 BC 
   323)     19377.449 1  Rx        001A -  8    60 00 11 94 00 04 00 00 
   324)     19379.924 1  Rx        001B -  8    00 11 94 00 F0 14 F1 C9 
   325)     19382.441 1  Rx        002A -  8    60 00 11 94 00 04 00 00 
   326)     19384.915 1  Rx        002B -  8    00 11 94 00 F0 14 F1 C9 
   327)     19387.433 1  Rx        001A -  8    61 00 11 94 00 04 00 00 
   328)     19389.980 1  Rx        001B -  8    00 11 94 00 6B B1 BD A6 
   329)     19392.454 1  Rx        002A -  8    61 00 11 94 00 04 00 00 
   330)     19394.971 1  Rx        002B -  8    00 11 94 00 6B B1 BD A6 
   331)     19397.446 1  Rx        001A -  8    62 00 11 94 00 04 00 00 
   332)     19399.963 1  Rx        001B -  8    00 11 94 00 1C 2F 6F 56 
   333)     19402.480 1  Rx        002A -  8    62 00 11 94 00 04 00 00 
   334)     19404.954 1  Rx        002B -  8    00 11 94 00 1C 2F 6F 56 
   335)     19407.472 1  Rx        001A -  8    63 00 11 94 00 04 00 00 
   336)     19409.946 1  Rx        001B -  8    00 11 94 00 87 8A 23 39 
   337)     19412.463 1  Rx        002A -  8    63 00 11 94 00 04 00 00 
   338)     19414.938 1  Rx        002B -  8    00 11 94 00 87 8A 23 39 
   339)     19417.455 1  Rx        001A -  8    64 00 11 94 00 04 00 00 
   340)     19419.972 1  Rx        001B -  8    00 11 94 00 F3 12 CA B6 
   341)     19422.489 1  Rx        002A -  8    64 00 11 94 00 04 00 00 
   342)     19424.963 1  Rx        002B -  8    00 11 94 00 F3 12 CA B6 
   343)     19427.480 1  Rx        001A -  8    65 00 11 94 00 04 00 00 
   344)     19429.955 1  Rx        001B -  8    00 11 94 00 68 B7 86 D9 
   345)     19432.472 1  Rx        002A -  8    65 00 11 94 00 04 00 00 
   346)     19434.946 1  Rx        002B -  8    00 11 94 00 68 B7 86 D9 
   347)     19437.464 1  Rx        001A -  8    66 00 11 94 00 04 00 00 
   348)     19439.938 1  Rx        001B -  8    00 11 94 00 1F 29 54 29 
   349)     19442.455 1  Rx        002A -  8    66 00 11 94 00 04 00 00 
   350)     19444.972 1  Rx        002B -  8    00 11 94 00 1F 29 54 29 
   351)     19447.447 1  Rx        001A -  8    67 00 11 94 00 04 00 00 
   352)     19449.964 1  Rx        001B -  8    00 11 94 00 84 8C 18 46 
   353)     19452.481 1  Rx        002A -  8    67 00 11 94 00 04 00 00 
   354)     19454.955 1  Rx        002B -  8    00 11 94 00 84 8C 18 46 
   355)     19457.473 1  Rx        001A -  8    68 00 11 94 00 04 00 00 
   356)     19459.947 1  Rx        001B -  8    00 11 94 00 F6 18 87 37 
   357)     19462.464 1  Rx        002A -  8    68 00 11 94 00 04 00 00 
   358)     19464.939 1  Rx        002B -  8    00 11 94 00 F6 18 87 37 
   359)     19467.456 1  Rx        001A -  8    69 00 11 94 00 04 00 00 
   360)     19469.973 1  Rx        001B -  8    00 11 94 00 6D BD CB 58 
   361)     19472.447 1  Rx        002A -  8    69 00 11 94 00 04 00 00 
   362)     19474.964 1  Rx        002B -  8    00 11 94 00 6D BD CB 58 
   363)     19477.439 1  Rx        001A -  8    6A 00 11 94 00 04 00 00 
   364)     19479.956 1  Rx        001B -  8    00 11 94 00 1A 23 19 A8 
   365)     19482.473 1  Rx        002A -  8    6A 00 11 94 00 04 00 00 
   366)     19484.948 1  Rx        002B -  8    00 11 94 00 1A 23 19 A8 
   367)     19487.465 1  Rx        001A -  8    6B 00 11 94 00 04 00 00 
   368)     19489.982 1  Rx        001B -  8    00 11 94 00 81 86 55 C7 
   369)     19492.456 1  Rx        002A -  8    6B 00 11 94 00 04 00 00 
   370)     19494.973 1  Rx        002B -  8    00 11 94 00 81 86 55 C7 
   371)     19497.448 1  Rx        001A -  8    6C 00 11 94 00 04 00 00 
   372)     19499.965 1  Rx        001B -  8    00 11 94 00 F5 1E BC 48 
   373)     19502.482 1  Rx        002A -  8    6C 00 11 94 00 04 00 00 
   374)     19504.956 1  Rx        002B -  8    00 11 94 00 F5 1E BC 48 
   375)     19507.474 1  Rx        001A -  8    6D 00 11 94 00 04 00 00 
   376)     19509.991 1  Rx        001B -  8    00 11 94 00 6E BB F0 27 
   377)     19512.465 1  Rx        002A -  8    6D 00 11 94 00 04 00 00 
   378)     19514.940 1  Rx        002B -  8    00 11 94 00 6E BB F0 27 
   379)     19517.457 1  Rx        001A -  8    6E 00 11 94 00 04 00 00 
   380)     19519.974 1  Rx        001B -  8    00 11 94 00 19 25 22 D7 
   381)     19522.448 1  Rx        002A -  8    6E 00 11 94 00 04 00 00 
   382)     19525.435 1  Rx        002B -  8    00 11 94 00 19 25 22 D7 
   383)     19527.440 1  Rx        001A -  8    6F 00 11 94 00 04 00 00 
   384)     19529.957 1  Rx        001B -  8    00 11 94 00 82 80 6E B8 
   385)     19532.474 1  Rx        002A -  8    6F 00 11 94 00 04 00 00 
   386)     19534.949 1  Rx        002B -  8    00 11 94 00 82 80 6E B8 
   387)     19537.466 1  Rx        001A -  8    70 00 11 94 00 04 00 00 
   388)     19539.983 1  Rx        001B -  8    00 11 94 00 FC 0C 1C 35 
   389)     19542.457 1  Rx        002A -  8    70 00 11 94 00 04 00 00 
   390)     19544.974 1  Rx        002B -  8    00 11 94 00 FC 0C 1C 35 
   391)     19547.449 1  Rx        001A -  8    71 00 11 94 00 04 00 00 
   392)     19549.966 1  Rx        001B -  8    00 11 94 00 67 A9 50 5A 
   393)     19552.440 1  Rx        002A -  8    71 00 11 94 00 04 00 00 
   394)     19554.957 1  Rx        002B -  8    00 11 94 00 67 A9 50 5A 
   395)     19557.475 1  Rx        001A -  8    72 00 11 94 00 04 00 00 
   396)     19559.949 1  Rx        001B -  8    00 11 94 00 10 37 82 AA 
   397)     19562.466 1  Rx        002A -  8    72 00 11 94 00 04 00 00 
   398)     19564.941 1  Rx        002B -  8    00 11 94 00 10 37 82 AA 
   399)     19567.458 1  Rx        001A -  8    73 00 11 94 00 04 00 00 
   400)     19569.975 1  Rx        001B -  8    00 11 94 00 8B 92 CE C5 
   401)     19572.449 1  Rx        002A -  8    73 00 11 94 00 04 00 00 
   402)     19574.966 1  Rx        002B -  8    00 11 94 00 8B 92 CE C5 
   403)     19577.441 1  Rx        001A -  8    74 00 11 94 00 04 00 00 
   404)     19579.958 1  Rx        001B -  8    00 11 94 00 FF 0A 27 4A 
   405)     19582.475 1  Rx        002A -  8    74 00 11 94 00 04 00 00 
   406)     19584.950 1  Rx        002B -  8    00 11 94 00 FF 0A 27 4A 
   407)     19587.467 1  Rx        001A -  8    75 00 11 94 00 04 00 00 
   408)     19589.941 1  Rx        001B -  8    00 11 94 00 64 AF 6B 25 
   409)     19592.458 1  Rx        002A -  8    75 00 11 94 00 04 00 00 
   410)     19594.933 1  Rx        002B -  8    00 11 94 00 64 AF 6B 25 
   411)     19597.450 1  Rx        001A -  8    76 00 11 94 00 04 00 00 
   412)     19599.967 1  Rx        001B -  8    00 11 94 00 13 31 B9 D5 
   413)     19602.441 1  Rx        002A -  8    76 00 11 94 00 04 00 00 
   414)     19604.959 1  Rx        002B -  8    00 11 94 00 13 31 B9 D5 
   415)     19607.476 1  Rx        001A -  8    77 00 11 94 00 04 00 00 
   416)     19609.950 1  Rx        001B -  8    00 11 94 00 88 94 F5 BA 
   417)     19612.467 1  Rx        002A -  8    77 00 11 94 00 04 00 00 
   418)     19614.942 1  Rx        002B -  8    00 11 94 00 88 94 F5 BA 
   419)     19617.459 1  Rx        001A -  8    78 00 11 94 00 04 00 00 
   420)     19619.976 1  Rx        001B -  8    00 11 94 00 FA 00 6A CB 
   421)     19622.450 1  Rx        002A -  8    78 00 11 94 00 04 00 00 
   422)     19624.967 1  Rx        002B -  8    00 11 94 00 FA 00 6A CB 
   423)     19627.442 1  Rx        001A -  8    79 00 11 94 00 04 00 00 
   424)     19629.959 1  Rx        001B -  8    00 11 94 00 61 A5 26 A4 
   425)     19632.476 1  Rx        002A -  8    79 00 11 94 00 04 00 00 
   426)     19634.951 1  Rx        002B -  8    00 11 94 00 61 A5 26 A4 
   427)     19637.468 1  Rx        001A -  8    7A 00 11 94 00 04 00 00 
   428)     19639.942 1  Rx        001B -  8    00 11 94 00 16 3B F4 54 
   429)     19642.459 1  Rx        002A -  8    7A 00 11 94 00 04 00 00 
   430)     19644.934 1  Rx        002B -  8    00 11 94 00 16 3B F4 54 
   431)     19647.451 1  Rx        001A -  8    7B 00 11 94 00 04 00 00 
   432)     19649.968 1  Rx        001B -  8    00 11 94 00 8D 9E B8 3B 
   433)     19652.442 1  Rx        002A -  8    7B 00 11 94 00 04 00 00 
   434)     19654.960 1  Rx        002B -  8    00 11 94 00 8D 9E B8 3B 
   435)     19657.477 1  Rx        001A -  8    7C 00 11 94 00 04 00 00 
   436)     19659.951 1  Rx        001B -  8    00 11 94 00 F9 06 51 B4 
   437)     19662.468 1  Rx        002A -  8    7C 00 11 94 00 04 00 00 
   438)     19664.943 1  Rx        002B -  8    00 11 94 00 F9 06 51 B4 
   439)     19667.460 1  Rx        001A -  8    7D 00 11 94 00 04 00 00 
   440)     19669.934 1  Rx        001B -  8    00 11 94 00 62 A3 1D DB 
   441)     19672.451 1  Rx        002A -  8    7D 00 11 94 00 04 00 00 
   442)     19674.926 1  Rx        002B -  8    00 11 94 00 62 A3 1D DB 
   443)     19677.443 1  Rx        001A -  8    7E 00 11 94 00 04 00 00 
   444)     19679.960 1  Rx        001B -  8    00 11 94 00 15 3D CF 2B 
   445)     19682.477 1  Rx        002A -  8    7E 00 11 94 00 04 00 00 
   446)     19684.952 1  Rx        002B -  8    00 11 94 00 15 3D CF 2B 
   447)     19687.469 1  Rx        001A -  8    7F 00 11 94 00 04 00 00 
   448)     19689.943 1  Rx        001B -  8    00 11 94 00 8E 98 83 44 
   449)     19692.460 1  Rx        002A -  8    7F 00 11 94 00 04 00 00 
   450)     19694.935 1  Rx        002B -  8    00 11 94 00 8E 98 83 44 
   451)     19697.452 1  Rx        001A -  8    80 00 11 94 00 04 00 00 
   452)     19699.969 1  Rx        001B -  8    00 11 94 00 B8 81 F2 21 
   453)     19702.443 1  Rx        002A -  8    80 00 11 94 00 04 00 00 
   454)     19704.961 1  Rx        002B -  8    00 11 94 00 B8 81 F2 21 
   455)     19707.435 1  Rx        001A -  8    81 00 11 94 00 04 00 00 
   456)     19709.952 1  Rx        001B -  8    00 11 94 00 23 24 BE 4E 
   457)     19712.469 1  Rx        002A -  8    81 00 11 94 00 04 00 00 
   458)     19714.944 1  Rx        002B -  8    00 11 94 00 23 24 BE 4E 
   459)     19717.461 1  Rx        001A -  8    82 00 11 94 00 04 00 00 
   460)     19719.935 1  Rx        001B -  8    00 11 94 00 54 BA 6C BE 
   461)     19722.452 1  Rx        002A -  8    82 00 11 94 00 04 00 00 
   462)     19724.927 1  Rx        002B -  8    00 11 94 00 54 BA 6C BE 
   463)     19727.444 1  Rx        001A -  8    83 00 11 94 00 04 00 00 
   464)     19729.961 1  Rx        001B -  8    00 11 94 00 CF 1F 20 D1 
   465)     19732.436 1  Rx        002A -  8    83 00 11 94 00 04 00 00 
   466)     19735.465 1  Rx        002B -  8    00 11 94 00 CF 1F 20 D1 
   467)     19737.427 1  Rx        001A -  8    84 00 11 94 00 04 00 00 
   468)     19739.944 1  Rx        001B -  8    00 11 94 00 BB 87 C9 5E 
   469)     19742.461 1  Rx        002A -  8    84 00 11 94 00 04 00 00 
   470)     19744.936 1  Rx        002B -  8    00 11 94 00 BB 87 C9 5E 
   471)     19747.453 1  Rx        001A -  8    85 00 11 94 00 04 00 00 
   472)     19749.970 1  Rx        001B -  8    00 11 94 00 20 22 85 31 
   473)     19752.445 1  Rx        002A -  8    85 00 11 94 00 04 00 00 
   474)     19754.962 1  Rx        002B -  8    00 11 94 00 20 22 85 31 
   475)     19757.436 1  Rx        001A -  8    86 00 11 94 00 04 00 00 
   476)     19759.953 1  Rx        001B -  8    00 11 94 00 57 BC 57 C1 
   477)     19762.428 1  Rx        002A -  8    86 00 11 94 00 04 00 00 
   478)     19764.945 1  Rx        002B -  8    00 11 94 00 57 BC 57 C1 
   479)     19767.462 1  Rx        001A -  8    87 00 11 94 00 04 00 00 
   480)     19769.936 1  Rx        001B -  8    00 11 94 00 CC 19 1B AE 
   481)     19772.453 1  Rx        002A -  8    87 00 11 94 00 04 00 00 
   482)     19774.928 1  Rx        002B -  8    00 11 94 00 CC 19 1B AE 
   483)     19777.445 1  Rx        001A -  8    88 00 11 94 00 04 00 00 
   484)     19779.962 1  Rx        001B -  8    00 11 94 00 BE 8D 84 DF 
   485)     19782.437 1  Rx        002A -  8    88 00 11 94 00 04 00 00 
   486)     19784.954 1  Rx        002B -  8    00 11 94 00 BE 8D 84 DF 
   487)     19787.428 1  Rx        001A -  8    89 00 11 94 00 04 00 00 
   488)     19789.945 1  Rx        001B -  8    00 11 94 00 25 28 C8 B0 
   489)     19792.462 1  Rx        002A -  8    89 00 11 94 00 04 00 00 
   490)     19794.937 1  Rx        002B -  8    00 11 94 00 25 28 C8 B0 
   491)     19797.454 1  Rx        001A -  8    8A 00 11 94 00 04 00 00 
   492)     19799.928 1  Rx        001B -  8    00 11 94 00 52 B6 1A 40 
   493)     19802.446 1  Rx        002A -  8    8A 00 11 94 00 04 00 00 
   494)     19804.920 1  Rx        002B -  8    00 11 94 00 52 B6 1A 40 
   495)     19807.437 1  Rx        001A -  8    8B 00 11 94 00 04 00 00 
   496)     19809.954 1  Rx        001B -  8    00 11 94 00 C9 13 56 2F 
   497)     19812.471 1  Rx        002A -  8    8B 00 11 94 00 04 00 00 
   498)     19814.946 1  Rx        002B -  8    00 11 94 00 C9 13 56 2F 
   499)     19817.463 1  Rx        001A -  8    8C 00 11 94 00 04 00 00 
   500)     19819.937 1  Rx        001B -  8    00 11 94 00 BD 8B BF A0 
   501)     19822.455 1  Rx        002A -  8    8C 00 11 94 00 04 00 00 
   502)     19824.929 1  Rx        002B -  8    00 11 94 00 BD 8B BF A0 
   503)     19827.446 1  Rx        001A -  8    8D 00 11 94 00 04 00 00 
   504)     19829.963 1  Rx        001B -  8    00 11 94 00 26 2E F3 CF 
   505)     19832.438 1  Rx        002A -  8    8D 00 11 94 00 04 00 00 
   506)     19834.955 1  Rx        002B -  8    00 11 94 00 26 2E F3 CF 
   507)     19837.429 1  Rx        001A -  8    8E 00 11 94 00 04 00 00 
   508)     19839.946 1  Rx        001B -  8    00 11 94 00 51 B0 21 3F 
   509)     19842.463 1  Rx        002A -  8    8E 00 11 94 00 04 00 00 
   510)     19844.938 1  Rx        002B -  8    00 11 94 00 51 B0 21 3F 
   511)     19847.455 1  Rx        001A -  8    8F 00 11 94 00 04 00 00 
   512)     19849.929 1  Rx        001B -  8    00 11 94 00 CA 15 6D 50 
   513)     19852.447 1  Rx        002A -  8    8F 00 11 94 00 04 00 00 
   514)     19854.921 1  Rx        002B -  8    00 11 94 00 CA 15 6D 50 
   515)     19857.438 1  Rx        001A -  8    90 00 11 94 00 04 00 00 
   516)     19859.955 1  Rx        001B -  8    00 11 94 00 B4 99 1F DD 
   517)     19862.430 1  Rx        002A -  8    90 00 11 94 00 04 00 00 
   518)     19864.947 1  Rx        002B -  8    00 11 94 00 B4 99 1F DD 
   519)     19867.464 1  Rx        001A -  8    91 00 11 94 00 04 00 00 
   520)     19869.938 1  Rx        001B -  8    00 11 94 00 2F 3C 53 B2 
   521)     19872.456 1  Rx        002A -  8    91 00 11 94 00 04 00 00 
   522)     19874.930 1  Rx        002B -  8    00 11 94 00 2F 3C 53 B2 
   523)     19877.447 1  Rx        001A -  8    92 00 11 94 00 04 00 00 
   524)     19879.922 1  Rx        001B -  8    00 11 94 00 58 A2 81 42 
   525)     19882.439 1  Rx        002A -  8    92 00 11 94 00 04 00 00 
   526)     19884.956 1  Rx        002B -  8    00 11 94 00 58 A2 81 42 
   527)     19887.430 1  Rx        001A -  8    93 00 11 94 00 04 00 00 
   528)     19889.947 1  Rx        001B -  8    00 11 94 00 C3 07 CD 2D 
   529)     19892.422 1  Rx        002A -  8    93 00 11 94 00 04 00 00 
   530)     19894.939 1  Rx        002B -  8    00 11 94 00 C3 07 CD 2D 
   531)     19897.456 1  Rx        001A -  8    94 00 11 94 00 04 00 00 
   532)     19899.931 1  Rx        001B -  8    00 11 94 00 B7 9F 24 A2 
   533)     19902.448 1  Rx        002A -  8    94 00 11 94 00 04 00 00 
   534)     19904.922 1  Rx        002B -  8    00 11 94 00 B7 9F 24 A2 
   535)     19907.439 1  Rx        001A -  8    95 00 11 94 00 04 00 00 
   536)     19909.956 1  Rx        001B -  8    00 11 94 00 2C 3A 68 CD 
   537)     19912.431 1  Rx        002A -  8    95 00 11 94 00 04 00 00 
   538)     19914.948 1  Rx        002B -  8    00 11 94 00 2C 3A 68 CD 
   539)     19917.465 1  Rx        001A -  8    96 00 11 94 00 04 00 00 
   540)     19919.939 1  Rx        001B -  8    00 11 94 00 5B A4 BA 3D 
   541)     19922.457 1  Rx        002A -  8    96 00 11 94 00 04 00 00 
   542)     19924.931 1  Rx        002B -  8    00 11 94 00 5B A4 BA 3D 
   543)     19927.448 1  Rx        001A -  8    97 00 11 94 00 04 00 00 
   544)     19929.923 1  Rx        001B -  8    00 11 94 00 C0 01 F6 52 
   545)     19932.440 1  Rx        002A -  8    97 00 11 94 00 04 00 00 
   546)     19934.957 1  Rx        002B -  8    00 11 94 00 C0 01 F6 52 
   547)     19937.431 1  Rx        001A -  8    98 00 11 94 00 04 00 00 
   548)     19939.948 1  Rx        001B -  8    00 11 94 00 B2 95 69 23 
   549)     19942.423 1  Rx        002A -  8    98 00 11 94 00 04 00 00 
   550)     19944.940 1  Rx        002B -  8    00 11 94 00 B2 95 69 23 
   551)     19947.457 1  Rx        001A -  8    99 00 11 94 00 04 00 00 
   552)     19949.932 1  Rx        001B -  8    00 11 94 00 29 30 25 4C 
   553)     19952.449 1  Rx        002A -  8    99 00 11 94 00 04 00 00 
   554)     19954.923 1  Rx        002B -  8    00 11 94 00 29 30 25 4C 
   555)     19957.440 1  Rx        001A -  8    9A 00 11 94 00 04 00 00 
   556)     19959.915 1  Rx        001B -  8    00 11 94 00 5E AE F7 BC 
   557)     19962.432 1  Rx        002A -  8    9A 00 11 94 00 04 00 00 
   558)     19964.949 1  Rx        002B -  8    00 11 94 00 5E AE F7 BC 
   559)     19967.466 1  Rx        001A -  8    9B 00 11 94 00 04 00 00 
   560)     19969.940 1  Rx        001B -  8    00 11 94 00 C5 0B BB D3 
   561)     19972.415 1  Rx        002A -  8    9B 00 11 94 00 04 00 00 
   562)     19974.932 1  Rx        002B -  8    00 11 94 00 C5 0B BB D3 
   563)     19977.449 1  Rx        001A -  8    9C 00 11 94 00 04 00 00 
   564)     19979.924 1  Rx        001B -  8    00 11 94 00 B1 93 52 5C 
   565)     19982.441 1  Rx        002A -  8    9C 00 11 94 00 04 00 00 
   566)     19984.915 1  Rx        002B -  8    00 11 94 00 B1 93 52 5C 
   567)     19987.432 1  Rx        001A -  8    9D 00 11 94 00 04 00 00 
   568)     19989.949 1  Rx        001B -  8    00 11 94 00 2A 36 1E 33 
   569)     19992.424 1  Rx        002A -  8    9D 00 11 94 00 04 00 00 
   570)     19994.941 1  Rx        002B -  8    00 11 94 00 2A 36 1E 33 
   571)     19997.415 1  Rx        001A -  8    9E 00 11 94 00 04 00 00 
   572)     19999.933 1  Rx        001B -  8    00 11 94 00 5D A8 CC C3 
   573)     20002.450 1  Rx        002A -  8    9E 00 11 94 00 04 00 00 
   574)     20004.924 1  Rx        002B -  8    00 11 94 00 5D A8 CC C3 
   575)     20007.441 1  Rx        001A -  8    9F 00 11 94 00 04 00 00 
   576)     20009.958 1  Rx        001B -  8    00 11 94 00 C6 0D 80 AC 
   577)     20012.433 1  Rx        002A -  8    9F 00 11 94 00 04 00 00 
   578)     20014.950 1  Rx        002B -  8    00 11 94 00 C6 0D 80 AC 
   579)     20017.467 1  Rx        001A -  8    A0 00 11 94 00 04 00 00 
   580)     20019.942 1  Rx        001B -  8    00 11 94 00 A0 B0 29 D9 
   581)     20022.459 1  Rx        002A -  8    A0 00 11 94 00 04 00 00 
   582)     20024.933 1  Rx        002B -  8    00 11 94 00 A0 B0 29 D9 
   583)     20027.450 1  Rx        001A -  8    A1 00 11 94 00 04 00 00 
   584)     20029.925 1  Rx        001B -  8    00 11 94 00 3B 15 65 B6 
   585)     20032.442 1  Rx        002A -  8    A1 00 11 94 00 04 00 00 
   586)     20034.916 1  Rx        002B -  8    00 11 94 00 3B 15 65 B6 
   587)     20037.433 1  Rx        001A -  8    A2 00 11 94 00 04 00 00 
   588)     20039.908 1  Rx        001B -  8    00 11 94 00 4C 8B B7 46 
   589)     20042.425 1  Rx        002A -  8    A2 00 11 94 00 04 00 00 
   590)     20044.942 1  Rx        002B -  8    00 11 94 00 4C 8B B7 46 
   591)     20047.417 1  Rx        001A -  8    A3 00 11 94 00 04 00 00 
   592)     20049.934 1  Rx        001B -  8    00 11 94 00 D7 2E FB 29 
   593)     20052.451 1  Rx        002A -  8    A3 00 11 94 00 04 00 00 
   594)     20054.925 1  Rx        002B -  8    00 11 94 00 D7 2E FB 29 
   595)     20057.442 1  Rx        001A -  8    A4 00 11 94 00 04 00 00 
   596)     20059.917 1  Rx        001B -  8    00 11 94 00 A3 B6 12 A6 
   597)     20062.434 1  Rx        002A -  8    A4 00 11 94 00 04 00 00 
   598)     20064.908 1  Rx        002B -  8    00 11 94 00 A3 B6 12 A6 
   599)     20067.425 1  Rx        001A -  8    A5 00 11 94 00 04 00 00 
   600)     20069.943 1  Rx        001B -  8    00 11 94 00 38 13 5E C9 
   601)     20072.417 1  Rx        002A -  8    A5 00 11 94 00 04 00 00 
   602)     20074.934 1  Rx        002B -  8    00 11 94 00 38 13 5E C9 
   603)     20077.451 1  Rx        001A -  8    A6 00 11 94 00 04 00 00 
   604)     20079.926 1  Rx        001B -  8    00 11 94 00 4F 8D 8C 39 
   605)     20082.443 1  Rx        002A -  8    A6 00 11 94 00 04 00 00 
   606)     20084.917 1  Rx        002B -  8    00 11 94 00 4F 8D 8C 39 
   607)     20087.434 1  Rx        001A -  8    A7 00 11 94 00 04 00 00 
   608)     20089.909 1  Rx        001B -  8    00 11 94 00 D4 28 C0 56 
   609)     20092.426 1  Rx        002A -  8    A7 00 11 94 00 04 00 00 
   610)     20094.943 1  Rx        002B -  8    00 11 94 00 D4 28 C0 56 
   611)     20097.418 1  Rx        001A -  8    A8 00 11 94 00 04 00 00 
   612)     20099.935 1  Rx        001B -  8    00 11 94 00 A6 BC 5F 27 
   613)     20102.409 1  Rx        002A -  8    A8 00 11 94 00 04 00 00 
   614)     20104.926 1  Rx        002B -  8    00 11 94 00 A6 BC 5F 27 
   615)     20107.443 1  Rx        001A -  8    A9 00 11 94 00 04 00 00 
   616)     20109.918 1  Rx        001B -  8    00 11 94 00 3D 19 13 48 
   617)     20112.435 1  Rx        002A -  8    A9 00 11 94 00 04 00 00 
   618)     20114.909 1  Rx        002B -  8    00 11 94 00 3D 19 13 48 
   619)     20117.426 1  Rx        001A -  8    AA 00 11 94 00 04 00 00 
   620)     20119.944 1  Rx        001B -  8    00 11 94 00 4A 87 C1 B8 
   621)     20122.418 1  Rx        002A -  8    AA 00 11 94 00 04 00 00 
   622)     20124.935 1  Rx        002B -  8    00 11 94 00 4A 87 C1 B8 
   623)     20127.452 1  Rx        001A -  8    AB 00 11 94 00 04 00 00 
   624)     20129.927 1  Rx        001B -  8    00 11 94 00 D1 22 8D D7 
   625)     20132.444 1  Rx        002A -  8    AB 00 11 94 00 04 00 00 
   626)     20134.918 1  Rx        002B -  8    00 11 94 00 D1 22 8D D7 
   627)     20137.435 1  Rx        001A -  8    AC 00 11 94 00 04 00 00 
   628)     20139.910 1  Rx        001B -  8    00 11 94 00 A5 BA 64 58 
   629)     20142.427 1  Rx        002A -  8    AC 00 11 94 00 04 00 00 
   630)     20144.944 1  Rx        002B -  8    00 11 94 00 A5 BA 64 58 
   631)     20147.419 1  Rx        001A -  8    AD 00 11 94 00 04 00 00 
   632)     20149.936 1  Rx        001B -  8    00 11 94 00 3E 1F 28 37 
   633)     20152.410 1  Rx        002A -  8    AD 00 11 94 00 04 00 00 
   634)     20154.927 1  Rx        002B -  8    00 11 94 00 3E 1F 28 37 
   635)     20157.444 1  Rx        001A -  8    AE 00 11 94 00 04 00 00 
   636)     20159.919 1  Rx        001B -  8    00 11 94 00 49 81 FA C7 
   637)     20162.436 1  Rx        002A -  8    AE 00 11 94 00 04 00 00 
   638)     20164.910 1  Rx        002B -  8    00 11 94 00 49 81 FA C7 
   639)     20167.428 1  Rx        001A -  8    AF 00 11 94 00 04 00 00 
   640)     20169.902 1  Rx        001B -  8    00 11 94 00 D2 24 B6 A8 
   641)     20172.419 1  Rx        002A -  8    AF 00 11 94 00 04 00 00 
   642)     20174.936 1  Rx        002B -  8    00 11 94 00 D2 24 B6 A8 
   643)     20177.411 1  Rx        001A -  8    B0 00 11 94 00 04 00 00 
   644)     20179.928 1  Rx        001B -  8    00 11 94 00 AC A8 C4 25 
   645)     20182.445 1  Rx        002A -  8    B0 00 11 94 00 04 00 00 
   646)     20184.919 1  Rx        002B -  8    00 11 94 00 AC A8 C4 25 
   647)     20187.436 1  Rx        001A -  8    B1 00 11 94 00 04 00 00 
   648)     20189.911 1  Rx        001B -  8    00 11 94 00 37 0D 88 4A 
   649)     20192.428 1  Rx        002A -  8    B1 00 11 94 00 04 00 00 
   650)     20194.945 1  Rx        002B -  8    00 11 94 00 37 0D 88 4A 
   651)     20197.420 1  Rx        001A -  8    B2 00 11 94 00 04 00 00 
   652)     20199.937 1  Rx        001B -  8    00 11 94 00 40 93 5A BA 
   653)     20202.411 1  Rx        002A -  8    B2 00 11 94 00 04 00 00 
   654)     20204.928 1  Rx        002B -  8    00 11 94 00 40 93 5A BA 
   655)     20207.403 1  Rx        001A -  8    B3 00 11 94 00 04 00 00 
   656)     20209.920 1  Rx        001B -  8    00 11 94 00 DB 36 16 D5 
   657)     20212.437 1  Rx        002A -  8    B3 00 11 94 00 04 00 00 
   658)     20214.911 1  Rx        002B -  8    00 11 94 00 DB 36 16 D5 
   659)     20217.429 1  Rx        001A -  8    B4 00 11 94 00 04 00 00 
   660)     20219.946 1  Rx        001B -  8    00 11 94 00 AF AE FF 5A 
   661)     20222.420 1  Rx        002A -  8    B4 00 11 94 00 04 00 00 
   662)     20224.937 1  Rx        002B -  8    00 11 94 00 AF AE FF 5A 
   663)     20227.412 1  Rx        001A -  8    B5 00 11 94 00 04 00 00 
   664)     20229.929 1  Rx        001B -  8    00 11 94 00 34 0B B3 35 
   665)     20232.403 1  Rx        002A -  8    B5 00 11 94 00 04 00 00 
   666)     20234.920 1  Rx        002B -  8    00 11 94 00 34 0B B3 35 
   667)     20237.438 1  Rx        001A -  8    B6 00 11 94 00 04 00 00 
   668)     20239.912 1  Rx        001B -  8    00 11 94 00 43 95 61 C5 
   669)     20242.429 1  Rx        002A -  8    B6 00 11 94 00 04 00 00 
   670)     20244.904 1  Rx        002B -  8    00 11 94 00 43 95 61 C5 
   671)     20247.421 1  Rx        001A -  8    B7 00 11 94 00 04 00 00 
   672)     20249.938 1  Rx        001B -  8    00 11 94 00 D8 30 2D AA 
   673)     20252.412 1  Rx        002A -  8    B7 00 11 94 00 04 00 00 
   674)     20254.929 1  Rx        002B -  8    00 11 94 00 D8 30 2D AA 
   675)     20257.404 1  Rx        001A -  8    B8 00 11 94 00 04 00 00 
   676)     20259.921 1  Rx        001B -  8    00 11 94 00 AA A4 B2 DB 
   677)     20262.438 1  Rx        002A -  8    B8 00 11 94 00 04 00 00 
   678)     20264.912 1  Rx        002B -  8    00 11 94 00 AA A4 B2 DB 
   679)     20267.430 1  Rx        001A -  8    B9 00 11 94 00 04 00 00 
   680)     20269.947 1  Rx        001B -  8    00 11 94 00 31 01 FE B4 
   681)     20272.421 1  Rx        002A -  8    B9 00 11 94 00 04 00 00 
   682)     20274.938 1  Rx        002B -  8    00 11 94 00 31 01 FE B4 
   683)     20277.413 1  Rx        001A -  8    BA 00 11 94 00 04 00 00 
   684)     20279.930 1  Rx        001B -  8    00 11 94 00 46 9F 2C 44 
   685)     20282.404 1  Rx        002A -  8    BA 00 11 94 00 04 00 00 
   686)     20284.921 1  Rx        002B -  8    00 11 94 00 46 9F 2C 44 
   687)     20287.439 1  Rx        001A -  8    BB 00 11 94 00 04 00 00 
   688)     20289.913 1  Rx        001B -  8    00 11 94 00 DD 3A 60 2B 
   689)     20292.430 1  Rx        002A -  8    BB 00 11 94 00 04 00 00 
   690)     20294.905 1  Rx        002B -  8    00 11 94 00 DD 3A 60 2B 
   691)     20297.422 1  Rx        001A -  8    BC 00 11 94 00 04 00 00 
   692)     20299.896 1  Rx        001B -  8    00 11 94 00 A9 A2 89 A4 
   693)     20302.413 1  Rx        002A -  8    BC 00 11 94 00 04 00 00 
   694)     20304.930 1  Rx        002B -  8    00 11 94 00 A9 A2 89 A4 
   695)     20307.405 1  Rx        001A -  8    BD 00 11 94 00 04 00 00 
   696)     20309.922 1  Rx        001B -  8    00 11 94 00 32 07 C5 CB 
   697)     20312.439 1  Rx        002A -  8    BD 00 11 94 00 04 00 00 
   698)     20314.914 1  Rx        002B -  8    00 11 94 00 32 07 C5 CB 
   699)     20317.431 1  Rx        001A -  8    BE 00 11 94 00 04 00 00 
   700)     20319.905 1  Rx        001B -  8    00 11 94 00 45 99 17 3B 
   701)     20322.422 1  Rx        002A -  8    BE 00 11 94 00 04 00 00 
   702)     20324.897 1  Rx        002B -  8    00 11 94 00 45 99 17 3B 
   703)     20327.414 1  Rx        001A -  8    BF 00 11 94 00 04 00 00 
   704)     20329.931 1  Rx        001B -  8    00 11 94 00 DE 3C 5B 54 
   705)     20332.405 1  Rx        002A -  8    BF 00 11 94 00 04 00 00 
   706)     20334.922 1  Rx        002B -  8    00 11 94 00 DE 3C 5B 54 
   707)     20337.440 1  Rx        001A -  8    C0 00 11 94 00 04 00 00 
   708)     20339.914 1  Rx        001B -  8    00 11 94 00 88 E2 45 D1 
   709)     20342.431 1  Rx        002A -  8    C0 00 11 94 00 04 00 00 
   710)     20344.906 1  Rx        002B -  8    00 11 94 00 88 E2 45 D1 
   711)     20347.423 1  Rx        001A -  8    C1 00 11 94 00 04 00 00 
   712)     20349.940 1  Rx        001B -  8    00 11 94 00 13 47 09 BE 
   713)     20352.414 1  Rx        002A -  8    C1 00 11 94 00 04 00 00 
   714)     20354.931 1  Rx        002B -  8    00 11 94 00 13 47 09 BE 
   715)     20357.406 1  Rx        001A -  8    C2 00 11 94 00 04 00 00 
   716)     20359.923 1  Rx        001B -  8    00 11 94 00 64 D9 DB 4E 
   717)     20362.440 1  Rx        002A -  8    C2 00 11 94 00 04 00 00 
   718)     20364.915 1  Rx        002B -  8    00 11 94 00 64 D9 DB 4E 
   719)     20367.944 1  Rx        001A -  8    C3 00 11 94 00 04 00 00 
   720)     20369.906 1  Rx        001B -  8    00 11 94 00 FF 7C 97 21 
   721)     20372.423 1  Rx        002A -  8    C3 00 11 94 00 04 00 00 
   722)     20374.898 1  Rx        002B -  8    00 11 94 00 FF 7C 97 21 
   723)     20377.415 1  Rx        001A -  8    C4 00 11 94 00 04 00 00 
   724)     20379.932 1  Rx        001B -  8    00 11 94 00 8B E4 7E AE 
   725)     20382.406 1  Rx        002A -  8    C4 00 11 94 00 04 00 00 
   726)     20384.923 1  Rx        002B -  8    00 11 94 00 8B E4 7E AE 
   727)     20387.398 1  Rx        001A -  8    C5 00 11 94 00 04 00 00 
   728)     20389.915 1  Rx        001B -  8    00 11 94 00 10 41 32 C1 
   729)     20392.432 1  Rx        002A -  8    C5 00 11 94 00 04 00 00 
   730)     20394.907 1  Rx        002B -  8    00 11 94 00 10 41 32 C1 
   731)     20397.424 1  Rx        001A -  8    C6 00 11 94 00 04 00 00 
   732)     20399.941 1  Rx        001B -  8    00 11 94 00 67 DF E0 31 
   733)     20402.415 1  Rx        002A -  8    C6 00 11 94 00 04 00 00 
   734)     20404.932 1  Rx        002B -  8    00 11 94 00 67 DF E0 31 
   735)     20407.407 1  Rx        001A -  8    C7 00 11 94 00 04 00 00 
   736)     20409.924 1  Rx        001B -  8    00 11 94 00 FC 7A AC 5E 
   737)     20412.398 1  Rx        002A -  8    C7 00 11 94 00 04 00 00 
   738)     20414.916 1  Rx        002B -  8    00 11 94 00 FC 7A AC 5E 
   739)     20417.433 1  Rx        001A -  8    C8 00 11 94 00 04 00 00 
   740)     20419.907 1  Rx        001B -  8    00 11 94 00 8E EE 33 2F 
   741)     20422.424 1  Rx        002A -  8    C8 00 11 94 00 04 00 00 
   742)     20424.899 1  Rx        002B -  8    00 11 94 00 8E EE 33 2F 
   743)     20427.416 1  Rx        001A -  8    C9 00 11 94 00 04 00 00 
   744)     20429.933 1  Rx        001B -  8    00 11 94 00 15 4B 7F 40 
   745)     20432.407 1  Rx        002A -  8    C9 00 11 94 00 04 00 00 
   746)     20435.138 1  Rx        002B -  8    00 11 94 00 15 4B 7F 40 
   747)     20437.345 1  Rx        001A -  8    CA 00 11 94 00 04 00 00 
   748)     20439.862 1  Rx        001B -  8    00 11 94 00 62 D5 AD B0 
   749)     20442.891 1  Rx        002A -  8    CA 00 11 94 00 04 00 00 
   750)     20444.854 1  Rx        002B -  8    00 11 94 00 62 D5 AD B0 
   751)     20447.371 1  Rx        001A -  8    CB 00 11 94 00 04 00 00 
   752)     20449.845 1  Rx        001B -  8    00 11 94 00 F9 70 E1 DF 
   753)     20452.362 1  Rx        002A -  8    CB 00 11 94 00 04 00 00 
   754)     20454.837 1  Rx        002B -  8    00 11 94 00 F9 70 E1 DF 
   755)     20457.354 1  Rx        001A -  8    CC 00 11 94 00 04 00 00 
   756)     20459.871 1  Rx        001B -  8    00 11 94 00 8D E8 08 50 
   757)     20462.346 1  Rx        002A -  8    CC 00 11 94 00 04 00 00 
   758)     20464.863 1  Rx        002B -  8    00 11 94 00 8D E8 08 50 
   759)     20467.380 1  Rx        001A -  8    CD 00 11 94 00 04 00 00 
   760)     20469.854 1  Rx        001B -  8    00 11 94 00 16 4D 44 3F 
   761)     20472.371 1  Rx        002A -  8    CD 00 11 94 00 04 00 00 
   762)     20474.846 1  Rx        002B -  8    00 11 94 00 16 4D 44 3F 
   763)     20477.363 1  Rx        001A -  8    CE 00 11 94 00 04 00 00 
   764)     20479.837 1  Rx        001B -  8    00 11 94 00 61 D3 96 CF 
   765)     20482.354 1  Rx        002A -  8    CE 00 11 94 00 04 00 00 
   766)     20484.872 1  Rx        002B -  8    00 11 94 00 61 D3 96 CF 
   767)     20487.346 1  Rx        001A -  8    CF 00 11 94 00 04 00 00 
   768)     20489.863 1  Rx        001B -  8    00 11 94 00 FA 76 DA A0 
   769)     20492.338 1  Rx        002A -  8    CF 00 11 94 00 04 00 00 
   770)     20494.855 1  Rx        002B -  8    00 11 94 00 FA 76 DA A0 
   771)     20497.372 1  Rx        001A -  8    D0 00 11 94 00 04 00 00 
   772)     20499.846 1  Rx        001B -  8    00 11 94 00 84 FA A8 2D 
   773)     20502.363 1  Rx        002A -  8    D0 00 11 94 00 04 00 00 
   774)     20504.838 1  Rx        002B -  8    00 11 94 00 84 FA A8 2D 
   775)     20507.355 1  Rx        001A -  8    D1 00 11 94 00 04 00 00 
   776)     20509.872 1  Rx        001B -  8    00 11 94 00 1F 5F E4 42 
   777)     20512.347 1  Rx        002A -  8    D1 00 11 94 00 04 00 00 
   778)     20514.864 1  Rx        002B -  8    00 11 94 00 1F 5F E4 42 
   779)     20517.381 1  Rx        001A -  8    D2 00 11 94 00 04 00 00 
   780)     20519.855 1  Rx        001B -  8    00 11 94 00 68 C1 36 B2 
   781)     20522.372 1  Rx        002A -  8    D2 00 11 94 00 04 00 00 
   782)     20524.847 1  Rx        002B -  8    00 11 94 00 68 C1 36 B2 
   783)     20527.364 1  Rx        001A -  8    D3 00 11 94 00 04 00 00 
   784)     20529.838 1  Rx        001B -  8    00 11 94 00 F3 64 7A DD 
   785)     20532.355 1  Rx        002A -  8    D3 00 11 94 00 04 00 00 
   786)     20534.873 1  Rx        002B -  8    00 11 94 00 F3 64 7A DD 
   787)     20537.347 1  Rx        001A -  8    D4 00 11 94 00 04 00 00 
   788)     20539.864 1  Rx        001B -  8    00 11 94 00 87 FC 93 52 
   789)     20542.339 1  Rx        002A -  8    D4 00 11 94 00 04 00 00 
   790)     20544.856 1  Rx        002B -  8    00 11 94 00 87 FC 93 52 
   791)     20547.373 1  Rx        001A -  8    D5 00 11 94 00 04 00 00 
   792)     20549.847 1  Rx        001B -  8    00 11 94 00 1C 59 DF 3D 
   793)     20552.364 1  Rx        002A -  8    D5 00 11 94 00 04 00 00 
   794)     20554.839 1  Rx        002B -  8    00 11 94 00 1C 59 DF 3D 
   795)     20557.356 1  Rx        001A -  8    D6 00 11 94 00 04 00 00 
   796)     20559.830 1  Rx        001B -  8    00 11 94 00 6B C7 0D CD 
   797)     20562.348 1  Rx        002A -  8    D6 00 11 94 00 04 00 00 
   798)     20564.822 1  Rx        002B -  8    00 11 94 00 6B C7 0D CD 
   799)     20567.339 1  Rx        001A -  8    D7 00 11 94 00 04 00 00 
   800)     20569.856 1  Rx        001B -  8    00 11 94 00 F0 62 41 A2 
   801)     20572.373 1  Rx        002A -  8    D7 00 11 94 00 04 00 00 
   802)     20574.848 1  Rx        002B -  8    00 11 94 00 F0 62 41 A2 
   803)     20577.365 1  Rx        001A -  8    D8 00 11 94 00 04 00 00 
   804)     20579.839 1  Rx        001B -  8    00 11 94 00 82 F6 DE D3 
   805)     20582.357 1  Rx        002A -  8    D8 00 11 94 00 04 00 00 
   806)     20584.831 1  Rx        002B -  8    00 11 94 00 82 F6 DE D3 
   807)     20587.348 1  Rx        001A -  8    D9 00 11 94 00 04 00 00 
   808)     20589.865 1  Rx        001B -  8    00 11 94 00 19 53 92 BC 
   809)     20592.340 1  Rx        002A -  8    D9 00 11 94 00 04 00 00 
   810)     20594.857 1  Rx        002B -  8    00 11 94 00 19 53 92 BC 
   811)     20597.374 1  Rx        001A -  8    DA 00 11 94 00 04 00 00 
   812)     20599.848 1  Rx        001B -  8    00 11 94 00 6E CD 40 4C 
   813)     20602.365 1  Rx        002A -  8    DA 00 11 94 00 04 00 00 
   814)     20604.840 1  Rx        002B -  8    00 11 94 00 6E CD 40 4C 
   815)     20607.357 1  Rx        001A -  8    DB 00 11 94 00 04 00 00 
   816)     20609.831 1  Rx        001B -  8    00 11 94 00 F5 68 0C 23 
   817)     20612.349 1  Rx        002A -  8    DB 00 11 94 00 04 00 00 
   818)     20614.866 1  Rx        002B -  8    00 11 94 00 F5 68 0C 23 
   819)     20617.340 1  Rx        001A -  8    DC 00 11 94 00 04 00 00 
   820)     20619.857 1  Rx        001B -  8    00 11 94 00 81 F0 E5 AC 
   821)     20622.374 1  Rx        002A -  8    DC 00 11 94 00 04 00 00 
   822)     20624.849 1  Rx        002B -  8    00 11 94 00 81 F0 E5 AC 
   823)     20627.366 1  Rx        001A -  8    DD 00 11 94 00 04 00 00 
   824)     20629.840 1  Rx        001B -  8    00 11 94 00 1A 55 A9 C3 
   825)     20632.358 1  Rx        002A -  8    DD 00 11 94 00 04 00 00 
   826)     20634.832 1  Rx        002B -  8    00 11 94 00 1A 55 A9 C3 
   827)     20637.349 1  Rx        001A -  8    DE 00 11 94 00 04 00 00 
   828)     20639.824 1  Rx        001B -  8    00 11 94 00 6D CB 7B 33 
   829)     20642.341 1  Rx        002A -  8    DE 00 11 94 00 04 00 00 
   830)     20644.858 1  Rx        002B -  8    00 11 94 00 6D CB 7B 33 
   831)     20647.375 1  Rx        001A -  8    DF 00 11 94 00 04 00 00 
   832)     20649.849 1  Rx        001B -  8    00 11 94 00 F6 6E 37 5C 
   833)     20652.367 1  Rx        002A -  8    DF 00 11 94 00 04 00 00 
   834)     20654.841 1  Rx        002B -  8    00 11 94 00 F6 6E 37 5C 
   835)     20657.358 1  Rx        001A -  8    E0 00 11 94 00 04 00 00 
   836)     20659.833 1  Rx        001B -  8    00 11 94 00 90 D3 9E 29 
   837)     20662.350 1  Rx        002A -  8    E0 00 11 94 00 04 00 00 
   838)     20664.824 1  Rx        002B -  8    00 11 94 00 90 D3 9E 29 
   839)     20667.341 1  Rx        001A -  8    E1 00 11 94 00 04 00 00 
   840)     20669.858 1  Rx        001B -  8    00 11 94 00 0B 76 D2 46 
   841)     20672.333 1  Rx        002A -  8    E1 00 11 94 00 04 00 00 
   842)     20674.850 1  Rx        002B -  8    00 11 94 00 0B 76 D2 46 
   843)     20677.367 1  Rx        001A -  8    E2 00 11 94 00 04 00 00 
   844)     20679.841 1  Rx        001B -  8    00 11 94 00 7C E8 00 B6 
   845)     20682.359 1  Rx        002A -  8    E2 00 11 94 00 04 00 00 
   846)     20684.833 1  Rx        002B -  8    00 11 94 00 7C E8 00 B6 
   847)     20687.350 1  Rx        001A -  8    E3 00 11 94 00 04 00 00 
   848)     20689.825 1  Rx        001B -  8    00 11 94 00 E7 4D 4C D9 
   849)     20692.726 1  Rx        002A -  8    E3 00 11 94 00 04 00 00 
   850)     20694.859 1  Rx        002B -  8    00 11 94 00 E7 4D 4C D9 
   851)     20697.333 1  Rx        001A -  8    E4 00 11 94 00 04 00 00 
   852)     20699.850 1  Rx        001B -  8    00 11 94 00 93 D5 A5 56 
   853)     20702.368 1  Rx        002A -  8    E4 00 11 94 00 04 00 00 
   854)     20704.842 1  Rx        002B -  8    00 11 94 00 93 D5 A5 56 
   855)     20707.359 1  Rx        001A -  8    E5 00 11 94 00 04 00 00 
   856)     20709.834 1  Rx        001B -  8    00 11 94 00 08 70 E9 39 
   857)     20712.351 1  Rx        002A -  8    E5 00 11 94 00 04 00 00 
   858)     20714.825 1  Rx        002B -  8    00 11 94 00 08 70 E9 39 
   859)     20717.342 1  Rx        001A -  8    E6 00 11 94 00 04 00 00 
   860)     20719.859 1  Rx        001B -  8    00 11 94 00 7F EE 3B C9 
   861)     20722.334 1  Rx        002A -  8    E6 00 11 94 00 04 00 00 
   862)     20724.851 1  Rx        002B -  8    00 11 94 00 7F EE 3B C9 
   863)     20727.325 1  Rx        001A -  8    E7 00 11 94 00 04 00 00 
   864)     20729.843 1  Rx        001B -  8    00 11 94 00 E4 4B 77 A6 
   865)     20732.360 1  Rx        002A -  8    E7 00 11 94 00 04 00 00 
   866)     20734.834 1  Rx        002B -  8    00 11 94 00 E4 4B 77 A6 
   867)     20737.351 1  Rx        001A -  8    E8 00 11 94 00 04 00 00 
   868)     20739.826 1  Rx        001B -  8    00 11 94 00 96 DF E8 D7 
   869)     20742.343 1  Rx        002A -  8    E8 00 11 94 00 04 00 00 
   870)     20744.860 1  Rx        002B -  8    00 11 94 00 96 DF E8 D7 
   871)     20747.334 1  Rx        001A -  8    E9 00 11 94 00 04 00 00 
   872)     20749.851 1  Rx        001B -  8    00 11 94 00 0D 7A A4 B8 
   873)     20752.326 1  Rx        002A -  8    E9 00 11 94 00 04 00 00 
   874)     20754.843 1  Rx        002B -  8    00 11 94 00 0D 7A A4 B8 
   875)     20757.360 1  Rx        001A -  8    EA 00 11 94 00 04 00 00 
   876)     20759.835 1  Rx        001B -  8    00 11 94 00 7A E4 76 48 
   877)     20762.352 1  Rx        002A -  8    EA 00 11 94 00 04 00 00 
   878)     20764.826 1  Rx        002B -  8    00 11 94 00 7A E4 76 48 
   879)     20767.343 1  Rx        001A -  8    EB 00 11 94 00 04 00 00 
   880)     20769.860 1  Rx        001B -  8    00 11 94 00 E1 41 3A 27 
   881)     20772.335 1  Rx        002A -  8    EB 00 11 94 00 04 00 00 
   882)     20774.852 1  Rx        002B -  8    00 11 94 00 E1 41 3A 27 
   883)     20777.326 1  Rx        001A -  8    EC 00 11 94 00 04 00 00 
   884)     20779.844 1  Rx        001B -  8    00 11 94 00 95 D9 D3 A8 
   885)     20782.361 1  Rx        002A -  8    EC 00 11 94 00 04 00 00 
   886)     20784.835 1  Rx        002B -  8    00 11 94 00 95 D9 D3 A8 
   887)     20787.352 1  Rx        001A -  8    ED 00 11 94 00 04 00 00 
   888)     20789.827 1  Rx        001B -  8    00 11 94 00 0E 7C 9F C7 
   889)     20792.344 1  Rx        002A -  8    ED 00 11 94 00 04 00 00 
   890)     20794.861 1  Rx        002B -  8    00 11 94 00 0E 7C 9F C7 
   891)     20797.335 1  Rx        001A -  8    EE 00 11 94 00 04 00 00 
   892)     20799.852 1  Rx        001B -  8    00 11 94 00 79 E2 4D 37 
   893)     20802.327 1  Rx        002A -  8    EE 00 11 94 00 04 00 00 
   894)     20804.844 1  Rx        002B -  8    00 11 94 00 79 E2 4D 37 
   895)     20807.319 1  Rx        001A -  8    EF 00 11 94 00 04 00 00 
   896)     20809.836 1  Rx        001B -  8    00 11 94 00 E2 47 01 58 
   897)     20812.353 1  Rx        002A -  8    EF 00 11 94 00 04 00 00 
   898)     20814.827 1  Rx        002B -  8    00 11 94 00 E2 47 01 58 
   899)     20817.344 1  Rx        001A -  8    F0 00 11 94 00 04 00 00 
   900)     20819.861 1  Rx        001B -  8    00 11 94 00 9C CB 73 D5 
   901)     20822.336 1  Rx        002A -  8    F0 00 11 94 00 04 00 00 
   902)     20824.853 1  Rx        002B -  8    00 11 94 00 9C CB 73 D5 
   903)     20827.327 1  Rx        001A -  8    F1 00 11 94 00 04 00 00 
   904)     20829.845 1  Rx        001B -  8    00 11 94 00 07 6E 3F BA 
   905)     20832.362 1  Rx        002A -  8    F1 00 11 94 00 04 00 00 
   906)     20834.836 1  Rx        002B -  8    00 11 94 00 07 6E 3F BA 
   907)     20837.353 1  Rx        001A -  8    F2 00 11 94 00 04 00 00 
   908)     20839.828 1  Rx        001B -  8    00 11 94 00 70 F0 ED 4A 
   909)     20842.345 1  Rx        002A -  8    F2 00 11 94 00 04 00 00 
   910)     20844.819 1  Rx        002B -  8    00 11 94 00 70 F0 ED 4A 
   911)     20847.336 1  Rx        001A -  8    F3 00 11 94 00 04 00 00 
   912)     20849.854 1  Rx        001B -  8    00 11 94 00 EB 55 A1 25 
   913)     20852.328 1  Rx        002A -  8    F3 00 11 94 00 04 00 00 
   914)     20854.845 1  Rx        002B -  8    00 11 94 00 EB 55 A1 25 
   915)     20857.320 1  Rx        001A -  8    F4 00 11 94 00 04 00 00 
   916)     20859.837 1  Rx        001B -  8    00 11 94 00 9F CD 48 AA 
   917)     20862.354 1  Rx        002A -  8    F4 00 11 94 00 04 00 00 
   918)     20864.828 1  Rx        002B -  8    00 11 94 00 9F CD 48 AA 
   919)     20867.345 1  Rx        001A -  8    F5 00 11 94 00 04 00 00 
   920)     20869.820 1  Rx        001B -  8    00 11 94 00 04 68 04 C5 
   921)     20872.337 1  Rx        002A -  8    F5 00 11 94 00 04 00 00 
   922)     20874.854 1  Rx        002B -  8    00 11 94 00 04 68 04 C5 
   923)     20877.329 1  Rx        001A -  8    F6 00 11 94 00 04 00 00 
   924)     20879.846 1  Rx        001B -  8    00 11 94 00 73 F6 D6 35 
   925)     20882.320 1  Rx        002A -  8    F6 00 11 94 00 04 00 00 
   926)     20884.837 1  Rx        002B -  8    00 11 94 00 73 F6 D6 35 
   927)     20887.354 1  Rx        001A -  8    F7 00 11 94 00 04 00 00 
   928)     20889.829 1  Rx        001B -  8    00 11 94 00 E8 53 9A 5A 
   929)     20892.346 1  Rx        002A -  8    F7 00 11 94 00 04 00 00 
   930)     20894.820 1  Rx        002B -  8    00 11 94 00 E8 53 9A 5A 
   931)     20897.337 1  Rx        001A -  8    F8 00 11 94 00 04 00 00 
   932)     20899.812 1  Rx        001B -  8    00 11 94 00 9A C7 05 2B 
   933)     20902.329 1  Rx        002A -  8    F8 00 11 94 00 04 00 00 
   934)     20904.846 1  Rx        002B -  8    00 11 94 00 9A C7 05 2B 
   935)     20907.321 1  Rx        001A -  8    F9 00 11 94 00 04 00 00 
   936)     20909.838 1  Rx        001B -  8    00 11 94 00 01 62 49 44 
   937)     20912.355 1  Rx        002A -  8    F9 00 11 94 00 04 00 00 
   938)     20914.829 1  Rx        002B -  8    00 11 94 00 01 62 49 44 
   939)     20917.346 1  Rx        001A -  8    FA 00 11 94 00 04 00 00 
   940)     20919.821 1  Rx        001B -  8    00 11 94 00 76 FC 9B B4 
   941)     20922.338 1  Rx        002A -  8    FA 00 11 94 00 04 00 00 
   942)     20924.812 1  Rx        002B -  8    00 11 94 00 76 FC 9B B4 
   943)     20927.330 1  Rx        001A -  8    FB 00 11 94 00 04 00 00 
   944)     20929.847 1  Rx        001B -  8    00 11 94 00 ED 59 D7 DB 
   945)     20932.321 1  Rx        002A -  8    FB 00 11 94 00 04 00 00 
   946)     20934.838 1  Rx        002B -  8    00 11 94 00 ED 59 D7 DB 
   947)     20937.355 1  Rx        001A -  8    FC 00 11 94 00 04 00 00 
   948)     20939.830 1  Rx        001B -  8    00 11 94 00 99 C1 3E 54 
   949)     20942.347 1  Rx        002A -  8    FC 00 11 94 00 04 00 00 
   950)     20944.821 1  Rx        002B -  8    00 11 94 00 99 C1 3E 54 
   951)     20947.338 1  Rx        001A -  8    FD 00 11 94 00 04 00 00 
   952)     20949.813 1  Rx        001B -  8    00 11 94 00 02 64 72 3B 
   953)     20952.330 1  Rx        002A -  8    FD 00 11 94 00 04 00 00 
   954)     20954.847 1  Rx        002B -  8    00 11 94 00 02 64 72 3B 
   955)     20957.322 1  Rx        001A -  8    FE 00 11 94 00 04 00 00 
   956)     20959.839 1  Rx        001B -  8    00 11 94 00 75 FA A0 CB 
   957)     20962.356 1  Rx        002A -  8    FE 00 11 94 00 04 00 00 
   958)     20964.830 1  Rx        002B -  8    00 11 94 00 75 FA A0 CB 
   959)     20967.347 1  Rx        001A -  8    FF 00 11 94 00 04 00 00 
   960)     20969.822 1  Rx        001B -  8    00 11 94 00 EE 5F EC A4 
   961)     20972.339 1  Rx        002A -  8    FF 00 11 94 00 04 00 00 
   962)     20974.813 1  Rx        002B -  8    00 11 94 00 EE 5F EC A4 
   963)     20977.331 1  Rx        001A -  8    00 00 11 94 00 04 00 00 
   964)     20979.848 1  Rx        001B -  8    00 11 94 00 D8 46 9D C1 
   965)     20982.365 1  Rx        002A -  8    00 00 11 94 00 04 00 00 
   966)     20984.839 1  Rx        002B -  8    00 11 94 00 D8 46 9D C1 
   967)     20987.356 1  Rx        001A -  8    01 00 11 94 00 04 00 00 
   968)     20989.831 1  Rx        001B -  8    00 11 94 00 43 E3 D1 AE 
   969)     20992.348 1  Rx        002A -  8    01 00 11 94 00 04 00 00 
   970)     20994.822 1  Rx        002B -  8    00 11 94 00 43 E3 D1 AE 
   971)     20997.340 1  Rx        001A -  8    02 00 11 94 00 04 00 00 
   972)     20999.814 1  Rx        001B -  8    00 11 94 00 34 7D 03 5E 
   973)     21002.331 1  Rx        002A -  8    02 00 11 94 00 04 00 00 
   974)     21004.848 1  Rx        002B -  8    00 11 94 00 34 7D 03 5E 
   975)     21007.323 1  Rx        001A -  8    03 00 11 94 00 04 00 00 
   976)     21009.840 1  Rx        001B -  8    00 11 94 00 AF D8 4F 31 
   977)     21012.357 1  Rx        002A -  8    03 00 11 94 00 04 00 00 
   978)     21014.831 1  Rx        002B -  8    00 11 94 00 AF D8 4F 31 
   979)     21017.348 1  Rx        001A -  8    04 00 11 94 00 04 00 00 
   980)     21019.823 1  Rx        001B -  8    00 11 94 00 DB 40 A6 BE 
   981)     21022.340 1  Rx        002A -  8    04 00 11 94 00 04 00 00 
   982)     21024.814 1  Rx        002B -  8    00 11 94 00 DB 40 A6 BE 
   983)     21027.332 1  Rx        001A -  8    05 00 11 94 00 04 00 00 
   984)     21029.806 1  Rx        001B -  8    00 11 94 00 40 E5 EA D1 
   985)     21032.323 1  Rx        002A -  8    05 00 11 94 00 04 00 00 
   986)     21034.840 1  Rx        002B -  8    00 11 94 00 40 E5 EA D1 
   987)     21037.315 1  Rx        001A -  8    06 00 11 94 00 04 00 00 
   988)     21039.832 1  Rx        001B -  8    00 11 94 00 37 7B 38 21 
   989)     21042.349 1  Rx        002A -  8    06 00 11 94 00 04 00 00 
   990)     21044.823 1  Rx        002B -  8    00 11 94 00 37 7B 38 21 
   991)     21047.341 1  Rx        001A -  8    07 00 11 94 00 04 00 00 
   992)     21049.815 1  Rx        001B -  8    00 11 94 00 AC DE 74 4E 
   993)     21052.332 1  Rx        002A -  8    07 00 11 94 00 04 00 00 
   994)     21054.807 1  Rx        002B -  8    00 11 94 00 AC DE 74 4E 
   995)     21057.324 1  Rx        001A -  8    08 00 11 94 00 04 00 00 
   996)     21059.841 1  Rx        001B -  8    00 11 94 00 DE 4A EB 3F 
   997)     21062.315 1  Rx        002A -  8    08 00 11 94 00 04 00 00 
   998)     21064.832 1  Rx        002B -  8    00 11 94 00 DE 4A EB 3F 
   999)     21067.350 1  Rx        001A -  8    09 00 11 94 00 04 00 00 
  1000)     21069.824 1  Rx        001B -  8    00 11 94 00 45 EF A7 50 
  1001)     21072.341 1  Rx        002A -  8    09 00 11 94 00 04 00 00 
  1002)     21074.816 1  Rx        002B -  8    00 11 94 00 45 EF A7 50 
  1003)     21077.333 1  Rx        001A -  8    0A 00 11 94 00 04 00 00 
  1004)     21079.807 1  Rx        001B -  8    00 11 94 00 32 71 75 A0 
  1005)     21082.324 1  Rx        002A -  8    0A 00 11 94 00 04 00 00 
  1006)     21084.841 1  Rx        002B -  8    00 11 94 00 32 71 75 A0 
  1007)     21087.316 1  Rx        001A -  8    0B 00 11 94 00 04 00 00 
  1008)     21089.833 1  Rx        001B -  8    00 11 94 00 A9 D4 39 CF 
  1009)     21092.350 1  Rx        002A -  8    0B 00 11 94 00 04 00 00 
  1010)     21094.824 1  Rx        002B -  8    00 11 94 00 A9 D4 39 CF 
  1011)     21097.342 1  Rx        001A -  8    0C 00 11 94 00 04 00 00 
  1012)     21099.816 1  Rx        001B -  8    00 11 94 00 DD 4C D0 40 
  1013)     21102.333 1  Rx        002A -  8    0C 00 11 94 00 04 00 00 
  1014)     21104.850 1  Rx        002B -  8    00 11 94 00 DD 4C D0 40 
