;$FILEVERSION=1.3
;$STARTTIME=43467.3971045052
;
;   F:\Galx_1133 Selector 6 box\PCAN_Data\ENC_CAN\Learn_to_15000.trc
;   Start time: 1/2/2019 09:31:49.829.2
;-------------------------------------------------------------------------------
;   Bus  Name        Connection           Protocol
;   1    CEDS_2_CAN  CEDS_2_CAN@pcan_usb  CAN
;-------------------------------------------------------------------------------
;   Message Number
;   |         Time Offset (ms)
;   |         |       Bus
;   |         |       |    Type
;   |         |       |    |       ID (hex)
;   |         |       |    |       |    Reserved
;   |         |       |    |       |    |   Data Length Code
;   |         |       |    |       |    |   |    Data Bytes (hex) ...
;   |         |       |    |       |    |   |    |
;   |         |       |    |       |    |   |    |
;---+-- ------+------ +- --+-- ----+--- +- -+-- -+ -- -- -- -- -- -- --
     1)     87925.228 1  Rx        002A -  8    1B 00 11 94 00 04 00 00 
     2)     87927.702 1  Rx        002B -  8    00 11 94 00 A5 CC D4 33 
     3)     87930.220 1  Rx        001A -  8    1C 00 11 94 00 04 00 00 
     4)     87932.737 1  Rx        001B -  8    00 11 94 00 D1 54 3D BC 
     5)     87935.254 1  Rx        002A -  8    1C 00 11 94 00 04 00 00 
     6)     87937.728 1  Rx        002B -  8    00 11 94 00 D1 54 3D BC 
     7)     87940.245 1  Rx        001A -  8    1D 00 11 94 00 04 00 00 
     8)     87942.720 1  Rx        001B -  8    00 11 94 00 4A F1 71 D3 
     9)     87945.237 1  Rx        002A -  8    1D 00 11 94 00 04 00 00 
    10)     87947.711 1  Rx        002B -  8    00 11 94 00 4A F1 71 D3 
    11)     87950.229 1  Rx        001A -  8    1E 00 11 94 00 04 00 00 
    12)     87952.746 1  Rx        001B -  8    00 11 94 00 3D 6F A3 23 
    13)     87955.220 1  Rx        002A -  8    1E 00 11 94 00 04 00 00 
    14)     87957.737 1  Rx        002B -  8    00 11 94 00 3D 6F A3 23 
    15)     87960.254 1  Rx        001A -  8    1F 00 11 94 00 04 00 00 
    16)     87962.729 1  Rx        001B -  8    00 11 94 00 A6 CA EF 4C 
    17)     87965.246 1  Rx        002A -  8    1F 00 11 94 00 04 00 00 
    18)     87967.720 1  Rx        002B -  8    00 11 94 00 A6 CA EF 4C 
    19)     87970.238 1  Rx        001A -  8    20 00 11 94 00 04 00 00 
    20)     87972.712 1  Rx        001B -  8    00 11 94 00 C0 77 46 39 
    21)     87975.229 1  Rx        002A -  8    20 00 11 94 00 04 00 00 
    22)     87977.704 1  Rx        002B -  8    00 11 94 00 C0 77 46 39 
    23)     87980.221 1  Rx        001A -  8    21 00 11 94 00 04 00 00 
    24)     87982.738 1  Rx        001B -  8    00 11 94 00 5B D2 0A 56 
    25)     87985.255 1  Rx        002A -  8    21 00 11 94 00 04 00 00 
    26)     87987.729 1  Rx        002B -  8    00 11 94 00 5B D2 0A 56 
    27)     87990.246 1  Rx        001A -  8    22 00 11 94 00 04 00 00 
    28)     87992.721 1  Rx        001B -  8    00 11 94 00 2C 4C D8 A6 
    29)     87995.238 1  Rx        002A -  8    22 00 11 94 00 04 00 00 
    30)     87997.712 1  Rx        002B -  8    00 11 94 00 2C 4C D8 A6 
    31)     88000.230 1  Rx        001A -  8    23 00 11 94 00 04 00 00 
    32)     88002.704 1  Rx        001B -  8    00 11 94 00 B7 E9 94 C9 
    33)     88005.221 1  Rx        002A -  8    23 00 11 94 00 04 00 00 
    34)     88007.738 1  Rx        002B -  8    00 11 94 00 B7 E9 94 C9 
    35)     88010.255 1  Rx        001A -  8    24 00 11 94 00 04 00 00 
    36)     88012.730 1  Rx        001B -  8    00 11 94 00 C3 71 7D 46 
    37)     88015.588 1  Rx        002A -  8    24 00 11 94 00 04 00 00 
    38)     88017.721 1  Rx        002B -  8    00 11 94 00 C3 71 7D 46 
    39)     88020.239 1  Rx        001A -  8    25 00 11 94 00 04 00 00 
    40)     88022.713 1  Rx        001B -  8    00 11 94 00 58 D4 31 29 
    41)     88025.230 1  Rx        002A -  8    25 00 11 94 00 04 00 00 
    42)     88027.705 1  Rx        002B -  8    00 11 94 00 58 D4 31 29 
    43)     88030.222 1  Rx        001A -  8    26 00 11 94 00 04 00 00 
    44)     88032.739 1  Rx        001B -  8    00 11 94 00 2F 4A E3 D9 
    45)     88035.213 1  Rx        002A -  8    26 00 11 94 00 04 00 00 
    46)     88037.730 1  Rx        002B -  8    00 11 94 00 2F 4A E3 D9 
    47)     88040.247 1  Rx        001A -  8    27 00 11 94 00 04 00 00 
    48)     88042.722 1  Rx        001B -  8    00 11 94 00 B4 EF AF B6 
    49)     88045.239 1  Rx        002A -  8    27 00 11 94 00 04 00 00 
    50)     88047.714 1  Rx        002B -  8    00 11 94 00 B4 EF AF B6 
    51)     88050.231 1  Rx        001A -  8    28 00 11 94 00 04 00 00 
    52)     88052.705 1  Rx        001B -  8    00 11 94 00 C6 7B 30 C7 
    53)     88055.222 1  Rx        002A -  8    28 00 11 94 00 04 00 00 
    54)     88057.697 1  Rx        002B -  8    00 11 94 00 C6 7B 30 C7 
    55)     88060.214 1  Rx        001A -  8    29 00 11 94 00 04 00 00 
    56)     88062.731 1  Rx        001B -  8    00 11 94 00 5D DE 7C A8 
    57)     88065.205 1  Rx        002A -  8    29 00 11 94 00 04 00 00 
    58)     88067.722 1  Rx        002B -  8    00 11 94 00 5D DE 7C A8 
    59)     88070.240 1  Rx        001A -  8    2A 00 11 94 00 04 00 00 
    60)     88072.714 1  Rx        001B -  8    00 11 94 00 2A 40 AE 58 
    61)     88075.231 1  Rx        002A -  8    2A 00 11 94 00 04 00 00 
    62)     88077.736 1  Rx        002B -  8    00 11 94 00 2A 40 AE 58 
    63)     88080.253 1  Rx        001A -  8    2B 00 11 94 00 04 00 00 
    64)     88082.727 1  Rx        001B -  8    00 11 94 00 B1 E5 E2 37 
    65)     88085.244 1  Rx        002A -  8    2B 00 11 94 00 04 00 00 
    66)     88087.761 1  Rx        002B -  8    00 11 94 00 B1 E5 E2 37 
    67)     88090.236 1  Rx        001A -  8    2C 00 11 94 00 04 00 00 
    68)     88092.753 1  Rx        001B -  8    00 11 94 00 C5 7D 0B B8 
    69)     88095.270 1  Rx        002A -  8    2C 00 11 94 00 04 00 00 
    70)     88097.745 1  Rx        002B -  8    00 11 94 00 C5 7D 0B B8 
    71)     88100.262 1  Rx        001A -  8    2D 00 11 94 00 04 00 00 
    72)     88102.736 1  Rx        001B -  8    00 11 94 00 5E D8 47 D7 
    73)     88105.253 1  Rx        002A -  8    2D 00 11 94 00 04 00 00 
    74)     88107.728 1  Rx        002B -  8    00 11 94 00 5E D8 47 D7 
    75)     88110.245 1  Rx        001A -  8    2E 00 11 94 00 04 00 00 
    76)     88112.762 1  Rx        001B -  8    00 11 94 00 29 46 95 27 
    77)     88115.279 1  Rx        002A -  8    2E 00 11 94 00 04 00 00 
    78)     88117.754 1  Rx        002B -  8    00 11 94 00 29 46 95 27 
    79)     88120.271 1  Rx        001A -  8    2F 00 11 94 00 04 00 00 
    80)     88122.745 1  Rx        001B -  8    00 11 94 00 B2 E3 D9 48 
    81)     88125.262 1  Rx        002A -  8    2F 00 11 94 00 04 00 00 
    82)     88127.737 1  Rx        002B -  8    00 11 94 00 B2 E3 D9 48 
    83)     88130.254 1  Rx        001A -  8    30 00 11 94 00 04 00 00 
    84)     88132.728 1  Rx        001B -  8    00 11 94 00 CC 6F AB C5 
    85)     88135.245 1  Rx        002A -  8    30 00 11 94 00 04 00 00 
    86)     88137.762 1  Rx        002B -  8    00 11 94 00 CC 6F AB C5 
    87)     88140.237 1  Rx        001A -  8    31 00 11 94 00 04 00 00 
    88)     88142.754 1  Rx        001B -  8    00 11 94 00 57 CA E7 AA 
    89)     88145.271 1  Rx        002A -  8    31 00 11 94 00 04 00 00 
    90)     88147.746 1  Rx        002B -  8    00 11 94 00 57 CA E7 AA 
    91)     88150.263 1  Rx        001A -  8    32 00 11 94 00 04 00 00 
    92)     88152.737 1  Rx        001B -  8    00 11 94 00 20 54 35 5A 
    93)     88155.254 1  Rx        002A -  8    32 00 11 94 00 04 00 00 
    94)     88157.729 1  Rx        002B -  8    00 11 94 00 20 54 35 5A 
    95)     88160.246 1  Rx        001A -  8    33 00 11 94 00 04 00 00 
    96)     88162.763 1  Rx        001B -  8    00 11 94 00 BB F1 79 35 
    97)     88165.237 1  Rx        002A -  8    33 00 11 94 00 04 00 00 
    98)     88167.755 1  Rx        002B -  8    00 11 94 00 BB F1 79 35 
    99)     88170.229 1  Rx        001A -  8    34 00 11 94 00 04 00 00 
   100)     88172.746 1  Rx        001B -  8    00 11 94 00 CF 69 90 BA 
   101)     88175.263 1  Rx        002A -  8    34 00 11 94 00 04 00 00 
   102)     88177.738 1  Rx        002B -  8    00 11 94 00 CF 69 90 BA 
   103)     88180.255 1  Rx        001A -  8    35 00 11 94 00 04 00 00 
   104)     88182.729 1  Rx        001B -  8    00 11 94 00 54 CC DC D5 
   105)     88185.246 1  Rx        002A -  8    35 00 11 94 00 04 00 00 
   106)     88187.721 1  Rx        002B -  8    00 11 94 00 54 CC DC D5 
   107)     88190.238 1  Rx        001A -  8    36 00 11 94 00 04 00 00 
   108)     88192.755 1  Rx        001B -  8    00 11 94 00 23 52 0E 25 
   109)     88195.230 1  Rx        002A -  8    36 00 11 94 00 04 00 00 
   110)     88197.747 1  Rx        002B -  8    00 11 94 00 23 52 0E 25 
   111)     88200.264 1  Rx        001A -  8    37 00 11 94 00 04 00 00 
   112)     88202.738 1  Rx        001B -  8    00 11 94 00 B8 F7 42 4A 
   113)     88205.255 1  Rx        002A -  8    37 00 11 94 00 04 00 00 
   114)     88207.730 1  Rx        002B -  8    00 11 94 00 B8 F7 42 4A 
   115)     88210.247 1  Rx        001A -  8    38 00 11 94 00 04 00 00 
   116)     88212.721 1  Rx        001B -  8    00 11 94 00 CA 63 DD 3B 
   117)     88215.238 1  Rx        002A -  8    38 00 11 94 00 04 00 00 
   118)     88217.756 1  Rx        002B -  8    00 11 94 00 CA 63 DD 3B 
   119)     88220.230 1  Rx        001A -  8    39 00 11 94 00 04 00 00 
   120)     88222.747 1  Rx        001B -  8    00 11 94 00 51 C6 91 54 
   121)     88225.264 1  Rx        002A -  8    39 00 11 94 00 04 00 00 
   122)     88227.739 1  Rx        002B -  8    00 11 94 00 51 C6 91 54 
   123)     88230.256 1  Rx        001A -  8    3A 00 11 94 00 04 00 00 
   124)     88232.730 1  Rx        001B -  8    00 11 94 00 26 58 43 A4 
   125)     88235.247 1  Rx        002A -  8    3A 00 11 94 00 04 00 00 
   126)     88237.765 1  Rx        002B -  8    00 11 94 00 26 58 43 A4 
   127)     88240.239 1  Rx        001A -  8    3B 00 11 94 00 04 00 00 
   128)     88242.756 1  Rx        001B -  8    00 11 94 00 BD FD 0F CB 
   129)     88245.273 1  Rx        002A -  8    3B 00 11 94 00 04 00 00 
   130)     88247.748 1  Rx        002B -  8    00 11 94 00 BD FD 0F CB 
   131)     88250.265 1  Rx        001A -  8    3C 00 11 94 00 04 00 00 
   132)     88252.739 1  Rx        001B -  8    00 11 94 00 C9 65 E6 44 
   133)     88255.256 1  Rx        002A -  8    3C 00 11 94 00 04 00 00 
   134)     88257.731 1  Rx        002B -  8    00 11 94 00 C9 65 E6 44 
   135)     88260.248 1  Rx        001A -  8    3D 00 11 94 00 04 00 00 
   136)     88262.722 1  Rx        001B -  8    00 11 94 00 52 C0 AA 2B 
   137)     88265.239 1  Rx        002A -  8    3D 00 11 94 00 04 00 00 
   138)     88267.757 1  Rx        002B -  8    00 11 94 00 52 C0 AA 2B 
   139)     88270.274 1  Rx        001A -  8    3E 00 11 94 00 04 00 00 
   140)     88272.748 1  Rx        001B -  8    00 11 94 00 25 5E 78 DB 
   141)     88275.649 1  Rx        002A -  8    3E 00 11 94 00 04 00 00 
   142)     88277.740 1  Rx        002B -  8    00 11 94 00 25 5E 78 DB 
   143)     88280.257 1  Rx        001A -  8    3F 00 11 94 00 04 00 00 
   144)     88282.731 1  Rx        001B -  8    00 11 94 00 BE FB 34 B4 
   145)     88285.248 1  Rx        002A -  8    3F 00 11 94 00 04 00 00 
   146)     88287.766 1  Rx        002B -  8    00 11 94 00 BE FB 34 B4 
   147)     88290.240 1  Rx        001A -  8    40 00 11 94 00 04 00 00 
   148)     88292.757 1  Rx        001B -  8    00 11 94 00 E8 25 2A 31 
   149)     88295.232 1  Rx        002A -  8    40 00 11 94 00 04 00 00 
   150)     88297.749 1  Rx        002B -  8    00 11 94 00 E8 25 2A 31 
   151)     88300.223 1  Rx        001A -  8    41 00 11 94 00 04 00 00 
   152)     88302.740 1  Rx        001B -  8    00 11 94 00 73 80 66 5E 
   153)     88305.257 1  Rx        002A -  8    41 00 11 94 00 04 00 00 
   154)     88307.732 1  Rx        002B -  8    00 11 94 00 73 80 66 5E 
   155)     88310.249 1  Rx        001A -  8    42 00 11 94 00 04 00 00 
   156)     88312.723 1  Rx        001B -  8    00 11 94 00 04 1E B4 AE 
   157)     88315.241 1  Rx        002A -  8    42 00 11 94 00 04 00 00 
   158)     88317.758 1  Rx        002B -  8    00 11 94 00 04 1E B4 AE 
   159)     88320.232 1  Rx        001A -  8    43 00 11 94 00 04 00 00 
   160)     88322.749 1  Rx        001B -  8    00 11 94 00 9F BB F8 C1 
   161)     88325.224 1  Rx        002A -  8    43 00 11 94 00 04 00 00 
   162)     88327.741 1  Rx        002B -  8    00 11 94 00 9F BB F8 C1 
   163)     88330.258 1  Rx        001A -  8    44 00 11 94 00 04 00 00 
   164)     88333.244 1  Rx        001B -  8    00 11 94 00 EB 23 11 4E 
   165)     88335.249 1  Rx        002A -  8    44 00 11 94 00 04 00 00 
   166)     88337.724 1  Rx        002B -  8    00 11 94 00 EB 23 11 4E 
   167)     88340.753 1  Rx        001A -  8    45 00 11 94 00 04 00 00 
   168)     88342.716 1  Rx        001B -  8    00 11 94 00 70 86 5D 21 
   169)     88345.233 1  Rx        002A -  8    45 00 11 94 00 04 00 00 
   170)     88347.750 1  Rx        002B -  8    00 11 94 00 70 86 5D 21 
   171)     88350.224 1  Rx        001A -  8    46 00 11 94 00 04 00 00 
   172)     88352.741 1  Rx        001B -  8    00 11 94 00 07 18 8F D1 
   173)     88355.258 1  Rx        002A -  8    46 00 11 94 00 04 00 00 
   174)     88357.733 1  Rx        002B -  8    00 11 94 00 07 18 8F D1 
   175)     88360.250 1  Rx        001A -  8    47 00 11 94 00 04 00 00 
   176)     88362.724 1  Rx        001B -  8    00 11 94 00 9C BD C3 BE 
   177)     88365.242 1  Rx        002A -  8    47 00 11 94 00 04 00 00 
   178)     88367.716 1  Rx        002B -  8    00 11 94 00 9C BD C3 BE 
   179)     88370.233 1  Rx        001A -  8    48 00 11 94 00 04 00 00 
   180)     88372.708 1  Rx        001B -  8    00 11 94 00 EE 29 5C CF 
   181)     88375.225 1  Rx        002A -  8    48 00 11 94 00 04 00 00 
   182)     88377.742 1  Rx        002B -  8    00 11 94 00 EE 29 5C CF 
   183)     88380.216 1  Rx        001A -  8    49 00 11 94 00 04 00 00 
   184)     88382.733 1  Rx        001B -  8    00 11 94 00 75 8C 10 A0 
   185)     88385.251 1  Rx        002A -  8    49 00 11 94 00 04 00 00 
   186)     88387.725 1  Rx        002B -  8    00 11 94 00 75 8C 10 A0 
   187)     88390.242 1  Rx        001A -  8    4A 00 11 94 00 04 00 00 
   188)     88392.717 1  Rx        001B -  8    00 11 94 00 02 12 C2 50 
   189)     88395.234 1  Rx        002A -  8    4A 00 11 94 00 04 00 00 
   190)     88397.751 1  Rx        002B -  8    00 11 94 00 02 12 C2 50 
   191)     88400.225 1  Rx        001A -  8    4B 00 11 94 00 04 00 00 
   192)     88402.742 1  Rx        001B -  8    00 11 94 00 99 B7 8E 3F 
   193)     88405.259 1  Rx        002A -  8    4B 00 11 94 00 04 00 00 
   194)     88407.734 1  Rx        002B -  8    00 11 94 00 99 B7 8E 3F 
   195)     88410.251 1  Rx        001A -  8    4C 00 11 94 00 04 00 00 
   196)     88412.725 1  Rx        001B -  8    00 11 94 00 ED 2F 67 B0 
   197)     88415.243 1  Rx        002A -  8    4C 00 11 94 00 04 00 00 
   198)     88417.717 1  Rx        002B -  8    00 11 94 00 ED 2F 67 B0 
   199)     88420.234 1  Rx        001A -  8    4D 00 11 94 00 04 00 00 
   200)     88422.751 1  Rx        001B -  8    00 11 94 00 76 8A 2B DF 
   201)     88425.226 1  Rx        002A -  8    4D 00 11 94 00 04 00 00 
   202)     88427.743 1  Rx        002B -  8    00 03 E8 00 EA A2 6A 3B 
   203)     88430.260 1  Rx        001A -  8    4E 00 03 E8 00 01 00 00 
   204)     88433.246 1  Rx        001B -  8    00 03 E8 00 FA C8 F6 78 
   205)     88435.252 1  Rx        002A -  8    4E 00 03 E8 00 01 00 00 
   206)     88438.238 1  Rx        002B -  8    00 03 E8 00 FA C8 F6 78 
   207)     88440.243 1  Rx        001A -  8    4F 00 03 E8 00 01 00 00 
   208)     88442.718 1  Rx        001B -  8    00 03 E8 00 61 6D BA 17 
   209)     88445.235 1  Rx        002A -  8    4F 00 03 E8 00 01 00 00 
   210)     88447.752 1  Rx        002B -  8    00 03 E8 00 61 6D BA 17 
   211)     88450.226 1  Rx        001A -  8    50 00 03 E8 00 01 00 00 
   212)     88452.743 1  Rx        001B -  8    00 03 E8 00 1F E1 C8 9A 
   213)     88455.260 1  Rx        002A -  8    50 00 03 E8 00 01 00 00 
   214)     88457.735 1  Rx        002B -  8    00 03 E8 00 1F E1 C8 9A 
   215)     88460.252 1  Rx        001A -  8    51 00 03 E8 00 01 00 00 
   216)     88462.727 1  Rx        001B -  8    00 03 E8 00 84 44 84 F5 
   217)     88465.244 1  Rx        002A -  8    51 00 03 E8 00 01 00 00 
   218)     88467.718 1  Rx        002B -  8    00 03 E8 00 84 44 84 F5 
   219)     88470.235 1  Rx        001A -  8    52 00 03 E8 00 01 00 00 
   220)     88472.752 1  Rx        001B -  8    00 03 E8 00 F3 DA 56 05 
   221)     88475.227 1  Rx        002A -  8    52 00 03 E8 00 01 00 00 
   222)     88477.744 1  Rx        002B -  8    00 03 E8 00 F3 DA 56 05 
   223)     88480.218 1  Rx        001A -  8    53 00 03 E8 00 01 00 00 
   224)     88482.735 1  Rx        001B -  8    00 03 E8 00 68 7F 1A 6A 
   225)     88485.253 1  Rx        002A -  8    53 00 03 E8 00 01 00 00 
   226)     88487.727 1  Rx        002B -  8    00 03 E8 00 68 7F 1A 6A 
   227)     88490.628 1  Rx        001A -  8    54 00 03 E8 00 01 00 00 
   228)     88492.719 1  Rx        001B -  8    00 03 E8 00 1C E7 F3 E5 
   229)     88495.236 1  Rx        002A -  8    54 00 03 E8 00 01 00 00 
   230)     88497.753 1  Rx        002B -  8    00 03 E8 00 1C E7 F3 E5 
   231)     88500.227 1  Rx        001A -  8    55 00 03 E8 00 01 00 00 
   232)     88502.744 1  Rx        001B -  8    00 03 E8 00 87 42 BF 8A 
   233)     88505.219 1  Rx        002A -  8    55 00 03 E8 00 01 00 00 
   234)     88507.736 1  Rx        002B -  8    00 03 E8 00 87 42 BF 8A 
   235)     88510.253 1  Rx        001A -  8    56 00 03 E8 00 01 00 00 
   236)     88512.728 1  Rx        001B -  8    00 03 E8 00 F0 DC 6D 7A 
   237)     88515.245 1  Rx        002A -  8    56 00 03 E8 00 01 00 00 
   238)     88517.719 1  Rx        002B -  8    00 03 E8 00 F0 DC 6D 7A 
   239)     88520.236 1  Rx        001A -  8    57 00 03 E8 00 01 00 00 
   240)     88522.711 1  Rx        001B -  8    00 03 E8 00 6B 79 21 15 
   241)     88525.228 1  Rx        002A -  8    57 00 03 E8 00 01 00 00 
   242)     88527.745 1  Rx        002B -  8    00 03 E8 00 6B 79 21 15 
   243)     88530.219 1  Rx        001A -  8    58 00 03 E8 00 01 00 00 
   244)     88532.737 1  Rx        001B -  8    00 03 E8 00 19 ED BE 64 
   245)     88535.254 1  Rx        002A -  8    58 00 03 E8 00 01 00 00 
   246)     88537.728 1  Rx        002B -  8    00 03 E8 00 19 ED BE 64 
   247)     88540.245 1  Rx        001A -  8    59 00 03 E8 00 01 00 00 
   248)     88542.720 1  Rx        001B -  8    00 03 E8 00 82 48 F2 0B 
   249)     88545.237 1  Rx        002A -  8    59 00 03 E8 00 01 00 00 
   250)     88547.754 1  Rx        002B -  8    00 03 E8 00 82 48 F2 0B 
   251)     88550.228 1  Rx        001A -  8    5A 00 03 E8 00 01 00 00 
   252)     88552.745 1  Rx        001B -  8    00 03 E8 00 F5 D6 20 FB 
   253)     88555.220 1  Rx        002A -  8    5A 00 03 E8 00 01 00 00 
   254)     88557.993 1  Rx        002B -  8    00 03 E8 00 F5 D6 20 FB 
   255)     88560.211 1  Rx        001A -  8    5B 00 03 E8 00 01 00 00 
   256)     88562.729 1  Rx        001B -  8    00 03 E8 00 6E 73 6C 94 
   257)     88565.246 1  Rx        002A -  8    5B 00 03 E8 00 01 00 00 
   258)     88567.720 1  Rx        002B -  8    00 03 E8 00 6E 73 6C 94 
   259)     88570.237 1  Rx        001A -  8    5C 00 03 E8 00 01 00 00 
   260)     88572.712 1  Rx        001B -  8    00 03 E8 00 1A EB 85 1B 
   261)     88575.229 1  Rx        002A -  8    5C 00 03 E8 00 01 00 00 
   262)     88577.703 1  Rx        002B -  8    00 03 E8 00 1A EB 85 1B 
   263)     88580.220 1  Rx        001A -  8    5D 00 03 E8 00 01 00 00 
   264)     88583.249 1  Rx        001B -  8    00 03 E8 00 81 4E C9 74 
   265)     88585.212 1  Rx        002A -  8    5D 00 03 E8 00 01 00 00 
   266)     88587.729 1  Rx        002B -  8    00 03 E8 00 81 4E C9 74 
   267)     88590.246 1  Rx        001A -  8    5E 00 03 E8 00 01 00 00 
   268)     88592.721 1  Rx        001B -  8    00 03 E8 00 F6 D0 1B 84 
   269)     88595.238 1  Rx        002A -  8    5E 00 03 E8 00 01 00 00 
   270)     88597.712 1  Rx        002B -  8    00 03 E8 00 F6 D0 1B 84 
   271)     88600.229 1  Rx        001A -  8    5F 00 03 E8 00 01 00 00 
   272)     88602.746 1  Rx        001B -  8    00 03 E8 00 6D 75 57 EB 
   273)     88605.221 1  Rx        002A -  8    5F 00 03 E8 00 01 00 00 
   274)     88607.738 1  Rx        002B -  8    00 03 E8 00 6D 75 57 EB 
   275)     88610.255 1  Rx        001A -  8    60 00 03 E8 00 01 00 00 
   276)     88612.730 1  Rx        001B -  8    00 03 E8 00 0B C8 FE 9E 
   277)     88615.247 1  Rx        002A -  8    60 00 03 E8 00 01 00 00 
   278)     88617.721 1  Rx        002B -  8    00 03 E8 00 0B C8 FE 9E 
   279)     88620.238 1  Rx        001A -  8    61 00 03 E8 00 01 00 00 
   280)     88622.713 1  Rx        001B -  8    00 03 E8 00 90 6D B2 F1 
   281)     88625.230 1  Rx        002A -  8    61 00 03 E8 00 01 00 00 
   282)     88627.747 1  Rx        002B -  8    00 03 E8 00 90 6D B2 F1 
   283)     88630.221 1  Rx        001A -  8    62 00 03 E8 00 01 00 00 
   284)     88632.739 1  Rx        001B -  8    00 03 E8 00 E7 F3 60 01 
   285)     88635.213 1  Rx        002A -  8    62 00 03 E8 00 01 00 00 
   286)     88637.730 1  Rx        002B -  8    00 03 E8 00 E7 F3 60 01 
   287)     88640.589 1  Rx        001A -  8    63 00 03 E8 00 01 00 00 
   288)     88642.978 1  Rx        001B -  8    00 03 E8 00 7C 56 2C 6E 
   289)     88645.239 1  Rx        002A -  8    63 00 03 E8 00 01 00 00 
   290)     88647.713 1  Rx        002B -  8    00 03 E8 00 7C 56 2C 6E 
   291)     88651.297 1  Rx        001A -  8    64 00 03 E8 00 01 00 00 
   292)     88652.748 1  Rx        001B -  8    00 03 E8 00 08 CE C5 E1 
   293)     88655.222 1  Rx        002A -  8    64 00 03 E8 00 01 00 00 
   294)     88657.739 1  Rx        002B -  8    00 03 E8 00 08 CE C5 E1 
   295)     88660.214 1  Rx        001A -  8    65 00 03 E8 00 01 00 00 
   296)     88662.731 1  Rx        001B -  8    00 03 E8 00 93 6B 89 8E 
   297)     88665.205 1  Rx        002A -  8    65 00 03 E8 00 01 00 00 
   298)     88667.722 1  Rx        002B -  8    00 03 E8 00 93 6B 89 8E 
   299)     88670.239 1  Rx        001A -  8    66 00 03 E8 00 01 00 00 
   300)     88672.714 1  Rx        001B -  8    00 03 E8 00 E4 F5 5B 7E 
   301)     88675.231 1  Rx        002A -  8    66 00 03 E8 00 01 00 00 
   302)     88677.748 1  Rx        002B -  8    00 03 E8 00 E4 F5 5B 7E 
   303)     88680.222 1  Rx        001A -  8    67 00 03 E8 00 01 00 00 
   304)     88682.996 1  Rx        001B -  8    00 03 E8 00 7F 50 17 11 
   305)     88685.214 1  Rx        002A -  8    67 00 03 E8 00 01 00 00 
   306)     88687.731 1  Rx        002B -  8    00 03 E8 00 7F 50 17 11 
   307)     88690.248 1  Rx        001A -  8    68 00 03 E8 00 01 00 00 
   308)     88692.723 1  Rx        001B -  8    00 03 E8 00 0D C4 88 60 
   309)     88695.240 1  Rx        002A -  8    68 00 03 E8 00 01 00 00 
   310)     88697.714 1  Rx        002B -  8    00 03 E8 00 0D C4 88 60 
   311)     88700.231 1  Rx        001A -  8    69 00 03 E8 00 01 00 00 
   312)     88702.706 1  Rx        001B -  8    00 03 E8 00 96 61 C4 0F 
   313)     88705.223 1  Rx        002A -  8    69 00 03 E8 00 01 00 00 
   314)     88707.740 1  Rx        002B -  8    00 03 E8 00 96 61 C4 0F 
   315)     88710.215 1  Rx        001A -  8    6A 00 03 E8 00 01 00 00 
   316)     88712.732 1  Rx        001B -  8    00 03 E8 00 E1 FF 16 FF 
   317)     88715.206 1  Rx        002A -  8    6A 00 03 E8 00 01 00 00 
   318)     88717.723 1  Rx        002B -  8    00 03 E8 00 E1 FF 16 FF 
   319)     88720.240 1  Rx        001A -  8    6B 00 03 E8 00 01 00 00 
   320)     88722.715 1  Rx        001B -  8    00 03 E8 00 7A 5A 5A 90 
   321)     88725.232 1  Rx        002A -  8    6B 00 03 E8 00 01 00 00 
   322)     88727.706 1  Rx        002B -  8    00 03 E8 00 7A 5A 5A 90 
   323)     88730.224 1  Rx        001A -  8    6C 00 03 E8 00 01 00 00 
   324)     88733.509 1  Rx        001B -  8    00 03 E8 00 0E C2 B3 1F 
   325)     88735.215 1  Rx        002A -  8    6C 00 03 E8 00 01 00 00 
   326)     88737.732 1  Rx        002B -  8    00 03 E8 00 0E C2 B3 1F 
   327)     88740.207 1  Rx        001A -  8    6D 00 03 E8 00 01 00 00 
   328)     88742.724 1  Rx        001B -  8    00 03 E8 00 95 67 FF 70 
   329)     88745.241 1  Rx        002A -  8    6D 00 03 E8 00 01 00 00 
   330)     88747.715 1  Rx        002B -  8    00 03 E8 00 95 67 FF 70 
   331)     88750.616 1  Rx        001A -  8    6E 00 03 E8 00 01 00 00 
   332)     88752.750 1  Rx        001B -  8    00 03 E8 00 E2 F9 2D 80 
   333)     88755.224 1  Rx        002A -  8    6E 00 03 E8 00 01 00 00 
   334)     88757.741 1  Rx        002B -  8    00 03 E8 00 E2 F9 2D 80 
   335)     88760.216 1  Rx        001A -  8    6F 00 03 E8 00 01 00 00 
   336)     88762.733 1  Rx        001B -  8    00 03 E8 00 79 5C 61 EF 
   337)     88765.207 1  Rx        002A -  8    6F 00 03 E8 00 01 00 00 
   338)     88767.724 1  Rx        002B -  8    00 03 E8 00 79 5C 61 EF 
   339)     88770.241 1  Rx        001A -  8    70 00 03 E8 00 01 00 00 
   340)     88772.716 1  Rx        001B -  8    00 03 E8 00 07 D0 13 62 
   341)     88775.745 1  Rx        002A -  8    70 00 03 E8 00 01 00 00 
   342)     88777.750 1  Rx        002B -  8    00 03 E8 00 07 D0 13 62 
   343)     88780.225 1  Rx        001A -  8    71 00 03 E8 00 01 00 00 
   344)     88783.254 1  Rx        001B -  8    00 03 E8 00 9C 75 5F 0D 
   345)     88785.216 1  Rx        002A -  8    71 00 03 E8 00 01 00 00 
   346)     88787.733 1  Rx        002B -  8    00 03 E8 00 9C 75 5F 0D 
   347)     88790.208 1  Rx        001A -  8    72 00 03 E8 00 01 00 00 
   348)     88792.725 1  Rx        001B -  8    00 03 E8 00 EB EB 8D FD 
   349)     88795.242 1  Rx        002A -  8    72 00 03 E8 00 01 00 00 
   350)     88797.716 1  Rx        002B -  8    00 03 E8 00 EB EB 8D FD 
   351)     88800.873 1  Rx        001A -  8    73 00 03 E8 00 01 00 00 
   352)     88802.708 1  Rx        001B -  8    00 03 E8 00 70 4E C1 92 
   353)     88805.225 1  Rx        002A -  8    73 00 03 E8 00 01 00 00 
   354)     88807.742 1  Rx        002B -  8    00 03 E8 00 70 4E C1 92 
   355)     88810.217 1  Rx        001A -  8    74 00 03 E8 00 01 00 00 
   356)     88812.734 1  Rx        001B -  8    00 03 E8 00 04 D6 28 1D 
   357)     88815.208 1  Rx        002A -  8    74 00 03 E8 00 01 00 00 
   358)     88817.725 1  Rx        002B -  8    00 03 E8 00 04 D6 28 1D 
   359)     88820.200 1  Rx        001A -  8    75 00 03 E8 00 01 00 00 
   360)     88822.717 1  Rx        001B -  8    00 03 E8 00 9F 73 64 72 
   361)     88825.234 1  Rx        002A -  8    75 00 03 E8 00 01 00 00 
   362)     88827.708 1  Rx        002B -  8    00 03 E8 00 9F 73 64 72 
   363)     88830.226 1  Rx        001A -  8    76 00 03 E8 00 01 00 00 
   364)     88832.700 1  Rx        001B -  8    00 03 E8 00 E8 ED B6 82 
   365)     88835.217 1  Rx        002A -  8    76 00 03 E8 00 01 00 00 
   366)     88837.734 1  Rx        002B -  8    00 03 E8 00 E8 ED B6 82 
   367)     88840.209 1  Rx        001A -  8    77 00 03 E8 00 01 00 00 
   368)     88842.726 1  Rx        001B -  8    00 03 E8 00 73 48 FA ED 
   369)     88845.200 1  Rx        002A -  8    77 00 03 E8 00 01 00 00 
   370)     88847.717 1  Rx        002B -  8    00 03 E8 00 73 48 FA ED 
   371)     88850.747 1  Rx        001A -  8    78 00 03 E8 00 01 00 00 
   372)     88852.709 1  Rx        001B -  8    00 03 E8 00 01 DC 65 9C 
   373)     88855.226 1  Rx        002A -  8    78 00 03 E8 00 01 00 00 
   374)     88857.701 1  Rx        002B -  8    00 03 E8 00 01 DC 65 9C 
   375)     88860.218 1  Rx        001A -  8    79 00 03 E8 00 01 00 00 
   376)     88862.735 1  Rx        001B -  8    00 03 E8 00 9A 79 29 F3 
   377)     88865.209 1  Rx        002A -  8    79 00 03 E8 00 01 00 00 
   378)     88867.726 1  Rx        002B -  8    00 03 E8 00 9A 79 29 F3 
   379)     88870.243 1  Rx        001A -  8    7A 00 03 E8 00 01 00 00 
   380)     88872.718 1  Rx        001B -  8    00 03 E8 00 ED E7 FB 03 
   381)     88875.235 1  Rx        002A -  8    7A 00 03 E8 00 01 00 00 
   382)     88877.710 1  Rx        002B -  8    00 03 E8 00 ED E7 FB 03 
   383)     88880.227 1  Rx        001A -  8    7B 00 03 E8 00 01 00 00 
   384)     88882.701 1  Rx        001B -  8    00 03 E8 00 76 42 B7 6C 
   385)     88885.218 1  Rx        002A -  8    7B 00 03 E8 00 01 00 00 
   386)     88887.693 1  Rx        002B -  8    00 03 E8 00 76 42 B7 6C 
   387)     88890.210 1  Rx        001A -  8    7C 00 03 E8 00 01 00 00 
   388)     88892.727 1  Rx        001B -  8    00 03 E8 00 02 DA 5E E3 
   389)     88895.201 1  Rx        002A -  8    7C 00 03 E8 00 01 00 00 
   390)     88897.718 1  Rx        002B -  8    00 03 E8 00 02 DA 5E E3 
   391)     88900.236 1  Rx        001A -  8    7D 00 03 E8 00 01 00 00 
   392)     88902.710 1  Rx        001B -  8    00 03 E8 00 99 7F 12 8C 
   393)     88905.227 1  Rx        002A -  8    7D 00 03 E8 00 01 00 00 
   394)     88907.702 1  Rx        002B -  8    00 03 E8 00 99 7F 12 8C 
   395)     88910.219 1  Rx        001A -  8    7E 00 03 E8 00 01 00 00 
   396)     88912.736 1  Rx        001B -  8    00 03 E8 00 EE E1 C0 7C 
   397)     88915.210 1  Rx        002A -  8    7E 00 03 E8 00 01 00 00 
   398)     88917.727 1  Rx        002B -  8    00 03 E8 00 EE E1 C0 7C 
   399)     88920.202 1  Rx        001A -  8    7F 00 03 E8 00 01 00 00 
   400)     88922.719 1  Rx        001B -  8    00 03 E8 00 75 44 8C 13 
   401)     88925.236 1  Rx        002A -  8    7F 00 03 E8 00 01 00 00 
   402)     88927.711 1  Rx        002B -  8    00 03 E8 00 75 44 8C 13 
   403)     88930.228 1  Rx        001A -  8    80 00 03 E8 00 01 00 00 
   404)     88932.702 1  Rx        001B -  8    00 03 E8 00 43 5D FD 76 
   405)     88935.219 1  Rx        002A -  8    80 00 03 E8 00 01 00 00 
   406)     88937.694 1  Rx        002B -  8    00 03 E8 00 43 5D FD 76 
   407)     88940.211 1  Rx        001A -  8    81 00 03 E8 00 01 00 00 
   408)     88942.728 1  Rx        001B -  8    00 03 E8 00 D8 F8 B1 19 
   409)     88945.202 1  Rx        002A -  8    81 00 03 E8 00 01 00 00 
   410)     88947.720 1  Rx        002B -  8    00 03 E8 00 D8 F8 B1 19 
   411)     88950.749 1  Rx        001A -  8    82 00 03 E8 00 01 00 00 
   412)     88952.711 1  Rx        001B -  8    00 03 E8 00 AF 66 63 E9 
   413)     88955.228 1  Rx        002A -  8    82 00 03 E8 00 01 00 00 
   414)     88958.215 1  Rx        002B -  8    00 03 E8 00 AF 66 63 E9 
   415)     88960.220 1  Rx        001A -  8    83 00 03 E8 00 01 00 00 
   416)     88962.694 1  Rx        001B -  8    00 03 E8 00 34 C3 2F 86 
   417)     88965.211 1  Rx        002A -  8    83 00 03 E8 00 01 00 00 
   418)     88967.728 1  Rx        002B -  8    00 03 E8 00 34 C3 2F 86 
   419)     88970.203 1  Rx        001A -  8    84 00 03 E8 00 01 00 00 
   420)     88972.720 1  Rx        001B -  8    00 03 E8 00 40 5B C6 09 
   421)     88975.706 1  Rx        002A -  8    84 00 03 E8 00 01 00 00 
   422)     88977.712 1  Rx        002B -  8    00 03 E8 00 40 5B C6 09 
   423)     88980.229 1  Rx        001A -  8    85 00 03 E8 00 01 00 00 
   424)     88982.703 1  Rx        001B -  8    00 03 E8 00 DB FE 8A 66 
   425)     88985.220 1  Rx        002A -  8    85 00 03 E8 00 01 00 00 
   426)     88987.695 1  Rx        002B -  8    00 03 E8 00 DB FE 8A 66 
   427)     88990.212 1  Rx        001A -  8    86 00 03 E8 00 01 00 00 
   428)     88992.729 1  Rx        001B -  8    00 03 E8 00 AC 60 58 96 
   429)     88995.203 1  Rx        002A -  8    86 00 03 E8 00 01 00 00 
   430)     88997.721 1  Rx        002B -  8    00 03 E8 00 AC 60 58 96 
   431)     89001.262 1  Rx        001A -  8    87 00 03 E8 00 01 00 00 
   432)     89002.712 1  Rx        001B -  8    00 03 E8 00 37 C5 14 F9 
   433)     89005.187 1  Rx        002A -  8    87 00 03 E8 00 01 00 00 
   434)     89007.704 1  Rx        002B -  8    00 03 E8 00 37 C5 14 F9 
   435)     89010.221 1  Rx        001A -  8    88 00 03 E8 00 01 00 00 
   436)     89012.695 1  Rx        001B -  8    00 03 E8 00 45 51 8B 88 
   437)     89015.212 1  Rx        002A -  8    88 00 03 E8 00 01 00 00 
   438)     89017.729 1  Rx        002B -  8    00 03 E8 00 45 51 8B 88 
   439)     89020.204 1  Rx        001A -  8    89 00 03 E8 00 01 00 00 
   440)     89022.721 1  Rx        001B -  8    00 03 E8 00 DE F4 C7 E7 
   441)     89026.091 1  Rx        002A -  8    89 00 03 E8 00 01 00 00 
   442)     89027.713 1  Rx        002B -  8    00 03 E8 00 DE F4 C7 E7 
   443)     89030.230 1  Rx        001A -  8    8A 00 03 E8 00 01 00 00 
   444)     89033.216 1  Rx        001B -  8    00 03 E8 00 A9 6A 15 17 
   445)     89035.221 1  Rx        002A -  8    8A 00 03 E8 00 01 00 00 
   446)     89037.696 1  Rx        002B -  8    00 03 E8 00 A9 6A 15 17 
   447)     89040.213 1  Rx        001A -  8    8B 00 03 E8 00 01 00 00 
   448)     89042.687 1  Rx        001B -  8    00 03 E8 00 32 CF 59 78 
   449)     89045.204 1  Rx        002A -  8    8B 00 03 E8 00 01 00 00 
   450)     89047.722 1  Rx        002B -  8    00 03 E8 00 32 CF 59 78 
   451)     89050.196 1  Rx        001A -  8    8C 00 03 E8 00 01 00 00 
   452)     89052.713 1  Rx        001B -  8    00 03 E8 00 46 57 B0 F7 
   453)     89055.230 1  Rx        002A -  8    8C 00 03 E8 00 01 00 00 
   454)     89058.985 1  Rx        002B -  8    00 03 E8 00 46 57 B0 F7 
   455)     89060.222 1  Rx        001A -  8    8D 00 03 E8 00 01 00 00 
   456)     89062.696 1  Rx        001B -  8    00 03 E8 00 DD F2 FC 98 
   457)     89065.213 1  Rx        002A -  8    8D 00 03 E8 00 01 00 00 
   458)     89067.731 1  Rx        002B -  8    00 03 E8 00 DD F2 FC 98 
   459)     89070.205 1  Rx        001A -  8    8E 00 03 E8 00 01 00 00 
   460)     89072.679 1  Rx        001B -  8    00 03 E8 00 AA 6C 2E 68 
   461)     89075.197 1  Rx        002A -  8    8E 00 03 E8 00 01 00 00 
   462)     89077.714 1  Rx        002B -  8    00 03 E8 00 AA 6C 2E 68 
   463)     89080.188 1  Rx        001A -  8    8F 00 03 E8 00 01 00 00 
   464)     89082.705 1  Rx        001B -  8    00 03 E8 00 31 C9 62 07 
   465)     89085.222 1  Rx        002A -  8    8F 00 03 E8 00 01 00 00 
   466)     89087.697 1  Rx        002B -  8    00 03 E8 00 31 C9 62 07 
   467)     89090.214 1  Rx        001A -  8    90 00 03 E8 00 01 00 00 
   468)     89092.688 1  Rx        001B -  8    00 03 E8 00 4F 45 10 8A 
   469)     89095.205 1  Rx        002A -  8    90 00 03 E8 00 01 00 00 
   470)     89097.723 1  Rx        002B -  8    00 03 E8 00 4F 45 10 8A 
   471)     89100.197 1  Rx        001A -  8    91 00 03 E8 00 01 00 00 
   472)     89102.714 1  Rx        001B -  8    00 03 E8 00 D4 E0 5C E5 
   473)     89105.189 1  Rx        002A -  8    91 00 03 E8 00 01 00 00 
   474)     89107.706 1  Rx        002B -  8    00 03 E8 00 D4 E0 5C E5 
   475)     89110.223 1  Rx        001A -  8    92 00 03 E8 00 01 00 00 
   476)     89112.697 1  Rx        001B -  8    00 03 E8 00 A3 7E 8E 15 
   477)     89115.214 1  Rx        002A -  8    92 00 03 E8 00 01 00 00 
   478)     89117.689 1  Rx        002B -  8    00 03 E8 00 A3 7E 8E 15 
   479)     89120.206 1  Rx        001A -  8    93 00 03 E8 00 01 00 00 
   480)     89122.680 1  Rx        001B -  8    00 03 E8 00 38 DB C2 7A 
   481)     89125.145 1  Rx        002A -  8    93 00 03 E8 00 01 00 00 
   482)     89127.662 1  Rx        002B -  8    00 03 E8 00 38 DB C2 7A 
   483)     89130.136 1  Rx        001A -  8    94 00 03 E8 00 01 00 00 
   484)     89132.653 1  Rx        001B -  8    00 03 E8 00 4C 43 2B F5 
   485)     89135.170 1  Rx        002A -  8    94 00 03 E8 00 01 00 00 
   486)     89137.645 1  Rx        002B -  8    00 03 E8 00 4C 43 2B F5 
   487)     89140.162 1  Rx        001A -  8    95 00 03 E8 00 01 00 00 
   488)     89142.636 1  Rx        001B -  8    00 03 E8 00 D7 E6 67 9A 
   489)     89145.154 1  Rx        002A -  8    95 00 03 E8 00 01 00 00 
   490)     89147.671 1  Rx        002B -  8    00 03 E8 00 D7 E6 67 9A 
   491)     89150.145 1  Rx        001A -  8    96 00 03 E8 00 01 00 00 
   492)     89152.662 1  Rx        001B -  8    00 03 E8 00 A0 78 B5 6A 
   493)     89155.179 1  Rx        002A -  8    96 00 03 E8 00 01 00 00 
   494)     89157.654 1  Rx        002B -  8    00 03 E8 00 A0 78 B5 6A 
   495)     89160.128 1  Rx        001A -  8    97 00 03 E8 00 01 00 00 
   496)     89162.645 1  Rx        001B -  8    00 03 E8 00 3B DD F9 05 
   497)     89165.162 1  Rx        002A -  8    97 00 03 E8 00 01 00 00 
   498)     89167.637 1  Rx        002B -  8    00 03 E8 00 3B DD F9 05 
   499)     89170.154 1  Rx        001A -  8    98 00 03 E8 00 01 00 00 
   500)     89172.629 1  Rx        001B -  8    00 03 E8 00 49 49 66 74 
   501)     89175.146 1  Rx        002A -  8    98 00 03 E8 00 01 00 00 
   502)     89177.663 1  Rx        002B -  8    00 03 E8 00 49 49 66 74 
   503)     89180.137 1  Rx        001A -  8    99 00 03 E8 00 01 00 00 
   504)     89182.654 1  Rx        001B -  8    00 03 E8 00 D2 EC 2A 1B 
   505)     89185.129 1  Rx        002A -  8    99 00 03 E8 00 01 00 00 
   506)     89187.646 1  Rx        002B -  8    00 03 E8 00 D2 EC 2A 1B 
   507)     89190.163 1  Rx        001A -  8    9A 00 03 E8 00 01 00 00 
   508)     89192.637 1  Rx        001B -  8    00 03 E8 00 A5 72 F8 EB 
   509)     89195.155 1  Rx        002A -  8    9A 00 03 E8 00 01 00 00 
   510)     89197.629 1  Rx        002B -  8    00 03 E8 00 A5 72 F8 EB 
   511)     89200.957 1  Rx        001A -  8    9B 00 03 E8 00 01 00 00 
   512)     89202.663 1  Rx        001B -  8    00 03 E8 00 3E D7 B4 84 
   513)     89205.138 1  Rx        002A -  8    9B 00 03 E8 00 01 00 00 
   514)     89207.655 1  Rx        002B -  8    00 03 E8 00 3E D7 B4 84 
   515)     89210.129 1  Rx        001A -  8    9C 00 03 E8 00 01 00 00 
   516)     89212.646 1  Rx        001B -  8    00 03 E8 00 4A 4F 5D 0B 
   517)     89215.164 1  Rx        002A -  8    9C 00 03 E8 00 01 00 00 
   518)     89217.638 1  Rx        002B -  8    00 03 E8 00 4A 4F 5D 0B 
   519)     89220.155 1  Rx        001A -  8    9D 00 03 E8 00 01 00 00 
   520)     89222.630 1  Rx        001B -  8    00 03 E8 00 D1 EA 11 64 
   521)     89225.147 1  Rx        002A -  8    9D 00 03 E8 00 01 00 00 
   522)     89227.621 1  Rx        002B -  8    00 03 E8 00 D1 EA 11 64 
   523)     89230.138 1  Rx        001A -  8    9E 00 03 E8 00 01 00 00 
   524)     89232.655 1  Rx        001B -  8    00 03 E8 00 A6 74 C3 94 
   525)     89235.130 1  Rx        002A -  8    9E 00 03 E8 00 01 00 00 
   526)     89237.647 1  Rx        002B -  8    00 03 E8 00 A6 74 C3 94 
   527)     89240.164 1  Rx        001A -  8    9F 00 03 E8 00 01 00 00 
   528)     89242.638 1  Rx        001B -  8    00 03 E8 00 3D D1 8F FB 
   529)     89245.156 1  Rx        002A -  8    9F 00 03 E8 00 01 00 00 
   530)     89247.630 1  Rx        002B -  8    00 03 E8 00 3D D1 8F FB 
   531)     89250.958 1  Rx        001A -  8    A0 00 03 E8 00 01 00 00 
   532)     89252.622 1  Rx        001B -  8    00 03 E8 00 5B 6C 26 8E 
   533)     89255.139 1  Rx        002A -  8    A0 00 03 E8 00 01 00 00 
   534)     89257.656 1  Rx        002B -  8    00 03 E8 00 5B 6C 26 8E 
   535)     89260.130 1  Rx        001A -  8    A1 00 03 E8 00 01 00 00 
   536)     89262.647 1  Rx        001B -  8    00 03 E8 00 C0 C9 6A E1 
   537)     89265.165 1  Rx        002A -  8    A1 00 03 E8 00 01 00 00 
   538)     89267.639 1  Rx        002B -  8    00 03 E8 00 C0 C9 6A E1 
   539)     89270.156 1  Rx        001A -  8    A2 00 03 E8 00 01 00 00 
   540)     89272.631 1  Rx        001B -  8    00 03 E8 00 B7 57 B8 11 
   541)     89275.532 1  Rx        002A -  8    A2 00 03 E8 00 01 00 00 
   542)     89277.665 1  Rx        002B -  8    00 03 E8 00 B7 57 B8 11 
   543)     89280.139 1  Rx        001A -  8    A3 00 03 E8 00 01 00 00 
   544)     89283.126 1  Rx        001B -  8    00 03 E8 00 2C F2 F4 7E 
   545)     89285.131 1  Rx        002A -  8    A3 00 03 E8 00 01 00 00 
   546)     89287.648 1  Rx        002B -  8    00 03 E8 00 2C F2 F4 7E 
   547)     89290.165 1  Rx        001A -  8    A4 00 03 E8 00 01 00 00 
   548)     89292.640 1  Rx        001B -  8    00 03 E8 00 58 6A 1D F1 
   549)     89295.157 1  Rx        002A -  8    A4 00 03 E8 00 01 00 00 
   550)     89297.631 1  Rx        002B -  8    00 03 E8 00 58 6A 1D F1 
   551)     89300.148 1  Rx        001A -  8    A5 00 03 E8 00 01 00 00 
   552)     89302.623 1  Rx        001B -  8    00 03 E8 00 C3 CF 51 9E 
   553)     89305.140 1  Rx        002A -  8    A5 00 03 E8 00 01 00 00 
   554)     89308.126 1  Rx        002B -  8    00 03 E8 00 C3 CF 51 9E 
   555)     89310.131 1  Rx        001A -  8    A6 00 03 E8 00 01 00 00 
   556)     89312.648 1  Rx        001B -  8    00 03 E8 00 B4 51 83 6E 
   557)     89315.166 1  Rx        002A -  8    A6 00 03 E8 00 01 00 00 
   558)     89317.640 1  Rx        002B -  8    00 03 E8 00 B4 51 83 6E 
   559)     89320.157 1  Rx        001A -  8    A7 00 03 E8 00 01 00 00 
   560)     89322.632 1  Rx        001B -  8    00 03 E8 00 2F F4 CF 01 
   561)     89325.149 1  Rx        002A -  8    A7 00 03 E8 00 01 00 00 
   562)     89327.666 1  Rx        002B -  8    00 03 E8 00 2F F4 CF 01 
   563)     89330.140 1  Rx        001A -  8    A8 00 03 E8 00 01 00 00 
   564)     89332.657 1  Rx        001B -  8    00 03 E8 00 5D 60 50 70 
   565)     89335.132 1  Rx        002A -  8    A8 00 03 E8 00 01 00 00 
   566)     89337.649 1  Rx        002B -  8    00 03 E8 00 5D 60 50 70 
   567)     89340.123 1  Rx        001A -  8    A9 00 03 E8 00 01 00 00 
   568)     89342.641 1  Rx        001B -  8    00 03 E8 00 C6 C5 1C 1F 
   569)     89345.158 1  Rx        002A -  8    A9 00 03 E8 00 01 00 00 
   570)     89347.632 1  Rx        002B -  8    00 03 E8 00 C6 C5 1C 1F 
   571)     89350.149 1  Rx        001A -  8    AA 00 03 E8 00 01 00 00 
   572)     89352.624 1  Rx        001B -  8    00 03 E8 00 B1 5B CE EF 
   573)     89355.141 1  Rx        002A -  8    AA 00 03 E8 00 01 00 00 
   574)     89357.615 1  Rx        002B -  8    00 03 E8 00 B1 5B CE EF 
   575)     89360.132 1  Rx        001A -  8    AB 00 03 E8 00 01 00 00 
   576)     89362.650 1  Rx        001B -  8    00 03 E8 00 2A FE 82 80 
   577)     89365.124 1  Rx        002A -  8    AB 00 03 E8 00 01 00 00 
   578)     89367.641 1  Rx        002B -  8    00 03 E8 00 2A FE 82 80 
   579)     89370.158 1  Rx        001A -  8    AC 00 03 E8 00 01 00 00 
   580)     89372.633 1  Rx        001B -  8    00 03 E8 00 5E 66 6B 0F 
   581)     89375.662 1  Rx        002A -  8    AC 00 03 E8 00 01 00 00 
   582)     89377.624 1  Rx        002B -  8    00 03 E8 00 5E 66 6B 0F 
   583)     89380.141 1  Rx        001A -  8    AD 00 03 E8 00 01 00 00 
   584)     89382.658 1  Rx        001B -  8    00 03 E8 00 C5 C3 27 60 
   585)     89385.133 1  Rx        002A -  8    AD 00 03 E8 00 01 00 00 
   586)     89387.650 1  Rx        002B -  8    00 03 E8 00 C5 C3 27 60 
   587)     89390.124 1  Rx        001A -  8    AE 00 03 E8 00 01 00 00 
   588)     89392.642 1  Rx        001B -  8    00 03 E8 00 B2 5D F5 90 
   589)     89395.159 1  Rx        002A -  8    AE 00 03 E8 00 01 00 00 
   590)     89397.633 1  Rx        002B -  8    00 03 E8 00 B2 5D F5 90 
   591)     89400.150 1  Rx        001A -  8    AF 00 03 E8 00 01 00 00 
   592)     89402.625 1  Rx        001B -  8    00 03 E8 00 29 F8 B9 FF 
   593)     89405.142 1  Rx        002A -  8    AF 00 03 E8 00 01 00 00 
   594)     89407.659 1  Rx        002B -  8    00 03 E8 00 29 F8 B9 FF 
   595)     89410.133 1  Rx        001A -  8    B0 00 03 E8 00 01 00 00 
   596)     89412.651 1  Rx        001B -  8    00 03 E8 00 57 74 CB 72 
   597)     89415.125 1  Rx        002A -  8    B0 00 03 E8 00 01 00 00 
   598)     89417.642 1  Rx        002B -  8    00 03 E8 00 57 74 CB 72 
   599)     89420.117 1  Rx        001A -  8    B1 00 07 D0 00 02 00 00 
   600)     89422.634 1  Rx        001B -  8    00 07 D0 00 71 AD 4B 17 
   601)     89425.151 1  Rx        002A -  8    B1 00 07 D0 00 02 00 00 
   602)     89427.625 1  Rx        002B -  8    00 07 D0 00 71 AD 4B 17 
   603)     89430.142 1  Rx        001A -  8    B2 00 07 D0 00 02 00 00 
   604)     89432.659 1  Rx        001B -  8    00 07 D0 00 06 33 99 E7 
   605)     89435.134 1  Rx        002A -  8    B2 00 07 D0 00 02 00 00 
   606)     89437.651 1  Rx        002B -  8    00 07 D0 00 06 33 99 E7 
   607)     89440.126 1  Rx        001A -  8    B3 00 07 D0 00 02 00 00 
   608)     89442.643 1  Rx        001B -  8    00 07 D0 00 9D 96 D5 88 
   609)     89445.117 1  Rx        002A -  8    B3 00 07 D0 00 02 00 00 
   610)     89447.634 1  Rx        002B -  8    00 07 D0 00 9D 96 D5 88 
   611)     89450.151 1  Rx        001A -  8    B4 00 07 D0 00 02 00 00 
   612)     89452.626 1  Rx        001B -  8    00 07 D0 00 E9 0E 3C 07 
   613)     89455.143 1  Rx        002A -  8    B4 00 07 D0 00 02 00 00 
   614)     89457.617 1  Rx        002B -  8    00 07 D0 00 E9 0E 3C 07 
   615)     89460.134 1  Rx        001A -  8    B5 00 07 D0 00 02 00 00 
   616)     89462.652 1  Rx        001B -  8    00 07 D0 00 72 AB 70 68 
   617)     89465.126 1  Rx        002A -  8    B5 00 07 D0 00 02 00 00 
   618)     89467.643 1  Rx        002B -  8    00 07 D0 00 72 AB 70 68 
   619)     89470.118 1  Rx        001A -  8    B6 00 07 D0 00 02 00 00 
   620)     89472.635 1  Rx        001B -  8    00 07 D0 00 05 35 A2 98 
   621)     89475.109 1  Rx        002A -  8    B6 00 07 D0 00 02 00 00 
   622)     89477.626 1  Rx        002B -  8    00 07 D0 00 05 35 A2 98 
   623)     89480.143 1  Rx        001A -  8    B7 00 07 D0 00 02 00 00 
   624)     89482.618 1  Rx        001B -  8    00 07 D0 00 9E 90 EE F7 
   625)     89485.135 1  Rx        002A -  8    B7 00 07 D0 00 02 00 00 
   626)     89487.652 1  Rx        002B -  8    00 07 D0 00 9E 90 EE F7 
   627)     89490.127 1  Rx        001A -  8    B8 00 07 D0 00 02 00 00 
   628)     89492.644 1  Rx        001B -  8    00 07 D0 00 EC 04 71 86 
   629)     89495.118 1  Rx        002A -  8    B8 00 07 D0 00 02 00 00 
   630)     89497.635 1  Rx        002B -  8    00 07 D0 00 EC 04 71 86 
   631)     89500.110 1  Rx        001A -  8    B9 00 07 D0 00 02 00 00 
   632)     89502.627 1  Rx        001B -  8    00 07 D0 00 77 A1 3D E9 
   633)     89505.144 1  Rx        002A -  8    B9 00 07 D0 00 02 00 00 
   634)     89507.618 1  Rx        002B -  8    00 07 D0 00 77 A1 3D E9 
   635)     89510.135 1  Rx        001A -  8    BA 00 07 D0 00 02 00 00 
   636)     89512.653 1  Rx        001B -  8    00 07 D0 00 00 3F EF 19 
   637)     89515.127 1  Rx        002A -  8    BA 00 07 D0 00 02 00 00 
   638)     89517.644 1  Rx        002B -  8    00 07 D0 00 00 3F EF 19 
   639)     89520.119 1  Rx        001A -  8    BB 00 07 D0 00 02 00 00 
   640)     89522.636 1  Rx        001B -  8    00 07 D0 00 9B 9A A3 76 
   641)     89525.153 1  Rx        002A -  8    BB 00 07 D0 00 02 00 00 
   642)     89527.627 1  Rx        002B -  8    00 07 D0 00 9B 9A A3 76 
   643)     89530.144 1  Rx        001A -  8    BC 00 07 D0 00 02 00 00 
   644)     89533.643 1  Rx        001B -  8    00 07 D0 00 EF 02 4A F9 
   645)     89535.136 1  Rx        002A -  8    BC 00 07 D0 00 02 00 00 
   646)     89537.610 1  Rx        002B -  8    00 07 D0 00 EF 02 4A F9 
   647)     89540.128 1  Rx        001A -  8    BD 00 07 D0 00 02 00 00 
   648)     89542.645 1  Rx        001B -  8    00 07 D0 00 74 A7 06 96 
   649)     89545.119 1  Rx        002A -  8    BD 00 07 D0 00 02 00 00 
   650)     89547.636 1  Rx        002B -  8    00 07 D0 00 74 A7 06 96 
   651)     89550.665 1  Rx        001A -  8    BE 00 07 D0 00 02 00 00 
   652)     89552.628 1  Rx        001B -  8    00 07 D0 00 03 39 D4 66 
   653)     89555.145 1  Rx        002A -  8    BE 00 07 D0 00 02 00 00 
   654)     89557.619 1  Rx        002B -  8    00 07 D0 00 03 39 D4 66 
   655)     89560.137 1  Rx        001A -  8    BF 00 07 D0 00 02 00 00 
   656)     89562.654 1  Rx        001B -  8    00 07 D0 00 98 9C 98 09 
   657)     89565.128 1  Rx        002A -  8    BF 00 07 D0 00 02 00 00 
   658)     89567.645 1  Rx        002B -  8    00 07 D0 00 98 9C 98 09 
   659)     89570.120 1  Rx        001A -  8    C0 00 07 D0 00 02 00 00 
   660)     89572.637 1  Rx        001B -  8    00 07 D0 00 CE 42 86 8C 
   661)     89575.111 1  Rx        002A -  8    C0 00 07 D0 00 02 00 00 
   662)     89577.628 1  Rx        002B -  8    00 07 D0 00 CE 42 86 8C 
   663)     89580.145 1  Rx        001A -  8    C1 00 07 D0 00 02 00 00 
   664)     89582.620 1  Rx        001B -  8    00 07 D0 00 55 E7 CA E3 
   665)     89585.137 1  Rx        002A -  8    C1 00 07 D0 00 02 00 00 
   666)     89587.654 1  Rx        002B -  8    00 07 D0 00 55 E7 CA E3 
   667)     89590.129 1  Rx        001A -  8    C2 00 07 D0 00 02 00 00 
   668)     89592.646 1  Rx        001B -  8    00 07 D0 00 22 79 18 13 
   669)     89595.120 1  Rx        002A -  8    C2 00 07 D0 00 02 00 00 
   670)     89597.637 1  Rx        002B -  8    00 07 D0 00 22 79 18 13 
   671)     89600.624 1  Rx        001A -  8    C3 00 07 D0 00 02 00 00 
   672)     89602.629 1  Rx        001B -  8    00 07 D0 00 B9 DC 54 7C 
   673)     89605.146 1  Rx        002A -  8    C3 00 07 D0 00 02 00 00 
   674)     89607.620 1  Rx        002B -  8    00 07 D0 00 B9 DC 54 7C 
   675)     89610.138 1  Rx        001A -  8    C4 00 07 D0 00 02 00 00 
   676)     89612.612 1  Rx        001B -  8    00 07 D0 00 CD 44 BD F3 
   677)     89615.129 1  Rx        002A -  8    C4 00 07 D0 00 02 00 00 
   678)     89617.646 1  Rx        002B -  8    00 07 D0 00 CD 44 BD F3 
   679)     89620.121 1  Rx        001A -  8    C5 00 07 D0 00 02 00 00 
   680)     89622.638 1  Rx        001B -  8    00 07 D0 00 56 E1 F1 9C 
   681)     89625.112 1  Rx        002A -  8    C5 00 07 D0 00 02 00 00 
   682)     89627.629 1  Rx        002B -  8    00 07 D0 00 56 E1 F1 9C 
   683)     89630.147 1  Rx        001A -  8    C6 00 07 D0 00 02 00 00 
   684)     89632.621 1  Rx        001B -  8    00 07 D0 00 21 7F 23 6C 
   685)     89635.138 1  Rx        002A -  8    C6 00 07 D0 00 02 00 00 
   686)     89637.613 1  Rx        002B -  8    00 07 D0 00 21 7F 23 6C 
   687)     89640.130 1  Rx        001A -  8    C7 00 07 D0 00 02 00 00 
   688)     89642.604 1  Rx        001B -  8    00 07 D0 00 BA DA 6F 03 
   689)     89645.121 1  Rx        002A -  8    C7 00 07 D0 00 02 00 00 
   690)     89647.638 1  Rx        002B -  8    00 07 D0 00 BA DA 6F 03 
   691)     89650.113 1  Rx        001A -  8    C8 00 07 D0 00 02 00 00 
   692)     89652.630 1  Rx        001B -  8    00 07 D0 00 C8 4E F0 72 
   693)     89655.147 1  Rx        002A -  8    C8 00 07 D0 00 02 00 00 
   694)     89657.621 1  Rx        002B -  8    00 07 D0 00 C8 4E F0 72 
   695)     89660.139 1  Rx        001A -  8    C9 00 07 D0 00 02 00 00 
   696)     89662.613 1  Rx        001B -  8    00 07 D0 00 53 EB BC 1D 
   697)     89665.130 1  Rx        002A -  8    C9 00 07 D0 00 02 00 00 
   698)     89667.647 1  Rx        002B -  8    00 07 D0 00 53 EB BC 1D 
   699)     89670.122 1  Rx        001A -  8    CA 00 07 D0 00 02 00 00 
   700)     89672.852 1  Rx        001B -  8    00 07 D0 00 24 75 6E ED 
   701)     89675.113 1  Rx        002A -  8    CA 00 07 D0 00 02 00 00 
   702)     89677.630 1  Rx        002B -  8    00 07 D0 00 24 75 6E ED 
   703)     89680.105 1  Rx        001A -  8    CB 00 07 D0 00 02 00 00 
   704)     89682.622 1  Rx        001B -  8    00 07 D0 00 BF D0 22 82 
   705)     89685.139 1  Rx        002A -  8    CB 00 07 D0 00 02 00 00 
   706)     89687.614 1  Rx        002B -  8    00 07 D0 00 BF D0 22 82 
   707)     89690.131 1  Rx        001A -  8    CC 00 07 D0 00 02 00 00 
   708)     89692.605 1  Rx        001B -  8    00 07 D0 00 CB 48 CB 0D 
   709)     89695.122 1  Rx        002A -  8    CC 00 07 D0 00 02 00 00 
   710)     89697.639 1  Rx        002B -  8    00 07 D0 00 CB 48 CB 0D 
   711)     89700.114 1  Rx        001A -  8    CD 00 07 D0 00 02 00 00 
   712)     89702.631 1  Rx        001B -  8    00 07 D0 00 50 ED 87 62 
   713)     89705.105 1  Rx        002A -  8    CD 00 07 D0 00 02 00 00 
   714)     89707.623 1  Rx        002B -  8    00 07 D0 00 50 ED 87 62 
   715)     89710.097 1  Rx        001A -  8    CE 00 07 D0 00 02 00 00 
   716)     89712.614 1  Rx        001B -  8    00 07 D0 00 27 73 55 92 
   717)     89715.131 1  Rx        002A -  8    CE 00 07 D0 00 02 00 00 
   718)     89717.606 1  Rx        002B -  8    00 07 D0 00 27 73 55 92 
   719)     89720.123 1  Rx        001A -  8    CF 00 07 D0 00 02 00 00 
   720)     89722.640 1  Rx        001B -  8    00 07 D0 00 BC D6 19 FD 
   721)     89725.114 1  Rx        002A -  8    CF 00 07 D0 00 02 00 00 
   722)     89727.631 1  Rx        002B -  8    00 07 D0 00 BC D6 19 FD 
   723)     89730.106 1  Rx        001A -  8    D0 00 07 D0 00 02 00 00 
   724)     89732.623 1  Rx        001B -  8    00 07 D0 00 C2 5A 6B 70 
   725)     89735.140 1  Rx        002A -  8    D0 00 07 D0 00 02 00 00 
   726)     89737.615 1  Rx        002B -  8    00 07 D0 00 C2 5A 6B 70 
   727)     89740.132 1  Rx        001A -  8    D1 00 07 D0 00 02 00 00 
   728)     89742.606 1  Rx        001B -  8    00 07 D0 00 59 FF 27 1F 
   729)     89745.123 1  Rx        002A -  8    D1 00 07 D0 00 02 00 00 
   730)     89747.640 1  Rx        002B -  8    00 07 D0 00 59 FF 27 1F 
   731)     89751.139 1  Rx        001A -  8    D2 00 07 D0 00 02 00 00 
   732)     89752.632 1  Rx        001B -  8    00 07 D0 00 2E 61 F5 EF 
   733)     89755.106 1  Rx        002A -  8    D2 00 07 D0 00 02 00 00 
   734)     89757.624 1  Rx        002B -  8    00 07 D0 00 2E 61 F5 EF 
   735)     89760.141 1  Rx        001A -  8    D3 00 07 D0 00 02 00 00 
   736)     89762.615 1  Rx        001B -  8    00 07 D0 00 B5 C4 B9 80 
   737)     89765.132 1  Rx        002A -  8    D3 00 07 D0 00 02 00 00 
   738)     89767.607 1  Rx        002B -  8    00 07 D0 00 B5 C4 B9 80 
   739)     89770.124 1  Rx        001A -  8    D4 00 07 D0 00 02 00 00 
   740)     89772.641 1  Rx        001B -  8    00 07 D0 00 C1 5C 50 0F 
   741)     89775.115 1  Rx        002A -  8    D4 00 07 D0 00 02 00 00 
   742)     89777.633 1  Rx        002B -  8    00 07 D0 00 C1 5C 50 0F 
   743)     89780.107 1  Rx        001A -  8    D5 00 07 D0 00 02 00 00 
   744)     89782.624 1  Rx        001B -  8    00 07 D0 00 5A F9 1C 60 
   745)     89785.099 1  Rx        002A -  8    D5 00 07 D0 00 02 00 00 
   746)     89787.616 1  Rx        002B -  8    00 07 D0 00 5A F9 1C 60 
   747)     89790.133 1  Rx        001A -  8    D6 00 07 D0 00 02 00 00 
   748)     89792.607 1  Rx        001B -  8    00 07 D0 00 2D 67 CE 90 
   749)     89795.124 1  Rx        002A -  8    D6 00 07 D0 00 02 00 00 
   750)     89797.599 1  Rx        002B -  8    00 07 D0 00 2D 67 CE 90 
   751)     89800.116 1  Rx        001A -  8    D7 00 07 D0 00 02 00 00 
   752)     89802.633 1  Rx        001B -  8    00 07 D0 00 B6 C2 82 FF 
   753)     89805.107 1  Rx        002A -  8    D7 00 07 D0 00 02 00 00 
   754)     89807.625 1  Rx        002B -  8    00 07 D0 00 B6 C2 82 FF 
   755)     89810.142 1  Rx        001A -  8    D8 00 07 D0 00 02 00 00 
   756)     89812.616 1  Rx        001B -  8    00 07 D0 00 C4 56 1D 8E 
   757)     89815.133 1  Rx        002A -  8    D8 00 07 D0 00 02 00 00 
   758)     89817.608 1  Rx        002B -  8    00 07 D0 00 C4 56 1D 8E 
   759)     89820.125 1  Rx        001A -  8    D9 00 07 D0 00 02 00 00 
   760)     89822.642 1  Rx        001B -  8    00 07 D0 00 5F F3 51 E1 
   761)     89825.116 1  Rx        002A -  8    D9 00 07 D0 00 02 00 00 
   762)     89827.634 1  Rx        002B -  8    00 07 D0 00 5F F3 51 E1 
   763)     89830.108 1  Rx        001A -  8    DA 00 07 D0 00 02 00 00 
   764)     89832.881 1  Rx        001B -  8    00 07 D0 00 28 6D 83 11 
   765)     89835.100 1  Rx        002A -  8    DA 00 07 D0 00 02 00 00 
   766)     89837.617 1  Rx        002B -  8    00 07 D0 00 28 6D 83 11 
   767)     89840.134 1  Rx        001A -  8    DB 00 07 D0 00 02 00 00 
   768)     89842.608 1  Rx        001B -  8    00 07 D0 00 B3 C8 CF 7E 
   769)     89845.125 1  Rx        002A -  8    DB 00 07 D0 00 02 00 00 
   770)     89847.600 1  Rx        002B -  8    00 07 D0 00 B3 C8 CF 7E 
   771)     89850.117 1  Rx        001A -  8    DC 00 07 D0 00 02 00 00 
   772)     89852.634 1  Rx        001B -  8    00 07 D0 00 C7 50 26 F1 
   773)     89855.109 1  Rx        002A -  8    DC 00 07 D0 00 02 00 00 
   774)     89857.626 1  Rx        002B -  8    00 07 D0 00 C7 50 26 F1 
   775)     89860.100 1  Rx        001A -  8    DD 00 07 D0 00 02 00 00 
   776)     89862.617 1  Rx        001B -  8    00 07 D0 00 5C F5 6A 9E 
   777)     89865.134 1  Rx        002A -  8    DD 00 07 D0 00 02 00 00 
   778)     89867.609 1  Rx        002B -  8    00 07 D0 00 5C F5 6A 9E 
   779)     89870.126 1  Rx        001A -  8    DE 00 07 D0 00 02 00 00 
   780)     89872.600 1  Rx        001B -  8    00 07 D0 00 2B 6B B8 6E 
   781)     89876.141 1  Rx        002A -  8    DE 00 07 D0 00 02 00 00 
   782)     89877.592 1  Rx        002B -  8    00 07 D0 00 2B 6B B8 6E 
   783)     89880.109 1  Rx        001A -  8    DF 00 07 D0 00 02 00 00 
   784)     89882.626 1  Rx        001B -  8    00 07 D0 00 B0 CE F4 01 
   785)     89885.101 1  Rx        002A -  8    DF 00 07 D0 00 02 00 00 
   786)     89887.618 1  Rx        002B -  8    00 07 D0 00 B0 CE F4 01 
   787)     89890.135 1  Rx        001A -  8    E0 00 07 D0 00 02 00 00 
   788)     89892.609 1  Rx        001B -  8    00 07 D0 00 D6 73 5D 74 
   789)     89895.126 1  Rx        002A -  8    E0 00 07 D0 00 02 00 00 
   790)     89897.601 1  Rx        002B -  8    00 07 D0 00 D6 73 5D 74 
   791)     89900.118 1  Rx        001A -  8    E1 00 07 D0 00 02 00 00 
   792)     89902.592 1  Rx        001B -  8    00 07 D0 00 4D D6 11 1B 
   793)     89905.110 1  Rx        002A -  8    E1 00 07 D0 00 02 00 00 
   794)     89907.627 1  Rx        002B -  8    00 07 D0 00 4D D6 11 1B 
   795)     89910.101 1  Rx        001A -  8    E2 00 07 D0 00 02 00 00 
   796)     89912.618 1  Rx        001B -  8    00 07 D0 00 3A 48 C3 EB 
   797)     89915.093 1  Rx        002A -  8    E2 00 07 D0 00 02 00 00 
   798)     89917.610 1  Rx        002B -  8    00 07 D0 00 3A 48 C3 EB 
   799)     89920.127 1  Rx        001A -  8    E3 00 07 D0 00 02 00 00 
   800)     89922.601 1  Rx        001B -  8    00 07 D0 00 A1 ED 8F 84 
   801)     89925.118 1  Rx        002A -  8    E3 00 07 D0 00 02 00 00 
   802)     89927.636 1  Rx        002B -  8    00 07 D0 00 A1 ED 8F 84 
   803)     89930.110 1  Rx        001A -  8    E4 00 07 D0 00 02 00 00 
   804)     89932.627 1  Rx        001B -  8    00 07 D0 00 D5 75 66 0B 
   805)     89935.102 1  Rx        002A -  8    E4 00 07 D0 00 02 00 00 
   806)     89937.619 1  Rx        002B -  8    00 07 D0 00 D5 75 66 0B 
   807)     89940.093 1  Rx        001A -  8    E5 00 07 D0 00 02 00 00 
   808)     89942.610 1  Rx        001B -  8    00 07 D0 00 4E D0 2A 64 
   809)     89945.127 1  Rx        002A -  8    E5 00 07 D0 00 02 00 00 
   810)     89947.602 1  Rx        002B -  8    00 07 D0 00 4E D0 2A 64 
   811)     89950.119 1  Rx        001A -  8    E6 00 07 D0 00 02 00 00 
   812)     89952.593 1  Rx        001B -  8    00 07 D0 00 39 4E F8 94 
   813)     89955.111 1  Rx        002A -  8    E6 00 07 D0 00 02 00 00 
   814)     89957.628 1  Rx        002B -  8    00 07 D0 00 39 4E F8 94 
   815)     89960.102 1  Rx        001A -  8    E7 00 07 D0 00 02 00 00 
   816)     89962.619 1  Rx        001B -  8    00 07 D0 00 A2 EB B4 FB 
   817)     89965.094 1  Rx        002A -  8    E7 00 07 D0 00 02 00 00 
   818)     89967.611 1  Rx        002B -  8    00 07 D0 00 A2 EB B4 FB 
   819)     89970.128 1  Rx        001A -  8    E8 00 07 D0 00 02 00 00 
   820)     89972.602 1  Rx        001B -  8    00 07 D0 00 D0 7F 2B 8A 
   821)     89975.631 1  Rx        002A -  8    E8 00 07 D0 00 02 00 00 
   822)     89977.594 1  Rx        002B -  8    00 07 D0 00 D0 7F 2B 8A 
   823)     89980.111 1  Rx        001A -  8    E9 00 07 D0 00 02 00 00 
   824)     89982.628 1  Rx        001B -  8    00 07 D0 00 4B DA 67 E5 
   825)     89985.103 1  Rx        002A -  8    E9 00 07 D0 00 02 00 00 
   826)     89987.620 1  Rx        002B -  8    00 07 D0 00 4B DA 67 E5 
   827)     89990.094 1  Rx        001A -  8    EA 00 07 D0 00 02 00 00 
   828)     89992.611 1  Rx        001B -  8    00 07 D0 00 3C 44 B5 15 
   829)     89995.086 1  Rx        002A -  8    EA 00 07 D0 00 02 00 00 
   830)     89997.603 1  Rx        002B -  8    00 07 D0 00 3C 44 B5 15 
   831)     90000.632 1  Rx        001A -  8    EB 00 07 D0 00 02 00 00 
   832)     90002.595 1  Rx        001B -  8    00 07 D0 00 A7 E1 F9 7A 
   833)     90005.112 1  Rx        002A -  8    EB 00 07 D0 00 02 00 00 
   834)     90007.629 1  Rx        002B -  8    00 07 D0 00 A7 E1 F9 7A 
   835)     90010.103 1  Rx        001A -  8    EC 00 07 D0 00 02 00 00 
   836)     90012.620 1  Rx        001B -  8    00 07 D0 00 D3 79 10 F5 
   837)     90015.095 1  Rx        002A -  8    EC 00 07 D0 00 02 00 00 
   838)     90017.612 1  Rx        002B -  8    00 07 D0 00 D3 79 10 F5 
   839)     90020.129 1  Rx        001A -  8    ED 00 07 D0 00 02 00 00 
   840)     90022.603 1  Rx        001B -  8    00 07 D0 00 48 DC 5C 9A 
   841)     90026.144 1  Rx        002A -  8    ED 00 07 D0 00 02 00 00 
   842)     90027.595 1  Rx        002B -  8    00 07 D0 00 48 DC 5C 9A 
   843)     90030.112 1  Rx        001A -  8    EE 00 07 D0 00 02 00 00 
   844)     90032.587 1  Rx        001B -  8    00 07 D0 00 3F 42 8E 6A 
   845)     90035.104 1  Rx        002A -  8    EE 00 07 D0 00 02 00 00 
   846)     90037.621 1  Rx        002B -  8    00 07 D0 00 3F 42 8E 6A 
   847)     90040.095 1  Rx        001A -  8    EF 00 07 D0 00 02 00 00 
   848)     90042.612 1  Rx        001B -  8    00 07 D0 00 A4 E7 C2 05 
   849)     90045.087 1  Rx        002A -  8    EF 00 07 D0 00 02 00 00 
   850)     90047.604 1  Rx        002B -  8    00 07 D0 00 A4 E7 C2 05 
   851)     90050.633 1  Rx        001A -  8    F0 00 07 D0 00 02 00 00 
   852)     90052.596 1  Rx        001B -  8    00 07 D0 00 DA 6B B0 88 
   853)     90055.113 1  Rx        002A -  8    F0 00 07 D0 00 02 00 00 
   854)     90059.123 1  Rx        002B -  8    00 07 D0 00 DA 6B B0 88 
   855)     90060.104 1  Rx        001A -  8    F1 00 07 D0 00 02 00 00 
   856)     90062.621 1  Rx        001B -  8    00 07 D0 00 41 CE FC E7 
   857)     90065.096 1  Rx        002A -  8    F1 00 07 D0 00 02 00 00 
   858)     90067.613 1  Rx        002B -  8    00 07 D0 00 41 CE FC E7 
   859)     90070.087 1  Rx        001A -  8    F2 00 07 D0 00 02 00 00 
   860)     90072.604 1  Rx        001B -  8    00 07 D0 00 36 50 2E 17 
   861)     90075.122 1  Rx        002A -  8    F2 00 07 D0 00 02 00 00 
   862)     90077.596 1  Rx        002B -  8    00 07 D0 00 36 50 2E 17 
   863)     90080.113 1  Rx        001A -  8    F3 00 07 D0 00 02 00 00 
   864)     90082.588 1  Rx        001B -  8    00 07 D0 00 AD F5 62 78 
   865)     90085.105 1  Rx        002A -  8    F3 00 07 D0 00 02 00 00 
   866)     90087.622 1  Rx        002B -  8    00 07 D0 00 AD F5 62 78 
   867)     90090.096 1  Rx        001A -  8    F4 00 07 D0 00 02 00 00 
   868)     90092.613 1  Rx        001B -  8    00 07 D0 00 D9 6D 8B F7 
   869)     90095.088 1  Rx        002A -  8    F4 00 07 D0 00 02 00 00 
   870)     90097.605 1  Rx        002B -  8    00 07 D0 00 D9 6D 8B F7 
   871)     90100.122 1  Rx        001A -  8    F5 00 07 D0 00 02 00 00 
   872)     90102.597 1  Rx        001B -  8    00 07 D0 00 42 C8 C7 98 
   873)     90105.114 1  Rx        002A -  8    F5 00 07 D0 00 02 00 00 
   874)     90107.588 1  Rx        002B -  8    00 07 D0 00 42 C8 C7 98 
   875)     90110.105 1  Rx        001A -  8    F6 00 07 D0 00 02 00 00 
   876)     90112.580 1  Rx        001B -  8    00 07 D0 00 35 56 15 68 
   877)     90115.097 1  Rx        002A -  8    F6 00 07 D0 00 02 00 00 
   878)     90117.614 1  Rx        002B -  8    00 07 D0 00 35 56 15 68 
   879)     90120.088 1  Rx        001A -  8    F7 00 07 D0 00 02 00 00 
   880)     90122.606 1  Rx        001B -  8    00 07 D0 00 AE F3 59 07 
   881)     90125.976 1  Rx        002A -  8    F7 00 07 D0 00 02 00 00 
   882)     90127.597 1  Rx        002B -  8    00 07 D0 00 AE F3 59 07 
   883)     90130.114 1  Rx        001A -  8    F8 00 07 D0 00 02 00 00 
   884)     90132.589 1  Rx        001B -  8    00 07 D0 00 DC 67 C6 76 
   885)     90135.106 1  Rx        002A -  8    F8 00 07 D0 00 02 00 00 
   886)     90137.580 1  Rx        002B -  8    00 07 D0 00 DC 67 C6 76 
   887)     90140.097 1  Rx        001A -  8    F9 00 07 D0 00 02 00 00 
   888)     90142.614 1  Rx        001B -  8    00 07 D0 00 47 C2 8A 19 
   889)     90145.089 1  Rx        002A -  8    F9 00 07 D0 00 02 00 00 
   890)     90147.606 1  Rx        002B -  8    00 07 D0 00 47 C2 8A 19 
   891)     90150.080 1  Rx        001A -  8    FA 00 07 D0 00 02 00 00 
   892)     90152.598 1  Rx        001B -  8    00 07 D0 00 30 5C 58 E9 
   893)     90155.115 1  Rx        002A -  8    FA 00 07 D0 00 02 00 00 
   894)     90157.589 1  Rx        002B -  8    00 07 D0 00 30 5C 58 E9 
   895)     90160.106 1  Rx        001A -  8    FB 00 07 D0 00 02 00 00 
   896)     90162.581 1  Rx        001B -  8    00 07 D0 00 AB F9 14 86 
   897)     90165.098 1  Rx        002A -  8    FB 00 07 D0 00 02 00 00 
   898)     90167.615 1  Rx        002B -  8    00 07 D0 00 AB F9 14 86 
   899)     90170.089 1  Rx        001A -  8    FC 00 07 D0 00 02 00 00 
   900)     90172.637 1  Rx        001B -  8    00 07 D0 00 DF 61 FD 09 
   901)     90175.154 1  Rx        002A -  8    FC 00 07 D0 00 02 00 00 
   902)     90177.628 1  Rx        002B -  8    00 07 D0 00 DF 61 FD 09 
   903)     90180.145 1  Rx        001A -  8    FD 00 07 D0 00 02 00 00 
   904)     90182.620 1  Rx        001B -  8    00 07 D0 00 44 C4 B1 66 
   905)     90185.137 1  Rx        002A -  8    FD 00 07 D0 00 02 00 00 
   906)     90187.611 1  Rx        002B -  8    00 07 D0 00 44 C4 B1 66 
   907)     90190.128 1  Rx        001A -  8    FE 00 07 D0 00 02 00 00 
   908)     90192.859 1  Rx        001B -  8    00 07 D0 00 33 5A 63 96 
   909)     90195.120 1  Rx        002A -  8    FE 00 07 D0 00 02 00 00 
   910)     90197.637 1  Rx        002B -  8    00 07 D0 00 33 5A 63 96 
   911)     90200.112 1  Rx        001A -  8    FF 00 07 D0 00 02 00 00 
   912)     90202.629 1  Rx        001B -  8    00 07 D0 00 A8 FF 2F F9 
   913)     90205.146 1  Rx        002A -  8    FF 00 07 D0 00 02 00 00 
   914)     90207.620 1  Rx        002B -  8    00 07 D0 00 A8 FF 2F F9 
   915)     90210.137 1  Rx        001A -  8    00 00 07 D0 00 02 00 00 
   916)     90212.612 1  Rx        001B -  8    00 07 D0 00 9E E6 5E 9C 
   917)     90215.129 1  Rx        002A -  8    00 00 07 D0 00 02 00 00 
   918)     90217.603 1  Rx        002B -  8    00 07 D0 00 9E E6 5E 9C 
   919)     90220.120 1  Rx        001A -  8    01 00 07 D0 00 02 00 00 
   920)     90222.638 1  Rx        001B -  8    00 07 D0 00 05 43 12 F3 
   921)     90225.155 1  Rx        002A -  8    01 00 07 D0 00 02 00 00 
   922)     90227.629 1  Rx        002B -  8    00 07 D0 00 05 43 12 F3 
   923)     90230.146 1  Rx        001A -  8    02 00 07 D0 00 02 00 00 
   924)     90232.621 1  Rx        001B -  8    00 07 D0 00 72 DD C0 03 
   925)     90235.522 1  Rx        002A -  8    02 00 07 D0 00 02 00 00 
   926)     90237.612 1  Rx        002B -  8    00 07 D0 00 72 DD C0 03 
   927)     90240.129 1  Rx        001A -  8    03 00 07 D0 00 02 00 00 
   928)     90242.604 1  Rx        001B -  8    00 07 D0 00 E9 78 8C 6C 
   929)     90245.121 1  Rx        002A -  8    03 00 07 D0 00 02 00 00 
   930)     90247.638 1  Rx        002B -  8    00 07 D0 00 E9 78 8C 6C 
   931)     90250.113 1  Rx        001A -  8    04 00 07 D0 00 02 00 00 
   932)     90252.630 1  Rx        001B -  8    00 07 D0 00 9D E0 65 E3 
   933)     90255.147 1  Rx        002A -  8    04 00 07 D0 00 02 00 00 
   934)     90257.621 1  Rx        002B -  8    00 07 D0 00 9D E0 65 E3 
   935)     90260.138 1  Rx        001A -  8    05 00 07 D0 00 02 00 00 
   936)     90262.613 1  Rx        001B -  8    00 07 D0 00 06 45 29 8C 
   937)     90265.130 1  Rx        002A -  8    05 00 07 D0 00 02 00 00 
   938)     90267.604 1  Rx        002B -  8    00 07 D0 00 06 45 29 8C 
   939)     90270.122 1  Rx        001A -  8    06 00 07 D0 00 02 00 00 
   940)     90272.639 1  Rx        001B -  8    00 07 D0 00 71 DB FB 7C 
   941)     90276.009 1  Rx        002A -  8    06 00 07 D0 00 02 00 00 
   942)     90277.630 1  Rx        002B -  8    00 07 D0 00 71 DB FB 7C 
   943)     90280.105 1  Rx        001A -  8    07 00 07 D0 00 02 00 00 
   944)     90282.622 1  Rx        001B -  8    00 07 D0 00 EA 7E B7 13 
   945)     90285.139 1  Rx        002A -  8    07 00 07 D0 00 02 00 00 
   946)     90287.613 1  Rx        002B -  8    00 07 D0 00 EA 7E B7 13 
   947)     90290.130 1  Rx        001A -  8    08 00 07 D0 00 02 00 00 
   948)     90293.117 1  Rx        001B -  8    00 07 D0 00 98 EA 28 62 
   949)     90295.122 1  Rx        002A -  8    08 00 07 D0 00 02 00 00 
   950)     90297.639 1  Rx        002B -  8    00 07 D0 00 98 EA 28 62 
   951)     90300.626 1  Rx        001A -  8    09 00 07 D0 00 02 00 00 
   952)     90302.631 1  Rx        001B -  8    00 07 D0 00 03 4F 64 0D 
   953)     90305.105 1  Rx        002A -  8    09 00 07 D0 00 02 00 00 
   954)     90307.622 1  Rx        002B -  8    00 07 D0 00 03 4F 64 0D 
   955)     90310.523 1  Rx        001A -  8    0A 00 07 D0 00 02 00 00 
   956)     90312.614 1  Rx        001B -  8    00 07 D0 00 74 D1 B6 FD 
   957)     90315.131 1  Rx        002A -  8    0A 00 07 D0 00 02 00 00 
   958)     90317.605 1  Rx        002B -  8    00 07 D0 00 74 D1 B6 FD 
   959)     90320.123 1  Rx        001A -  8    0B 00 07 D0 00 02 00 00 
   960)     90322.640 1  Rx        001B -  8    00 07 D0 00 EF 74 FA 92 
   961)     90325.669 1  Rx        002A -  8    0B 00 07 D0 00 02 00 00 
   962)     90327.631 1  Rx        002B -  8    00 07 D0 00 EF 74 FA 92 
   963)     90330.148 1  Rx        001A -  8    0C 00 07 D0 00 02 00 00 
   964)     90333.135 1  Rx        001B -  8    00 07 D0 00 9B EC 13 1D 
   965)     90335.140 1  Rx        002A -  8    0C 00 07 D0 00 02 00 00 
   966)     90337.614 1  Rx        002B -  8    00 07 D0 00 9B EC 13 1D 
   967)     90340.131 1  Rx        001A -  8    0D 00 07 D0 00 02 00 00 
   968)     90342.649 1  Rx        001B -  8    00 07 D0 00 00 49 5F 72 
   969)     90345.123 1  Rx        002A -  8    0D 00 07 D0 00 02 00 00 
   970)     90347.640 1  Rx        002B -  8    00 07 D0 00 00 49 5F 72 
   971)     90350.115 1  Rx        001A -  8    0E 00 07 D0 00 02 00 00 
   972)     90352.632 1  Rx        001B -  8    00 07 D0 00 77 D7 8D 82 
   973)     90355.149 1  Rx        002A -  8    0E 00 07 D0 00 02 00 00 
   974)     90357.623 1  Rx        002B -  8    00 07 D0 00 77 D7 8D 82 
   975)     90360.140 1  Rx        001A -  8    0F 00 07 D0 00 02 00 00 
   976)     90362.615 1  Rx        001B -  8    00 07 D0 00 EC 72 C1 ED 
   977)     90365.132 1  Rx        002A -  8    0F 00 07 D0 00 02 00 00 
   978)     90367.862 1  Rx        002B -  8    00 07 D0 00 EC 72 C1 ED 
   979)     90370.124 1  Rx        001A -  8    10 00 07 D0 00 02 00 00 
   980)     90372.641 1  Rx        001B -  8    00 07 D0 00 92 FE B3 60 
   981)     90375.115 1  Rx        002A -  8    10 00 07 D0 00 02 00 00 
   982)     90377.632 1  Rx        002B -  8    00 07 D0 00 92 FE B3 60 
   983)     90380.107 1  Rx        001A -  8    11 00 07 D0 00 02 00 00 
   984)     90382.624 1  Rx        001B -  8    00 07 D0 00 09 5B FF 0F 
   985)     90385.141 1  Rx        002A -  8    11 00 07 D0 00 02 00 00 
   986)     90387.615 1  Rx        002B -  8    00 07 D0 00 09 5B FF 0F 
   987)     90390.133 1  Rx        001A -  8    12 00 07 D0 00 02 00 00 
   988)     90392.607 1  Rx        001B -  8    00 07 D0 00 7E C5 2D FF 
   989)     90395.124 1  Rx        002A -  8    12 00 07 D0 00 02 00 00 
   990)     90397.641 1  Rx        002B -  8    00 07 D0 00 7E C5 2D FF 
   991)     90400.116 1  Rx        001A -  8    13 00 07 D0 00 02 00 00 
   992)     90402.633 1  Rx        001B -  8    00 07 D0 00 E5 60 61 90 
   993)     90405.107 1  Rx        002A -  8    13 00 07 D0 00 02 00 00 
   994)     90407.624 1  Rx        002B -  8    00 07 D0 00 E5 60 61 90 
   995)     90410.141 1  Rx        001A -  8    14 00 07 D0 00 02 00 00 
   996)     90412.616 1  Rx        001B -  8    00 07 D0 00 91 F8 88 1F 
   997)     90415.133 1  Rx        002A -  8    14 00 07 D0 00 02 00 00 
   998)     90417.608 1  Rx        002B -  8    00 07 D0 00 91 F8 88 1F 
   999)     90420.125 1  Rx        001A -  8    15 00 0B B8 00 03 00 00 
  1000)     90422.599 1  Rx        001B -  8    00 0B B8 00 F5 93 14 3D 
  1001)     90425.116 1  Rx        002A -  8    15 00 0B B8 00 03 00 00 
  1002)     90427.591 1  Rx        002B -  8    00 0B B8 00 F5 93 14 3D 
  1003)     90430.108 1  Rx        001A -  8    16 00 0B B8 00 03 00 00 
  1004)     90432.625 1  Rx        001B -  8    00 0B B8 00 82 0D C6 CD 
  1005)     90435.099 1  Rx        002A -  8    16 00 0B B8 00 03 00 00 
  1006)     90437.616 1  Rx        002B -  8    00 0B B8 00 82 0D C6 CD 
  1007)     90440.134 1  Rx        001A -  8    17 00 0B B8 00 03 00 00 
  1008)     90442.608 1  Rx        001B -  8    00 0B B8 00 19 A8 8A A2 
  1009)     90445.125 1  Rx        002A -  8    17 00 0B B8 00 03 00 00 
  1010)     90447.600 1  Rx        002B -  8    00 0B B8 00 19 A8 8A A2 
  1011)     90450.501 1  Rx        001A -  8    18 00 0B B8 00 03 00 00 
  1012)     90452.634 1  Rx        001B -  8    00 0B B8 00 6B 3C 15 D3 
  1013)     90455.108 1  Rx        002A -  8    18 00 0B B8 00 03 00 00 
  1014)     90458.095 1  Rx        002B -  8    00 0B B8 00 6B 3C 15 D3 
  1015)     90460.100 1  Rx        001A -  8    19 00 0B B8 00 03 00 00 
  1016)     90462.617 1  Rx        001B -  8    00 0B B8 00 F0 99 59 BC 
  1017)     90465.091 1  Rx        002A -  8    19 00 0B B8 00 03 00 00 
  1018)     90467.609 1  Rx        002B -  8    00 0B B8 00 F0 99 59 BC 
  1019)     90470.126 1  Rx        001A -  8    1A 00 0B B8 00 03 00 00 
  1020)     90472.600 1  Rx        001B -  8    00 0B B8 00 87 07 8B 4C 
  1021)     90475.117 1  Rx        002A -  8    1A 00 0B B8 00 03 00 00 
  1022)     90477.592 1  Rx        002B -  8    00 0B B8 00 87 07 8B 4C 
  1023)     90480.109 1  Rx        001A -  8    1B 00 0B B8 00 03 00 00 
  1024)     90482.626 1  Rx        001B -  8    00 0B B8 00 1C A2 C7 23 
  1025)     90485.100 1  Rx        002A -  8    1B 00 0B B8 00 03 00 00 
  1026)     90487.617 1  Rx        002B -  8    00 0B B8 00 1C A2 C7 23 
  1027)     90490.135 1  Rx        001A -  8    1C 00 0B B8 00 03 00 00 
  1028)     90492.609 1  Rx        001B -  8    00 0B B8 00 68 3A 2E AC 
  1029)     90495.126 1  Rx        002A -  8    1C 00 0B B8 00 03 00 00 
  1030)     90497.601 1  Rx        002B -  8    00 0B B8 00 68 3A 2E AC 
  1031)     90500.118 1  Rx        001A -  8    1D 00 0B B8 00 03 00 00 
  1032)     90502.592 1  Rx        001B -  8    00 0B B8 00 F3 9F 62 C3 
  1033)     90505.109 1  Rx        002A -  8    1D 00 0B B8 00 03 00 00 
  1034)     90507.626 1  Rx        002B -  8    00 0B B8 00 F3 9F 62 C3 
  1035)     90510.101 1  Rx        001A -  8    1E 00 0B B8 00 03 00 00 
  1036)     90512.618 1  Rx        001B -  8    00 0B B8 00 84 01 B0 33 
  1037)     90515.092 1  Rx        002A -  8    1E 00 0B B8 00 03 00 00 
  1038)     90517.610 1  Rx        002B -  8    00 0B B8 00 84 01 B0 33 
  1039)     90520.127 1  Rx        001A -  8    1F 00 0B B8 00 03 00 00 
  1040)     90522.601 1  Rx        001B -  8    00 0B B8 00 1F A4 FC 5C 
  1041)     90526.142 1  Rx        002A -  8    1F 00 0B B8 00 03 00 00 
  1042)     90527.593 1  Rx        002B -  8    00 0B B8 00 1F A4 FC 5C 
  1043)     90530.110 1  Rx        001A -  8    20 00 0B B8 00 03 00 00 
  1044)     90534.120 1  Rx        001B -  8    00 0B B8 00 79 19 55 29 
  1045)     90535.101 1  Rx        002A -  8    20 00 0B B8 00 03 00 00 
  1046)     90537.619 1  Rx        002B -  8    00 0B B8 00 79 19 55 29 
  1047)     90540.093 1  Rx        001A -  8    21 00 0B B8 00 03 00 00 
  1048)     90542.610 1  Rx        001B -  8    00 0B B8 00 E2 BC 19 46 
  1049)     90545.127 1  Rx        002A -  8    21 00 0B B8 00 03 00 00 
  1050)     90547.602 1  Rx        002B -  8    00 0B B8 00 E2 BC 19 46 
  1051)     90550.119 1  Rx        001A -  8    22 00 0B B8 00 03 00 00 
  1052)     90552.593 1  Rx        001B -  8    00 0B B8 00 95 22 CB B6 
  1053)     90555.110 1  Rx        002A -  8    22 00 0B B8 00 03 00 00 
  1054)     90557.585 1  Rx        002B -  8    00 0B B8 00 95 22 CB B6 
  1055)     90560.102 1  Rx        001A -  8    23 00 0B B8 00 03 00 00 
  1056)     90562.619 1  Rx        001B -  8    00 0B B8 00 0E 87 87 D9 
  1057)     90565.093 1  Rx        002A -  8    23 00 0B B8 00 03 00 00 
  1058)     90567.611 1  Rx        002B -  8    00 0B B8 00 0E 87 87 D9 
  1059)     90570.085 1  Rx        001A -  8    24 00 0B B8 00 03 00 00 
  1060)     90572.602 1  Rx        001B -  8    00 0B B8 00 7A 1F 6E 56 
  1061)     90575.119 1  Rx        002A -  8    24 00 0B B8 00 03 00 00 
  1062)     90577.594 1  Rx        002B -  8    00 0B B8 00 7A 1F 6E 56 
  1063)     90580.111 1  Rx        001A -  8    25 00 0B B8 00 03 00 00 
  1064)     90582.585 1  Rx        001B -  8    00 0B B8 00 E1 BA 22 39 
  1065)     90585.102 1  Rx        002A -  8    25 00 0B B8 00 03 00 00 
  1066)     90587.577 1  Rx        002B -  8    00 0B B8 00 E1 BA 22 39 
  1067)     90590.094 1  Rx        001A -  8    26 00 0B B8 00 03 00 00 
  1068)     90592.867 1  Rx        001B -  8    00 0B B8 00 96 24 F0 C9 
  1069)     90595.086 1  Rx        002A -  8    26 00 0B B8 00 03 00 00 
  1070)     90597.603 1  Rx        002B -  8    00 0B B8 00 96 24 F0 C9 
  1071)     90600.632 1  Rx        001A -  8    27 00 0B B8 00 03 00 00 
  1072)     90602.594 1  Rx        001B -  8    00 0B B8 00 0D 81 BC A6 
  1073)     90605.111 1  Rx        002A -  8    27 00 0B B8 00 03 00 00 
  1074)     90607.586 1  Rx        002B -  8    00 0B B8 00 0D 81 BC A6 
  1075)     90610.103 1  Rx        001A -  8    28 00 0B B8 00 03 00 00 
  1076)     90612.620 1  Rx        001B -  8    00 0B B8 00 7F 15 23 D7 
  1077)     90615.095 1  Rx        002A -  8    28 00 0B B8 00 03 00 00 
  1078)     90617.612 1  Rx        002B -  8    00 0B B8 00 7F 15 23 D7 
  1079)     90620.086 1  Rx        001A -  8    29 00 0B B8 00 03 00 00 
  1080)     90622.603 1  Rx        001B -  8    00 0B B8 00 E4 B0 6F B8 
  1081)     90625.120 1  Rx        002A -  8    29 00 0B B8 00 03 00 00 
  1082)     90627.595 1  Rx        002B -  8    00 0B B8 00 E4 B0 6F B8 
  1083)     90630.112 1  Rx        001A -  8    2A 00 0B B8 00 03 00 00 
  1084)     90632.586 1  Rx        001B -  8    00 0B B8 00 93 2E BD 48 
  1085)     90635.103 1  Rx        002A -  8    2A 00 0B B8 00 03 00 00 
  1086)     90637.578 1  Rx        002B -  8    00 0B B8 00 93 2E BD 48 
  1087)     90640.095 1  Rx        001A -  8    2B 00 0B B8 00 03 00 00 
  1088)     90642.612 1  Rx        001B -  8    00 0B B8 00 08 8B F1 27 
  1089)     90645.087 1  Rx        002A -  8    2B 00 0B B8 00 03 00 00 
  1090)     90647.604 1  Rx        002B -  8    00 0B B8 00 08 8B F1 27 
  1091)     90650.121 1  Rx        001A -  8    2C 00 0B B8 00 03 00 00 
  1092)     90652.595 1  Rx        001B -  8    00 0B B8 00 7C 13 18 A8 
  1093)     90655.112 1  Rx        002A -  8    2C 00 0B B8 00 03 00 00 
  1094)     90657.587 1  Rx        002B -  8    00 0B B8 00 7C 13 18 A8 
  1095)     90660.104 1  Rx        001A -  8    2D 00 0B B8 00 03 00 00 
  1096)     90662.578 1  Rx        001B -  8    00 0B B8 00 E7 B6 54 C7 
  1097)     90665.096 1  Rx        002A -  8    2D 00 0B B8 00 03 00 00 
  1098)     90667.613 1  Rx        002B -  8    00 0B B8 00 E7 B6 54 C7 
  1099)     90670.087 1  Rx        001A -  8    2E 00 0B B8 00 03 00 00 
  1100)     90672.604 1  Rx        001B -  8    00 0B B8 00 90 28 86 37 
  1101)     90675.591 1  Rx        002A -  8    2E 00 0B B8 00 03 00 00 
  1102)     90677.596 1  Rx        002B -  8    00 0B B8 00 90 28 86 37 
  1103)     90680.113 1  Rx        001A -  8    2F 00 0B B8 00 03 00 00 
  1104)     90682.587 1  Rx        001B -  8    00 0B B8 00 0B 8D CA 58 
  1105)     90685.105 1  Rx        002A -  8    2F 00 0B B8 00 03 00 00 
  1106)     90687.579 1  Rx        002B -  8    00 0B B8 00 0B 8D CA 58 
  1107)     90690.096 1  Rx        001A -  8    30 00 0B B8 00 03 00 00 
  1108)     90692.613 1  Rx        001B -  8    00 0B B8 00 75 01 B8 D5 
  1109)     90695.088 1  Rx        002A -  8    30 00 0B B8 00 03 00 00 
  1110)     90697.605 1  Rx        002B -  8    00 0B B8 00 75 01 B8 D5 
  1111)     90700.079 1  Rx        001A -  8    31 00 0B B8 00 03 00 00 
  1112)     90702.596 1  Rx        001B -  8    00 0B B8 00 EE A4 F4 BA 
  1113)     90705.113 1  Rx        002A -  8    31 00 0B B8 00 03 00 00 
  1114)     90707.588 1  Rx        002B -  8    00 0B B8 00 EE A4 F4 BA 
  1115)     90710.105 1  Rx        001A -  8    32 00 0B B8 00 03 00 00 
  1116)     90712.579 1  Rx        001B -  8    00 0B B8 00 99 3A 26 4A 
  1117)     90715.097 1  Rx        002A -  8    32 00 0B B8 00 03 00 00 
  1118)     90717.571 1  Rx        002B -  8    00 0B B8 00 99 3A 26 4A 
  1119)     90720.088 1  Rx        001A -  8    33 00 0B B8 00 03 00 00 
  1120)     90722.605 1  Rx        001B -  8    00 0B B8 00 02 9F 6A 25 
  1121)     90725.122 1  Rx        002A -  8    33 00 0B B8 00 03 00 00 
  1122)     90727.597 1  Rx        002B -  8    00 0B B8 00 02 9F 6A 25 
  1123)     90730.114 1  Rx        001A -  8    34 00 0B B8 00 03 00 00 
  1124)     90732.588 1  Rx        001B -  8    00 0B B8 00 76 07 83 AA 
  1125)     90735.106 1  Rx        002A -  8    34 00 0B B8 00 03 00 00 
  1126)     90737.580 1  Rx        002B -  8    00 0B B8 00 76 07 83 AA 
  1127)     90740.097 1  Rx        001A -  8    35 00 0B B8 00 03 00 00 
  1128)     90742.614 1  Rx        001B -  8    00 0B B8 00 ED A2 CF C5 
  1129)     90745.089 1  Rx        002A -  8    35 00 0B B8 00 03 00 00 
  1130)     90747.606 1  Rx        002B -  8    00 0B B8 00 ED A2 CF C5 
  1131)     90750.080 1  Rx        001A -  8    36 00 0B B8 00 03 00 00 
  1132)     90752.597 1  Rx        001B -  8    00 0B B8 00 9A 3C 1D 35 
  1133)     90755.114 1  Rx        002A -  8    36 00 0B B8 00 03 00 00 
  1134)     90757.589 1  Rx        002B -  8    00 0B B8 00 9A 3C 1D 35 
  1135)     90760.106 1  Rx        001A -  8    37 00 0B B8 00 03 00 00 
  1136)     90762.581 1  Rx        001B -  8    00 0B B8 00 01 99 51 5A 
  1137)     90765.098 1  Rx        002A -  8    37 00 0B B8 00 03 00 00 
  1138)     90767.572 1  Rx        002B -  8    00 0B B8 00 01 99 51 5A 
  1139)     90770.089 1  Rx        001A -  8    38 00 0B B8 00 03 00 00 
  1140)     90772.606 1  Rx        001B -  8    00 0B B8 00 73 0D CE 2B 
  1141)     90775.081 1  Rx        002A -  8    38 00 0B B8 00 03 00 00 
  1142)     90777.598 1  Rx        002B -  8    00 0B B8 00 73 0D CE 2B 
  1143)     90780.115 1  Rx        001A -  8    39 00 0B B8 00 03 00 00 
  1144)     90782.589 1  Rx        001B -  8    00 0B B8 00 E8 A8 82 44 
  1145)     90785.107 1  Rx        002A -  8    39 00 0B B8 00 03 00 00 
  1146)     90787.581 1  Rx        002B -  8    00 0B B8 00 E8 A8 82 44 
  1147)     90790.610 1  Rx        001A -  8    3A 00 0B B8 00 03 00 00 
  1148)     90792.573 1  Rx        001B -  8    00 0B B8 00 9F 36 50 B4 
  1149)     90795.090 1  Rx        002A -  8    3A 00 0B B8 00 03 00 00 
  1150)     90797.607 1  Rx        002B -  8    00 0B B8 00 9F 36 50 B4 
  1151)     90800.081 1  Rx        001A -  8    3B 00 0B B8 00 03 00 00 
  1152)     90802.598 1  Rx        001B -  8    00 0B B8 00 04 93 1C DB 
  1153)     90805.073 1  Rx        002A -  8    3B 00 0B B8 00 03 00 00 
  1154)     90807.590 1  Rx        002B -  8    00 0B B8 00 04 93 1C DB 
  1155)     90810.107 1  Rx        001A -  8    3C 00 0B B8 00 03 00 00 
  1156)     90812.582 1  Rx        001B -  8    00 0B B8 00 70 0B F5 54 
  1157)     90815.099 1  Rx        002A -  8    3C 00 0B B8 00 03 00 00 
  1158)     90817.616 1  Rx        002B -  8    00 0B B8 00 70 0B F5 54 
  1159)     90820.090 1  Rx        001A -  8    3D 00 0B B8 00 03 00 00 
  1160)     90822.607 1  Rx        001B -  8    00 0B B8 00 EB AE B9 3B 
  1161)     90825.082 1  Rx        002A -  8    3D 00 0B B8 00 03 00 00 
  1162)     90827.599 1  Rx        002B -  8    00 0B B8 00 EB AE B9 3B 
  1163)     90830.116 1  Rx        001A -  8    3E 00 0B B8 00 03 00 00 
  1164)     90832.591 1  Rx        001B -  8    00 0B B8 00 9C 30 6B CB 
  1165)     90835.108 1  Rx        002A -  8    3E 00 0B B8 00 03 00 00 
  1166)     90837.582 1  Rx        002B -  8    00 0B B8 00 9C 30 6B CB 
  1167)     90840.099 1  Rx        001A -  8    3F 00 0B B8 00 03 00 00 
  1168)     90842.574 1  Rx        001B -  8    00 0B B8 00 07 95 27 A4 
  1169)     90845.091 1  Rx        002A -  8    3F 00 0B B8 00 03 00 00 
  1170)     90847.608 1  Rx        002B -  8    00 0B B8 00 07 95 27 A4 
  1171)     90850.082 1  Rx        001A -  8    40 00 0B B8 00 03 00 00 
  1172)     90852.599 1  Rx        001B -  8    00 0B B8 00 51 4B 39 21 
  1173)     90855.074 1  Rx        002A -  8    40 00 0B B8 00 03 00 00 
  1174)     90857.591 1  Rx        002B -  8    00 0B B8 00 51 4B 39 21 
  1175)     90860.108 1  Rx        001A -  8    41 00 0B B8 00 03 00 00 
  1176)     90862.583 1  Rx        001B -  8    00 0B B8 00 CA EE 75 4E 
  1177)     90865.100 1  Rx        002A -  8    41 00 0B B8 00 03 00 00 
  1178)     90867.574 1  Rx        002B -  8    00 0B B8 00 CA EE 75 4E 
  1179)     90870.091 1  Rx        001A -  8    42 00 0B B8 00 03 00 00 
  1180)     90872.608 1  Rx        001B -  8    00 0B B8 00 BD 70 A7 BE 
  1181)     90875.083 1  Rx        002A -  8    42 00 0B B8 00 03 00 00 
  1182)     90877.600 1  Rx        002B -  8    00 0B B8 00 BD 70 A7 BE 
  1183)     90880.074 1  Rx        001A -  8    43 00 0B B8 00 03 00 00 
  1184)     90882.592 1  Rx        001B -  8    00 0B B8 00 26 D5 EB D1 
  1185)     90885.109 1  Rx        002A -  8    43 00 0B B8 00 03 00 00 
  1186)     90887.583 1  Rx        002B -  8    00 0B B8 00 26 D5 EB D1 
  1187)     90890.100 1  Rx        001A -  8    44 00 0B B8 00 03 00 00 
  1188)     90892.575 1  Rx        001B -  8    00 0B B8 00 52 4D 02 5E 
  1189)     90895.092 1  Rx        002A -  8    44 00 0B B8 00 03 00 00 
  1190)     90897.566 1  Rx        002B -  8    00 0B B8 00 52 4D 02 5E 
  1191)     90900.979 1  Rx        001A -  8    45 00 0B B8 00 03 00 00 
  1192)     90902.600 1  Rx        001B -  8    00 0B B8 00 C9 E8 4E 31 
  1193)     90905.075 1  Rx        002A -  8    45 00 0B B8 00 03 00 00 
  1194)     90907.592 1  Rx        002B -  8    00 0B B8 00 C9 E8 4E 31 
  1195)     90910.067 1  Rx        001A -  8    46 00 0B B8 00 03 00 00 
  1196)     90912.584 1  Rx        001B -  8    00 0B B8 00 BE 76 9C C1 
  1197)     90915.101 1  Rx        002A -  8    46 00 0B B8 00 03 00 00 
  1198)     90917.575 1  Rx        002B -  8    00 0B B8 00 BE 76 9C C1 
  1199)     90920.092 1  Rx        001A -  8    47 00 0B B8 00 03 00 00 
  1200)     90922.567 1  Rx        001B -  8    00 0B B8 00 25 D3 D0 AE 
  1201)     90925.084 1  Rx        002A -  8    47 00 0B B8 00 03 00 00 
  1202)     90927.601 1  Rx        002B -  8    00 0B B8 00 25 D3 D0 AE 
  1203)     90930.075 1  Rx        001A -  8    48 00 0B B8 00 03 00 00 
  1204)     90932.593 1  Rx        001B -  8    00 0B B8 00 57 47 4F DF 
  1205)     90935.067 1  Rx        002A -  8    48 00 0B B8 00 03 00 00 
  1206)     90937.584 1  Rx        002B -  8    00 0B B8 00 57 47 4F DF 
  1207)     90940.101 1  Rx        001A -  8    49 00 0B B8 00 03 00 00 
  1208)     90942.576 1  Rx        001B -  8    00 0B B8 00 CC E2 03 B0 
  1209)     90945.093 1  Rx        002A -  8    49 00 0B B8 00 03 00 00 
  1210)     90947.610 1  Rx        002B -  8    00 0B B8 00 CC E2 03 B0 
  1211)     90950.084 1  Rx        001A -  8    4A 00 0B B8 00 03 00 00 
  1212)     90952.602 1  Rx        001B -  8    00 0B B8 00 BB 7C D1 40 
  1213)     90955.076 1  Rx        002A -  8    4A 00 0B B8 00 03 00 00 
  1214)     90958.105 1  Rx        002B -  8    00 0B B8 00 BB 7C D1 40 
  1215)     90960.068 1  Rx        001A -  8    4B 00 0B B8 00 03 00 00 
  1216)     90962.585 1  Rx        001B -  8    00 0B B8 00 20 D9 9D 2F 
  1217)     90965.102 1  Rx        002A -  8    4B 00 0B B8 00 03 00 00 
  1218)     90967.576 1  Rx        002B -  8    00 0B B8 00 20 D9 9D 2F 
  1219)     90970.093 1  Rx        001A -  8    4C 00 0B B8 00 03 00 00 
  1220)     90972.568 1  Rx        001B -  8    00 0B B8 00 54 41 74 A0 
  1221)     90975.085 1  Rx        002A -  8    4C 00 0B B8 00 03 00 00 
  1222)     90977.602 1  Rx        002B -  8    00 0B B8 00 54 41 74 A0 
  1223)     90980.076 1  Rx        001A -  8    4D 00 0B B8 00 03 00 00 
  1224)     90982.594 1  Rx        001B -  8    00 0B B8 00 CF E4 38 CF 
  1225)     90985.068 1  Rx        002A -  8    4D 00 0B B8 00 03 00 00 
  1226)     90987.585 1  Rx        002B -  8    00 0B B8 00 CF E4 38 CF 
  1227)     90990.060 1  Rx        001A -  8    4E 00 0B B8 00 03 00 00 
  1228)     90992.833 1  Rx        001B -  8    00 0B B8 00 B8 7A EA 3F 
  1229)     90995.094 1  Rx        002A -  8    4E 00 0B B8 00 03 00 00 
  1230)     90997.568 1  Rx        002B -  8    00 0B B8 00 B8 7A EA 3F 
  1231)     91000.597 1  Rx        001A -  8    4F 00 0B B8 00 03 00 00 
  1232)     91002.603 1  Rx        001B -  8    00 0B B8 00 23 DF A6 50 
  1233)     91005.077 1  Rx        002A -  8    4F 00 0B B8 00 03 00 00 
  1234)     91007.594 1  Rx        002B -  8    00 0B B8 00 23 DF A6 50 
  1235)     91010.069 1  Rx        001A -  8    50 00 0B B8 00 03 00 00 
  1236)     91012.586 1  Rx        001B -  8    00 0B B8 00 5D 53 D4 DD 
  1237)     91015.103 1  Rx        002A -  8    50 00 0B B8 00 03 00 00 
  1238)     91017.577 1  Rx        002B -  8    00 0B B8 00 5D 53 D4 DD 
  1239)     91020.094 1  Rx        001A -  8    51 00 0B B8 00 03 00 00 
  1240)     91022.569 1  Rx        001B -  8    00 0B B8 00 C6 F6 98 B2 
  1241)     91025.470 1  Rx        002A -  8    51 00 0B B8 00 03 00 00 
  1242)     91027.560 1  Rx        002B -  8    00 0B B8 00 C6 F6 98 B2 
  1243)     91030.078 1  Rx        001A -  8    52 00 0B B8 00 03 00 00 
  1244)     91032.595 1  Rx        001B -  8    00 0B B8 00 B1 68 4A 42 
  1245)     91035.069 1  Rx        002A -  8    52 00 0B B8 00 03 00 00 
  1246)     91037.586 1  Rx        002B -  8    00 0B B8 00 B1 68 4A 42 
  1247)     91040.061 1  Rx        001A -  8    53 00 0B B8 00 03 00 00 
  1248)     91042.578 1  Rx        001B -  8    00 0B B8 00 2A CD 06 2D 
  1249)     91045.095 1  Rx        002A -  8    53 00 0B B8 00 03 00 00 
  1250)     91047.569 1  Rx        002B -  8    00 0B B8 00 2A CD 06 2D 
  1251)     91050.086 1  Rx        001A -  8    54 00 0B B8 00 03 00 00 
  1252)     91052.561 1  Rx        001B -  8    00 0B B8 00 5E 55 EF A2 
  1253)     91055.078 1  Rx        002A -  8    54 00 0B B8 00 03 00 00 
  1254)     91057.595 1  Rx        002B -  8    00 0B B8 00 5E 55 EF A2 
  1255)     91060.070 1  Rx        001A -  8    55 00 0B B8 00 03 00 00 
  1256)     91062.587 1  Rx        001B -  8    00 0B B8 00 C5 F0 A3 CD 
  1257)     91065.061 1  Rx        002A -  8    55 00 0B B8 00 03 00 00 
  1258)     91067.578 1  Rx        002B -  8    00 0B B8 00 C5 F0 A3 CD 
  1259)     91070.095 1  Rx        001A -  8    56 00 0B B8 00 03 00 00 
  1260)     91072.570 1  Rx        001B -  8    00 0B B8 00 B2 6E 71 3D 
  1261)     91075.087 1  Rx        002A -  8    56 00 0B B8 00 03 00 00 
  1262)     91077.561 1  Rx        002B -  8    00 0B B8 00 B2 6E 71 3D 
  1263)     91080.079 1  Rx        001A -  8    57 00 0B B8 00 03 00 00 
  1264)     91082.596 1  Rx        001B -  8    00 0B B8 00 29 CB 3D 52 
  1265)     91085.070 1  Rx        002A -  8    57 00 0B B8 00 03 00 00 
  1266)     91087.587 1  Rx        002B -  8    00 0B B8 00 29 CB 3D 52 
  1267)     91090.062 1  Rx        001A -  8    58 00 0B B8 00 03 00 00 
  1268)     91092.579 1  Rx        001B -  8    00 0B B8 00 5B 5F A2 23 
  1269)     91095.096 1  Rx        002A -  8    58 00 0B B8 00 03 00 00 
  1270)     91097.570 1  Rx        002B -  8    00 0B B8 00 5B 5F A2 23 
  1271)     91100.088 1  Rx        001A -  8    59 00 0B B8 00 03 00 00 
  1272)     91102.605 1  Rx        001B -  8    00 0B B8 00 C0 FA EE 4C 
  1273)     91105.079 1  Rx        002A -  8    59 00 0B B8 00 03 00 00 
  1274)     91107.596 1  Rx        002B -  8    00 0B B8 00 C0 FA EE 4C 
  1275)     91110.071 1  Rx        001A -  8    5A 00 0B B8 00 03 00 00 
  1276)     91112.588 1  Rx        001B -  8    00 0B B8 00 B7 64 3C BC 
  1277)     91115.062 1  Rx        002A -  8    5A 00 0B B8 00 03 00 00 
  1278)     91117.579 1  Rx        002B -  8    00 0B B8 00 B7 64 3C BC 
  1279)     91120.096 1  Rx        001A -  8    5B 00 0B B8 00 03 00 00 
  1280)     91122.571 1  Rx        001B -  8    00 0B B8 00 2C C1 70 D3 
  1281)     91125.984 1  Rx        002A -  8    5B 00 0B B8 00 03 00 00 
  1282)     91127.562 1  Rx        002B -  8    00 0B B8 00 2C C1 70 D3 
  1283)     91130.080 1  Rx        001A -  8    5C 00 0B B8 00 03 00 00 
  1284)     91132.554 1  Rx        001B -  8    00 0B B8 00 58 59 99 5C 
  1285)     91135.071 1  Rx        002A -  8    5C 00 0B B8 00 03 00 00 
  1286)     91137.588 1  Rx        002B -  8    00 0B B8 00 58 59 99 5C 
  1287)     91140.063 1  Rx        001A -  8    5D 00 0B B8 00 03 00 00 
  1288)     91142.580 1  Rx        001B -  8    00 0B B8 00 C3 FC D5 33 
  1289)     91145.097 1  Rx        002A -  8    5D 00 0B B8 00 03 00 00 
  1290)     91147.571 1  Rx        002B -  8    00 0B B8 00 C3 FC D5 33 
  1291)     91150.089 1  Rx        001A -  8    5E 00 0B B8 00 03 00 00 
  1292)     91152.563 1  Rx        001B -  8    00 0B B8 00 B4 62 07 C3 
  1293)     91155.080 1  Rx        002A -  8    5E 00 0B B8 00 03 00 00 
  1294)     91157.597 1  Rx        002B -  8    00 0B B8 00 B4 62 07 C3 
  1295)     91160.072 1  Rx        001A -  8    5F 00 0B B8 00 03 00 00 
  1296)     91162.589 1  Rx        001B -  8    00 0B B8 00 2F C7 4B AC 
  1297)     91165.063 1  Rx        002A -  8    5F 00 0B B8 00 03 00 00 
  1298)     91168.092 1  Rx        002B -  8    00 0B B8 00 2F C7 4B AC 
  1299)     91170.055 1  Rx        001A -  8    60 00 0B B8 00 03 00 00 
  1300)     91172.572 1  Rx        001B -  8    00 0B B8 00 49 7A E2 D9 
  1301)     91175.089 1  Rx        002A -  8    60 00 0B B8 00 03 00 00 
  1302)     91177.564 1  Rx        002B -  8    00 0B B8 00 49 7A E2 D9 
  1303)     91180.081 1  Rx        001A -  8    61 00 0B B8 00 03 00 00 
  1304)     91182.555 1  Rx        001B -  8    00 0B B8 00 D2 DF AE B6 
  1305)     91185.072 1  Rx        002A -  8    61 00 0B B8 00 03 00 00 
  1306)     91187.589 1  Rx        002B -  8    00 0B B8 00 D2 DF AE B6 
  1307)     91190.064 1  Rx        001A -  8    62 00 0B B8 00 03 00 00 
  1308)     91192.581 1  Rx        001B -  8    00 0B B8 00 A5 41 7C 46 
  1309)     91195.055 1  Rx        002A -  8    62 00 0B B8 00 03 00 00 
  1310)     91197.572 1  Rx        002B -  8    00 0B B8 00 A5 41 7C 46 
  1311)     91200.559 1  Rx        001A -  8    63 00 0B B8 00 03 00 00 
  1312)     91202.564 1  Rx        001B -  8    00 0B B8 00 3E E4 30 29 
  1313)     91205.081 1  Rx        002A -  8    63 00 0B B8 00 03 00 00 
  1314)     91207.598 1  Rx        002B -  8    00 0B B8 00 3E E4 30 29 
  1315)     91210.073 1  Rx        001A -  8    64 00 0B B8 00 03 00 00 
  1316)     91212.590 1  Rx        001B -  8    00 0B B8 00 4A 7C D9 A6 
  1317)     91215.064 1  Rx        002A -  8    64 00 0B B8 00 03 00 00 
  1318)     91217.581 1  Rx        002B -  8    00 0B B8 00 4A 7C D9 A6 
  1319)     91220.056 1  Rx        001A -  8    65 00 0B B8 00 03 00 00 
  1320)     91222.603 1  Rx        001B -  8    00 0B B8 00 D1 D9 95 C9 
  1321)     91225.120 1  Rx        002A -  8    65 00 0B B8 00 03 00 00 
  1322)     91227.595 1  Rx        002B -  8    00 0B B8 00 D1 D9 95 C9 
  1323)     91230.112 1  Rx        001A -  8    66 00 0B B8 00 03 00 00 
  1324)     91232.586 1  Rx        001B -  8    00 0B B8 00 A6 47 47 39 
  1325)     91235.103 1  Rx        002A -  8    66 00 0B B8 00 03 00 00 
  1326)     91237.578 1  Rx        002B -  8    00 0B B8 00 A6 47 47 39 
  1327)     91240.095 1  Rx        001A -  8    67 00 0B B8 00 03 00 00 
  1328)     91242.612 1  Rx        001B -  8    00 0B B8 00 3D E2 0B 56 
  1329)     91245.086 1  Rx        002A -  8    67 00 0B B8 00 03 00 00 
  1330)     91247.604 1  Rx        002B -  8    00 0B B8 00 3D E2 0B 56 
  1331)     91250.121 1  Rx        001A -  8    68 00 0B B8 00 03 00 00 
  1332)     91252.595 1  Rx        001B -  8    00 0B B8 00 4F 76 94 27 
  1333)     91255.112 1  Rx        002A -  8    68 00 0B B8 00 03 00 00 
  1334)     91257.587 1  Rx        002B -  8    00 0B B8 00 4F 76 94 27 
  1335)     91260.104 1  Rx        001A -  8    69 00 0B B8 00 03 00 00 
  1336)     91262.578 1  Rx        001B -  8    00 0B B8 00 D4 D3 D8 48 
  1337)     91265.095 1  Rx        002A -  8    69 00 0B B8 00 03 00 00 
  1338)     91267.612 1  Rx        002B -  8    00 0B B8 00 D4 D3 D8 48 
  1339)     91270.087 1  Rx        001A -  8    6A 00 0B B8 00 03 00 00 
  1340)     91272.604 1  Rx        001B -  8    00 0B B8 00 A3 4D 0A B8 
  1341)     91275.078 1  Rx        002A -  8    6A 00 0B B8 00 03 00 00 
  1342)     91277.596 1  Rx        002B -  8    00 0B B8 00 A3 4D 0A B8 
  1343)     91280.113 1  Rx        001A -  8    6B 00 0B B8 00 03 00 00 
  1344)     91282.587 1  Rx        001B -  8    00 0B B8 00 38 E8 46 D7 
  1345)     91285.104 1  Rx        002A -  8    6B 00 0B B8 00 03 00 00 
  1346)     91287.579 1  Rx        002B -  8    00 0B B8 00 38 E8 46 D7 
  1347)     91290.096 1  Rx        001A -  8    6C 00 0B B8 00 03 00 00 
  1348)     91292.869 1  Rx        001B -  8    00 0B B8 00 4C 70 AF 58 
  1349)     91295.087 1  Rx        002A -  8    6C 00 0B B8 00 03 00 00 
  1350)     91297.605 1  Rx        002B -  8    00 0B B8 00 4C 70 AF 58 
  1351)     91300.463 1  Rx        001A -  8    6D 00 0B B8 00 03 00 00 
  1352)     91302.596 1  Rx        001B -  8    00 0B B8 00 D7 D5 E3 37 
  1353)     91305.113 1  Rx        002A -  8    6D 00 0B B8 00 03 00 00 
  1354)     91307.588 1  Rx        002B -  8    00 0B B8 00 D7 D5 E3 37 
  1355)     91310.489 1  Rx        001A -  8    6E 00 0B B8 00 03 00 00 
  1356)     91312.579 1  Rx        001B -  8    00 0B B8 00 A0 4B 31 C7 
  1357)     91315.096 1  Rx        002A -  8    6E 00 0B B8 00 03 00 00 
