;$FILEVERSION=1.3
;$STARTTIME=43467.3997811357
;
;   F:\Galx_1133 Selector 6 box\PCAN_Data\ENC_CAN\Learn_to_25000.trc
;   Start time: 1/2/2019 09:35:41.090.1
;-------------------------------------------------------------------------------
;   Bus  Name        Connection           Protocol
;   1    CEDS_2_CAN  CEDS_2_CAN@pcan_usb  CAN
;-------------------------------------------------------------------------------
;   Message Number
;   |         Time Offset (ms)
;   |         |       Bus
;   |         |       |    Type
;   |         |       |    |       ID (hex)
;   |         |       |    |       |    Reserved
;   |         |       |    |       |    |   Data Length Code
;   |         |       |    |       |    |   |    Data Bytes (hex) ...
;   |         |       |    |       |    |   |    |
;   |         |       |    |       |    |   |    |
;---+-- ------+------ +- --+-- ----+--- +- -+-- -+ -- -- -- -- -- -- --
     1)         1.248 1  Rx        002B -  8    00 75 30 00 6E A8 E4 D7 
     2)         3.765 1  Rx        001A -  8    1A 00 75 30 00 1E 00 00 
     3)         6.240 1  Rx        001B -  8    00 75 30 00 19 36 36 27 
     4)         8.757 1  Rx        002A -  8    1A 00 75 30 00 1E 00 00 
     5)        11.274 1  Rx        002B -  8    00 75 30 00 19 36 36 27 
     6)        14.260 1  Rx        001A -  8    1B 00 75 30 00 1E 00 00 
     7)        16.265 1  Rx        001B -  8    00 75 30 00 82 93 7A 48 
     8)        18.783 1  Rx        002A -  8    1B 00 75 30 00 1E 00 00 
     9)        21.257 1  Rx        002B -  8    00 75 30 00 82 93 7A 48 
    10)        23.774 1  Rx        001A -  8    1C 00 75 30 00 1E 00 00 
    11)        26.249 1  Rx        001B -  8    00 75 30 00 F6 0B 93 C7 
    12)        28.766 1  Rx        002A -  8    1C 00 75 30 00 1E 00 00 
    13)        31.240 1  Rx        002B -  8    00 75 30 00 F6 0B 93 C7 
    14)        33.757 1  Rx        001A -  8    1D 00 75 30 00 1E 00 00 
    15)        36.274 1  Rx        001B -  8    00 75 30 00 6D AE DF A8 
    16)        38.749 1  Rx        002A -  8    1D 00 75 30 00 1E 00 00 
    17)        41.266 1  Rx        002B -  8    00 75 30 00 6D AE DF A8 
    18)        43.783 1  Rx        001A -  8    1E 00 75 30 00 1E 00 00 
    19)        46.258 1  Rx        001B -  8    00 75 30 00 1A 30 0D 58 
    20)        48.775 1  Rx        002A -  8    1E 00 75 30 00 1E 00 00 
    21)        51.249 1  Rx        002B -  8    00 75 30 00 1A 30 0D 58 
    22)        53.766 1  Rx        001A -  8    1F 00 75 30 00 1E 00 00 
    23)        56.283 1  Rx        001B -  8    00 75 30 00 81 95 41 37 
    24)        58.758 1  Rx        002A -  8    1F 00 75 30 00 1E 00 00 
    25)        61.275 1  Rx        002B -  8    00 75 30 00 81 95 41 37 
    26)        64.133 1  Rx        001A -  8    20 00 75 30 00 1E 00 00 
    27)        66.267 1  Rx        001B -  8    00 75 30 00 E7 28 E8 42 
    28)        68.784 1  Rx        002A -  8    20 00 75 30 00 1E 00 00 
    29)        71.258 1  Rx        002B -  8    00 75 30 00 E7 28 E8 42 
    30)        73.775 1  Rx        001A -  8    21 00 75 30 00 1E 00 00 
    31)        76.250 1  Rx        001B -  8    00 75 30 00 7C 8D A4 2D 
    32)        78.767 1  Rx        002A -  8    21 00 75 30 00 1E 00 00 
    33)        81.241 1  Rx        002B -  8    00 75 30 00 7C 8D A4 2D 
    34)        83.758 1  Rx        001A -  8    22 00 75 30 00 1E 00 00 
    35)        86.275 1  Rx        001B -  8    00 75 30 00 0B 13 76 DD 
    36)        89.305 1  Rx        002A -  8    22 00 75 30 00 1E 00 00 
    37)        91.267 1  Rx        002B -  8    00 75 30 00 0B 13 76 DD 
    38)        93.741 1  Rx        001A -  8    23 00 75 30 00 1E 00 00 
    39)        96.259 1  Rx        001B -  8    00 75 30 00 90 B6 3A B2 
    40)        98.776 1  Rx        002A -  8    23 00 75 30 00 1E 00 00 
    41)       101.250 1  Rx        002B -  8    00 75 30 00 90 B6 3A B2 
    42)       103.767 1  Rx        001A -  8    24 00 75 30 00 1E 00 00 
    43)       106.754 1  Rx        001B -  8    00 75 30 00 E4 2E D3 3D 
    44)       108.759 1  Rx        002A -  8    24 00 75 30 00 1E 00 00 
    45)       111.233 1  Rx        002B -  8    00 75 30 00 E4 2E D3 3D 
    46)       113.750 1  Rx        001A -  8    25 00 75 30 00 1E 00 00 
    47)       116.268 1  Rx        001B -  8    00 75 30 00 7F 8B 9F 52 
    48)       118.742 1  Rx        002A -  8    25 00 75 30 00 1E 00 00 
    49)       121.259 1  Rx        002B -  8    00 75 30 00 7F 8B 9F 52 
    50)       123.776 1  Rx        001A -  8    26 00 75 30 00 1E 00 00 
    51)       126.251 1  Rx        001B -  8    00 75 30 00 08 15 4D A2 
    52)       128.768 1  Rx        002A -  8    26 00 75 30 00 1E 00 00 
    53)       131.754 1  Rx        002B -  8    00 75 30 00 08 15 4D A2 
    54)       133.759 1  Rx        001A -  8    27 00 75 30 00 1E 00 00 
    55)       136.277 1  Rx        001B -  8    00 75 30 00 93 B0 01 CD 
    56)       139.263 1  Rx        002A -  8    27 00 75 30 00 1E 00 00 
    57)       141.268 1  Rx        002B -  8    00 75 30 00 93 B0 01 CD 
    58)       143.743 1  Rx        001A -  8    28 00 75 30 00 1E 00 00 
    59)       146.260 1  Rx        001B -  8    00 75 30 00 E1 24 9E BC 
    60)       149.161 1  Rx        002A -  8    28 00 75 30 00 1E 00 00 
    61)       151.251 1  Rx        002B -  8    00 75 30 00 E1 24 9E BC 
    62)       153.768 1  Rx        001A -  8    29 00 75 30 00 1E 00 00 
    63)       156.243 1  Rx        001B -  8    00 75 30 00 7A 81 D2 D3 
    64)       158.760 1  Rx        002A -  8    29 00 75 30 00 1E 00 00 
    65)       161.234 1  Rx        002B -  8    00 75 30 00 7A 81 D2 D3 
    66)       163.751 1  Rx        001A -  8    2A 00 75 30 00 1E 00 00 
    67)       166.269 1  Rx        001B -  8    00 75 30 00 0D 1F 00 23 
    68)       168.743 1  Rx        002A -  8    2A 00 75 30 00 1E 00 00 
    69)       171.260 1  Rx        002B -  8    00 75 30 00 0D 1F 00 23 
    70)       173.735 1  Rx        001A -  8    2B 00 75 30 00 1E 00 00 
    71)       176.252 1  Rx        001B -  8    00 75 30 00 96 BA 4C 4C 
    72)       178.769 1  Rx        002A -  8    2B 00 75 30 00 1E 00 00 
    73)       181.713 1  Rx        002B -  8    00 75 30 00 96 BA 4C 4C 
    74)       183.760 1  Rx        001A -  8    2C 00 75 30 00 1E 00 00 
    75)       186.235 1  Rx        001B -  8    00 75 30 00 E2 22 A5 C3 
    76)       189.648 1  Rx        002A -  8    2C 00 75 30 00 1E 00 00 
    77)       191.226 1  Rx        002B -  8    00 75 30 00 E2 22 A5 C3 
    78)       193.744 1  Rx        001A -  8    2D 00 75 30 00 1E 00 00 
    79)       196.261 1  Rx        001B -  8    00 75 30 00 79 87 E9 AC 
    80)       198.778 1  Rx        002A -  8    2D 00 75 30 00 1E 00 00 
    81)       201.252 1  Rx        002B -  8    00 75 30 00 79 87 E9 AC 
    82)       203.769 1  Rx        001A -  8    2E 00 75 30 00 1E 00 00 
    83)       206.756 1  Rx        001B -  8    00 75 30 00 0E 19 3B 5C 
    84)       208.761 1  Rx        002A -  8    2E 00 75 30 00 1E 00 00 
    85)       211.235 1  Rx        002B -  8    00 75 30 00 0E 19 3B 5C 
    86)       213.753 1  Rx        001A -  8    2F 00 75 30 00 1E 00 00 
    87)       216.227 1  Rx        001B -  8    00 75 30 00 95 BC 77 33 
    88)       218.744 1  Rx        002A -  8    2F 00 75 30 00 1E 00 00 
    89)       221.219 1  Rx        002B -  8    00 75 30 00 95 BC 77 33 
    90)       223.778 1  Rx        001A -  8    30 00 75 30 00 1E 00 00 
    91)       226.253 1  Rx        001B -  8    00 75 30 00 EB 30 05 BE 
    92)       228.770 1  Rx        002A -  8    30 00 75 30 00 1E 00 00 
    93)       231.244 1  Rx        002B -  8    00 75 30 00 EB 30 05 BE 
    94)       233.761 1  Rx        001A -  8    31 00 75 30 00 1E 00 00 
    95)       236.236 1  Rx        001B -  8    00 75 30 00 70 95 49 D1 
    96)       238.753 1  Rx        002A -  8    31 00 75 30 00 1E 00 00 
    97)       241.227 1  Rx        002B -  8    00 75 30 00 70 95 49 D1 
    98)       243.745 1  Rx        001A -  8    32 00 75 30 00 1E 00 00 
    99)       246.262 1  Rx        001B -  8    00 75 30 00 07 0B 9B 21 
   100)       248.736 1  Rx        002A -  8    32 00 75 30 00 1E 00 00 
   101)       251.253 1  Rx        002B -  8    00 75 30 00 07 0B 9B 21 
   102)       253.770 1  Rx        001A -  8    33 00 75 30 00 1E 00 00 
   103)       256.245 1  Rx        001B -  8    00 75 30 00 9C AE D7 4E 
   104)       258.762 1  Rx        002A -  8    33 00 75 30 00 1E 00 00 
   105)       261.236 1  Rx        002B -  8    00 75 30 00 9C AE D7 4E 
   106)       264.777 1  Rx        001A -  8    34 00 75 30 00 1E 00 00 
   107)       266.271 1  Rx        001B -  8    00 75 30 00 E8 36 3E C1 
   108)       268.745 1  Rx        002A -  8    34 00 75 30 00 1E 00 00 
   109)       271.262 1  Rx        002B -  8    00 75 30 00 E8 36 3E C1 
   110)       273.737 1  Rx        001A -  8    35 00 75 30 00 1E 00 00 
   111)       276.254 1  Rx        001B -  8    00 75 30 00 73 93 72 AE 
   112)       278.728 1  Rx        002A -  8    35 00 75 30 00 1E 00 00 
   113)       281.459 1  Rx        002B -  8    00 75 30 00 73 93 72 AE 
   114)       283.762 1  Rx        001A -  8    36 00 75 30 00 1E 00 00 
   115)       286.237 1  Rx        001B -  8    00 75 30 00 04 0D A0 5E 
   116)       288.754 1  Rx        002A -  8    36 00 75 30 00 1E 00 00 
   117)       291.271 1  Rx        002B -  8    00 75 30 00 04 0D A0 5E 
   118)       293.746 1  Rx        001A -  8    37 00 75 30 00 1E 00 00 
   119)       296.220 1  Rx        001B -  8    00 75 30 00 9F A8 EC 31 
   120)       298.737 1  Rx        002A -  8    37 00 75 30 00 1E 00 00 
   121)       301.254 1  Rx        002B -  8    00 75 30 00 9F A8 EC 31 
   122)       303.729 1  Rx        001A -  8    38 00 75 30 00 1E 00 00 
   123)       306.246 1  Rx        001B -  8    00 75 30 00 ED 3C 73 40 
   124)       308.763 1  Rx        002A -  8    38 00 75 30 00 1E 00 00 
   125)       311.237 1  Rx        002B -  8    00 75 30 00 ED 3C 73 40 
   126)       313.755 1  Rx        001A -  8    39 00 75 30 00 1E 00 00 
   127)       316.229 1  Rx        001B -  8    00 75 30 00 76 99 3F 2F 
   128)       318.746 1  Rx        002A -  8    39 00 75 30 00 1E 00 00 
   129)       321.221 1  Rx        002B -  8    00 75 30 00 76 99 3F 2F 
   130)       323.738 1  Rx        001A -  8    3A 00 75 30 00 1E 00 00 
   131)       326.255 1  Rx        001B -  8    00 75 30 00 01 07 ED DF 
   132)       328.772 1  Rx        002A -  8    3A 00 75 30 00 1E 00 00 
   133)       331.246 1  Rx        002B -  8    00 75 30 00 01 07 ED DF 
   134)       333.764 1  Rx        001A -  8    3B 00 75 30 00 1E 00 00 
   135)       336.238 1  Rx        001B -  8    00 75 30 00 9A A2 A1 B0 
   136)       339.267 1  Rx        002A -  8    3B 00 75 30 00 1E 00 00 
   137)       341.230 1  Rx        002B -  8    00 75 30 00 9A A2 A1 B0 
   138)       343.747 1  Rx        001A -  8    3C 00 75 30 00 1E 00 00 
   139)       346.221 1  Rx        001B -  8    00 75 30 00 EE 3A 48 3F 
   140)       348.738 1  Rx        002A -  8    3C 00 75 30 00 1E 00 00 
   141)       351.255 1  Rx        002B -  8    00 75 30 00 EE 3A 48 3F 
   142)       353.772 1  Rx        001A -  8    3D 00 75 30 00 1E 00 00 
   143)       356.759 1  Rx        001B -  8    00 75 30 00 75 9F 04 50 
   144)       358.764 1  Rx        002A -  8    3D 00 75 30 00 1E 00 00 
   145)       361.239 1  Rx        002B -  8    00 75 30 00 75 9F 04 50 
   146)       364.268 1  Rx        001A -  8    3E 00 75 30 00 1E 00 00 
   147)       366.230 1  Rx        001B -  8    00 75 30 00 02 01 D6 A0 
   148)       368.747 1  Rx        002A -  8    3E 00 75 30 00 1E 00 00 
   149)       371.264 1  Rx        002B -  8    00 75 30 00 02 01 D6 A0 
   150)       373.739 1  Rx        001A -  8    3F 00 75 30 00 1E 00 00 
   151)       376.213 1  Rx        001B -  8    00 75 30 00 99 A4 9A CF 
   152)       378.730 1  Rx        002A -  8    3F 00 75 30 00 1E 00 00 
   153)       381.247 1  Rx        002B -  8    00 03 E8 00 80 39 C1 3A 
   154)       383.765 1  Rx        001A -  8    40 00 03 E8 00 01 00 00 
   155)       386.239 1  Rx        001B -  8    00 03 E8 00 13 F9 25 66 
   156)       388.756 1  Rx        002A -  8    40 00 03 E8 00 01 00 00 
   157)       391.231 1  Rx        002B -  8    00 03 E8 00 13 F9 25 66 
   158)       393.748 1  Rx        001A -  8    41 00 03 E8 00 01 00 00 
   159)       396.222 1  Rx        001B -  8    00 03 E8 00 88 5C 69 09 
   160)       398.739 1  Rx        002A -  8    41 00 03 E8 00 01 00 00 
   161)       401.256 1  Rx        002B -  8    00 03 E8 00 88 5C 69 09 
   162)       403.731 1  Rx        001A -  8    42 00 03 E8 00 01 00 00 
   163)       406.248 1  Rx        001B -  8    00 03 E8 00 FF C2 BB F9 
   164)       408.765 1  Rx        002A -  8    42 00 03 E8 00 01 00 00 
   165)       411.240 1  Rx        002B -  8    00 03 E8 00 FF C2 BB F9 
   166)       413.757 1  Rx        001A -  8    43 00 03 E8 00 01 00 00 
   167)       416.231 1  Rx        001B -  8    00 03 E8 00 64 67 F7 96 
   168)       418.748 1  Rx        002A -  8    43 00 03 E8 00 01 00 00 
   169)       421.265 1  Rx        002B -  8    00 03 E8 00 64 67 F7 96 
   170)       423.740 1  Rx        001A -  8    44 00 03 E8 00 01 00 00 
   171)       426.257 1  Rx        001B -  8    00 03 E8 00 10 FF 1E 19 
   172)       428.731 1  Rx        002A -  8    44 00 03 E8 00 01 00 00 
   173)       431.248 1  Rx        002B -  8    00 03 E8 00 10 FF 1E 19 
   174)       433.723 1  Rx        001A -  8    45 00 03 E8 00 01 00 00 
   175)       436.240 1  Rx        001B -  8    00 03 E8 00 8B 5A 52 76 
   176)       439.098 1  Rx        002A -  8    45 00 03 E8 00 01 00 00 
   177)       441.232 1  Rx        002B -  8    00 03 E8 00 8B 5A 52 76 
   178)       443.749 1  Rx        001A -  8    46 00 03 E8 00 01 00 00 
   179)       446.479 1  Rx        001B -  8    00 03 E8 00 FC C4 80 86 
   180)       448.740 1  Rx        002A -  8    46 00 03 E8 00 01 00 00 
   181)       451.257 1  Rx        002B -  8    00 03 E8 00 FC C4 80 86 
   182)       453.732 1  Rx        001A -  8    47 00 03 E8 00 01 00 00 
   183)       456.249 1  Rx        001B -  8    00 03 E8 00 67 61 CC E9 
   184)       458.728 1  Rx        002A -  8    47 00 03 E8 00 01 00 00 
   185)       461.246 1  Rx        002B -  8    00 03 E8 00 67 61 CC E9 
   186)       463.763 1  Rx        001A -  8    48 00 03 E8 00 01 00 00 
   187)       466.237 1  Rx        001B -  8    00 03 E8 00 15 F5 53 98 
   188)       468.754 1  Rx        002A -  8    48 00 03 E8 00 01 00 00 
   189)       471.229 1  Rx        002B -  8    00 03 E8 00 15 F5 53 98 
   190)       473.746 1  Rx        001A -  8    49 00 03 E8 00 01 00 00 
   191)       476.263 1  Rx        001B -  8    00 03 E8 00 8E 50 1F F7 
   192)       479.249 1  Rx        002A -  8    49 00 03 E8 00 01 00 00 
   193)       481.255 1  Rx        002B -  8    00 03 E8 00 8E 50 1F F7 
   194)       483.729 1  Rx        001A -  8    4A 00 03 E8 00 01 00 00 
   195)       486.246 1  Rx        001B -  8    00 03 E8 00 F9 CE CD 07 
   196)       489.787 1  Rx        002A -  8    4A 00 03 E8 00 01 00 00 
   197)       491.238 1  Rx        002B -  8    00 03 E8 00 F9 CE CD 07 
   198)       493.755 1  Rx        001A -  8    4B 00 03 E8 00 01 00 00 
   199)       496.229 1  Rx        001B -  8    00 03 E8 00 62 6B 81 68 
   200)       498.746 1  Rx        002A -  8    4B 00 03 E8 00 01 00 00 
   201)       501.263 1  Rx        002B -  8    00 03 E8 00 62 6B 81 68 
   202)       503.738 1  Rx        001A -  8    4C 00 03 E8 00 01 00 00 
   203)       506.255 1  Rx        001B -  8    00 03 E8 00 16 F3 68 E7 
   204)       508.729 1  Rx        002A -  8    4C 00 03 E8 00 01 00 00 
   205)       511.247 1  Rx        002B -  8    00 03 E8 00 16 F3 68 E7 
   206)       513.721 1  Rx        001A -  8    4D 00 03 E8 00 01 00 00 
   207)       516.238 1  Rx        001B -  8    00 03 E8 00 8D 56 24 88 
   208)       518.755 1  Rx        002A -  8    4D 00 03 E8 00 01 00 00 
   209)       521.230 1  Rx        002B -  8    00 03 E8 00 8D 56 24 88 
   210)       523.747 1  Rx        001A -  8    4E 00 03 E8 00 01 00 00 
   211)       526.221 1  Rx        001B -  8    00 03 E8 00 FA C8 F6 78 
   212)       528.738 1  Rx        002A -  8    4E 00 03 E8 00 01 00 00 
   213)       531.256 1  Rx        002B -  8    00 03 E8 00 FA C8 F6 78 
   214)       533.730 1  Rx        001A -  8    4F 00 03 E8 00 01 00 00 
   215)       536.247 1  Rx        001B -  8    00 03 E8 00 61 6D BA 17 
   216)       538.764 1  Rx        002A -  8    4F 00 03 E8 00 01 00 00 
   217)       541.239 1  Rx        002B -  8    00 03 E8 00 61 6D BA 17 
   218)       543.756 1  Rx        001A -  8    50 00 03 E8 00 01 00 00 
   219)       546.230 1  Rx        001B -  8    00 03 E8 00 1F E1 C8 9A 
   220)       548.747 1  Rx        002A -  8    50 00 03 E8 00 01 00 00 
   221)       551.222 1  Rx        002B -  8    00 03 E8 00 1F E1 C8 9A 
   222)       553.739 1  Rx        001A -  8    51 00 03 E8 00 01 00 00 
   223)       556.725 1  Rx        001B -  8    00 03 E8 00 84 44 84 F5 
   224)       558.731 1  Rx        002A -  8    51 00 03 E8 00 01 00 00 
   225)       561.248 1  Rx        002B -  8    00 03 E8 00 84 44 84 F5 
   226)       563.765 1  Rx        001A -  8    52 00 03 E8 00 01 00 00 
   227)       566.239 1  Rx        001B -  8    00 03 E8 00 F3 DA 56 05 
   228)       568.756 1  Rx        002A -  8    52 00 03 E8 00 01 00 00 
   229)       571.231 1  Rx        002B -  8    00 03 E8 00 F3 DA 56 05 
   230)       573.748 1  Rx        001A -  8    53 00 03 E8 00 01 00 00 
   231)       576.222 1  Rx        001B -  8    00 03 E8 00 68 7F 1A 6A 
   232)       578.739 1  Rx        002A -  8    53 00 03 E8 00 01 00 00 
   233)       581.513 1  Rx        002B -  8    00 03 E8 00 68 7F 1A 6A 
   234)       583.731 1  Rx        001A -  8    54 00 03 E8 00 01 00 00 
   235)       586.248 1  Rx        001B -  8    00 03 E8 00 1C E7 F3 E5 
   236)       589.789 1  Rx        002A -  8    54 00 03 E8 00 01 00 00 
   237)       591.240 1  Rx        002B -  8    00 03 E8 00 1C E7 F3 E5 
   238)       593.757 1  Rx        001A -  8    55 00 03 E8 00 01 00 00 
   239)       596.231 1  Rx        001B -  8    00 03 E8 00 87 42 BF 8A 
   240)       598.748 1  Rx        002A -  8    55 00 03 E8 00 01 00 00 
   241)       601.223 1  Rx        002B -  8    00 03 E8 00 87 42 BF 8A 
   242)       603.740 1  Rx        001A -  8    56 00 03 E8 00 01 00 00 
   243)       606.257 1  Rx        001B -  8    00 03 E8 00 F0 DC 6D 7A 
   244)       608.732 1  Rx        002A -  8    56 00 03 E8 00 01 00 00 
   245)       611.249 1  Rx        002B -  8    00 03 E8 00 F0 DC 6D 7A 
   246)       613.723 1  Rx        001A -  8    57 00 03 E8 00 01 00 00 
   247)       616.240 1  Rx        001B -  8    00 03 E8 00 6B 79 21 15 
   248)       618.715 1  Rx        002A -  8    57 00 03 E8 00 01 00 00 
   249)       621.232 1  Rx        002B -  8    00 03 E8 00 6B 79 21 15 
   250)       623.749 1  Rx        001A -  8    58 00 03 E8 00 01 00 00 
   251)       626.223 1  Rx        001B -  8    00 03 E8 00 19 ED BE 64 
   252)       628.741 1  Rx        002A -  8    58 00 03 E8 00 01 00 00 
   253)       631.727 1  Rx        002B -  8    00 03 E8 00 19 ED BE 64 
   254)       633.732 1  Rx        001A -  8    59 00 03 E8 00 01 00 00 
   255)       636.249 1  Rx        001B -  8    00 03 E8 00 82 48 F2 0B 
   256)       638.724 1  Rx        002A -  8    59 00 03 E8 00 01 00 00 
   257)       641.497 1  Rx        002B -  8    00 03 E8 00 82 48 F2 0B 
   258)       643.758 1  Rx        001A -  8    5A 00 03 E8 00 01 00 00 
   259)       646.232 1  Rx        001B -  8    00 03 E8 00 F5 D6 20 FB 
   260)       648.749 1  Rx        002A -  8    5A 00 03 E8 00 01 00 00 
   261)       651.224 1  Rx        002B -  8    00 03 E8 00 F5 D6 20 FB 
   262)       653.741 1  Rx        001A -  8    5B 00 03 E8 00 01 00 00 
   263)       656.727 1  Rx        001B -  8    00 03 E8 00 6E 73 6C 94 
   264)       658.733 1  Rx        002A -  8    5B 00 03 E8 00 01 00 00 
   265)       661.250 1  Rx        002B -  8    00 03 E8 00 6E 73 6C 94 
   266)       664.236 1  Rx        001A -  8    5C 00 03 E8 00 01 00 00 
   267)       666.241 1  Rx        001B -  8    00 03 E8 00 1A EB 85 1B 
   268)       668.758 1  Rx        002A -  8    5C 00 03 E8 00 01 00 00 
   269)       671.233 1  Rx        002B -  8    00 03 E8 00 1A EB 85 1B 
   270)       673.750 1  Rx        001A -  8    5D 00 03 E8 00 01 00 00 
   271)       676.224 1  Rx        001B -  8    00 03 E8 00 81 4E C9 74 
   272)       678.742 1  Rx        002A -  8    5D 00 03 E8 00 01 00 00 
   273)       681.216 1  Rx        002B -  8    00 03 E8 00 81 4E C9 74 
   274)       683.733 1  Rx        001A -  8    5E 00 03 E8 00 01 00 00 
   275)       686.250 1  Rx        001B -  8    00 03 E8 00 F6 D0 1B 84 
   276)       689.109 1  Rx        002A -  8    5E 00 03 E8 00 01 00 00 
   277)       691.242 1  Rx        002B -  8    00 03 E8 00 F6 D0 1B 84 
   278)       693.759 1  Rx        001A -  8    5F 00 03 E8 00 01 00 00 
   279)       696.233 1  Rx        001B -  8    00 03 E8 00 6D 75 57 EB 
   280)       698.750 1  Rx        002A -  8    5F 00 03 E8 00 01 00 00 
   281)       701.225 1  Rx        002B -  8    00 03 E8 00 6D 75 57 EB 
   282)       703.742 1  Rx        001A -  8    60 00 03 E8 00 01 00 00 
   283)       706.473 1  Rx        001B -  8    00 03 E8 00 0B C8 FE 9E 
   284)       708.734 1  Rx        002A -  8    60 00 03 E8 00 01 00 00 
   285)       711.251 1  Rx        002B -  8    00 03 E8 00 0B C8 FE 9E 
   286)       713.725 1  Rx        001A -  8    61 00 03 E8 00 01 00 00 
   287)       716.242 1  Rx        001B -  8    00 03 E8 00 90 6D B2 F1 
   288)       718.717 1  Rx        002A -  8    61 00 03 E8 00 01 00 00 
   289)       721.234 1  Rx        002B -  8    00 03 E8 00 90 6D B2 F1 
   290)       723.751 1  Rx        001A -  8    62 00 03 E8 00 01 00 00 
   291)       726.225 1  Rx        001B -  8    00 03 E8 00 E7 F3 60 01 
   292)       728.743 1  Rx        002A -  8    62 00 03 E8 00 01 00 00 
   293)       731.260 1  Rx        002B -  8    00 03 E8 00 E7 F3 60 01 
   294)       733.734 1  Rx        001A -  8    63 00 03 E8 00 01 00 00 
   295)       736.209 1  Rx        001B -  8    00 03 E8 00 7C 56 2C 6E 
   296)       738.726 1  Rx        002A -  8    63 00 03 E8 00 01 00 00 
   297)       741.243 1  Rx        002B -  8    00 03 E8 00 7C 56 2C 6E 
   298)       743.760 1  Rx        001A -  8    64 00 03 E8 00 01 00 00 
   299)       746.234 1  Rx        001B -  8    00 03 E8 00 08 CE C5 E1 
   300)       748.752 1  Rx        002A -  8    64 00 03 E8 00 01 00 00 
   301)       751.226 1  Rx        002B -  8    00 03 E8 00 08 CE C5 E1 
   302)       753.743 1  Rx        001A -  8    65 00 03 E8 00 01 00 00 
   303)       756.218 1  Rx        001B -  8    00 03 E8 00 93 6B 89 8E 
   304)       758.735 1  Rx        002A -  8    65 00 03 E8 00 01 00 00 
   305)       761.209 1  Rx        002B -  8    00 03 E8 00 93 6B 89 8E 
   306)       763.726 1  Rx        001A -  8    66 00 03 E8 00 01 00 00 
   307)       766.243 1  Rx        001B -  8    00 03 E8 00 E4 F5 5B 7E 
   308)       768.718 1  Rx        002A -  8    66 00 03 E8 00 01 00 00 
   309)       771.235 1  Rx        002B -  8    00 03 E8 00 E4 F5 5B 7E 
   310)       774.093 1  Rx        001A -  8    67 00 03 E8 00 01 00 00 
   311)       776.227 1  Rx        001B -  8    00 03 E8 00 7F 50 17 11 
   312)       778.744 1  Rx        002A -  8    67 00 03 E8 00 01 00 00 
   313)       781.474 1  Rx        002B -  8    00 03 E8 00 7F 50 17 11 
   314)       783.735 1  Rx        001A -  8    68 00 03 E8 00 01 00 00 
   315)       786.252 1  Rx        001B -  8    00 03 E8 00 0D C4 88 60 
   316)       788.727 1  Rx        002A -  8    68 00 03 E8 00 01 00 00 
   317)       791.244 1  Rx        002B -  8    00 03 E8 00 0D C4 88 60 
   318)       793.718 1  Rx        001A -  8    69 00 03 E8 00 01 00 00 
   319)       796.235 1  Rx        001B -  8    00 03 E8 00 96 61 C4 0F 
   320)       798.710 1  Rx        002A -  8    69 00 03 E8 00 01 00 00 
   321)       801.227 1  Rx        002B -  8    00 03 E8 00 96 61 C4 0F 
   322)       803.744 1  Rx        001A -  8    6A 00 03 E8 00 01 00 00 
   323)       806.219 1  Rx        001B -  8    00 03 E8 00 E1 FF 16 FF 
   324)       808.736 1  Rx        002A -  8    6A 00 03 E8 00 01 00 00 
   325)       811.210 1  Rx        002B -  8    00 03 E8 00 E1 FF 16 FF 
   326)       813.727 1  Rx        001A -  8    6B 00 03 E8 00 01 00 00 
   327)       816.202 1  Rx        001B -  8    00 03 E8 00 7A 5A 5A 90 
   328)       818.719 1  Rx        002A -  8    6B 00 03 E8 00 01 00 00 
   329)       821.236 1  Rx        002B -  8    00 03 E8 00 7A 5A 5A 90 
   330)       823.710 1  Rx        001A -  8    6C 00 03 E8 00 01 00 00 
   331)       826.228 1  Rx        001B -  8    00 03 E8 00 0E C2 B3 1F 
   332)       828.745 1  Rx        002A -  8    6C 00 03 E8 00 01 00 00 
   333)       831.475 1  Rx        002B -  8    00 03 E8 00 0E C2 B3 1F 
   334)       833.736 1  Rx        001A -  8    6D 00 03 E8 00 01 00 00 
   335)       836.253 1  Rx        001B -  8    00 03 E8 00 95 67 FF 70 
   336)       838.728 1  Rx        002A -  8    6D 00 03 E8 00 01 00 00 
   337)       841.245 1  Rx        002B -  8    00 03 E8 00 95 67 FF 70 
   338)       843.719 1  Rx        001A -  8    6E 00 03 E8 00 01 00 00 
   339)       846.236 1  Rx        001B -  8    00 03 E8 00 E2 F9 2D 80 
   340)       848.754 1  Rx        002A -  8    6E 00 03 E8 00 01 00 00 
   341)       851.228 1  Rx        002B -  8    00 03 E8 00 E2 F9 2D 80 
   342)       853.703 1  Rx        001A -  8    6F 00 03 E8 00 01 00 00 
   343)       856.220 1  Rx        001B -  8    00 03 E8 00 79 5C 61 EF 
   344)       858.737 1  Rx        002A -  8    6F 00 03 E8 00 01 00 00 
   345)       861.211 1  Rx        002B -  8    00 03 E8 00 79 5C 61 EF 
   346)       863.728 1  Rx        001A -  8    70 00 03 E8 00 01 00 00 
   347)       866.245 1  Rx        001B -  8    00 03 E8 00 07 D0 13 62 
   348)       868.720 1  Rx        002A -  8    70 00 03 E8 00 01 00 00 
   349)       871.237 1  Rx        002B -  8    00 03 E8 00 07 D0 13 62 
   350)       873.711 1  Rx        001A -  8    71 00 03 E8 00 01 00 00 
   351)       876.229 1  Rx        001B -  8    00 03 E8 00 9C 75 5F 0D 
   352)       878.703 1  Rx        002A -  8    71 00 03 E8 00 01 00 00 
   353)       881.220 1  Rx        002B -  8    00 03 E8 00 9C 75 5F 0D 
   354)       883.737 1  Rx        001A -  8    72 00 03 E8 00 01 00 00 
   355)       886.212 1  Rx        001B -  8    00 03 E8 00 EB EB 8D FD 
   356)       888.729 1  Rx        002A -  8    72 00 03 E8 00 01 00 00 
   357)       891.246 1  Rx        002B -  8    00 03 E8 00 EB EB 8D FD 
   358)       893.720 1  Rx        001A -  8    73 00 03 E8 00 01 00 00 
   359)       896.238 1  Rx        001B -  8    00 03 E8 00 70 4E C1 92 
   360)       898.712 1  Rx        002A -  8    73 00 03 E8 00 01 00 00 
   361)       901.229 1  Rx        002B -  8    00 03 E8 00 70 4E C1 92 
   362)       903.746 1  Rx        001A -  8    74 00 03 E8 00 01 00 00 
   363)       906.221 1  Rx        001B -  8    00 03 E8 00 04 D6 28 1D 
   364)       908.738 1  Rx        002A -  8    74 00 03 E8 00 01 00 00 
   365)       911.212 1  Rx        002B -  8    00 03 E8 00 04 D6 28 1D 
   366)       914.241 1  Rx        001A -  8    75 00 03 E8 00 01 00 00 
   367)       916.204 1  Rx        001B -  8    00 03 E8 00 9F 73 64 72 
   368)       918.721 1  Rx        002A -  8    75 00 03 E8 00 01 00 00 
   369)       921.238 1  Rx        002B -  8    00 03 E8 00 9F 73 64 72 
   370)       923.712 1  Rx        001A -  8    76 00 03 E8 00 01 00 00 
   371)       926.230 1  Rx        001B -  8    00 03 E8 00 E8 ED B6 82 
   372)       929.259 1  Rx        002A -  8    76 00 03 E8 00 01 00 00 
   373)       931.221 1  Rx        002B -  8    00 03 E8 00 E8 ED B6 82 
   374)       933.738 1  Rx        001A -  8    77 00 03 E8 00 01 00 00 
   375)       936.213 1  Rx        001B -  8    00 03 E8 00 73 48 FA ED 
   376)       939.882 1  Rx        002A -  8    77 00 03 E8 00 01 00 00 
   377)       941.204 1  Rx        002B -  8    00 03 E8 00 73 48 FA ED 
   378)       943.721 1  Rx        001A -  8    78 00 03 E8 00 01 00 00 
   379)       946.239 1  Rx        001B -  8    00 03 E8 00 01 DC 65 9C 
   380)       948.713 1  Rx        002A -  8    78 00 03 E8 00 01 00 00 
   381)       951.230 1  Rx        002B -  8    00 03 E8 00 01 DC 65 9C 
   382)       953.705 1  Rx        001A -  8    79 00 03 E8 00 01 00 00 
   383)       956.222 1  Rx        001B -  8    00 03 E8 00 9A 79 29 F3 
   384)       958.739 1  Rx        002A -  8    79 00 03 E8 00 01 00 00 
   385)       961.213 1  Rx        002B -  8    00 03 E8 00 9A 79 29 F3 
   386)       964.242 1  Rx        001A -  8    7A 00 03 E8 00 01 00 00 
   387)       966.205 1  Rx        001B -  8    00 03 E8 00 ED E7 FB 03 
   388)       968.722 1  Rx        002A -  8    7A 00 03 E8 00 01 00 00 
   389)       971.239 1  Rx        002B -  8    00 03 E8 00 ED E7 FB 03 
   390)       973.714 1  Rx        001A -  8    7B 00 03 E8 00 01 00 00 
   391)       976.231 1  Rx        001B -  8    00 03 E8 00 76 42 B7 6C 
   392)       978.705 1  Rx        002A -  8    7B 00 03 E8 00 01 00 00 
   393)       981.222 1  Rx        002B -  8    00 03 E8 00 76 42 B7 6C 
   394)       983.739 1  Rx        001A -  8    7C 00 03 E8 00 01 00 00 
   395)       986.214 1  Rx        001B -  8    00 03 E8 00 02 DA 5E E3 
   396)       988.731 1  Rx        002A -  8    7C 00 03 E8 00 01 00 00 
   397)       991.205 1  Rx        002B -  8    00 03 E8 00 02 DA 5E E3 
   398)       993.722 1  Rx        001A -  8    7D 00 03 E8 00 01 00 00 
   399)       996.240 1  Rx        001B -  8    00 03 E8 00 99 7F 12 8C 
   400)       998.714 1  Rx        002A -  8    7D 00 03 E8 00 01 00 00 
   401)      1001.231 1  Rx        002B -  8    00 03 E8 00 99 7F 12 8C 
   402)      1003.748 1  Rx        001A -  8    7E 00 03 E8 00 01 00 00 
   403)      1006.223 1  Rx        001B -  8    00 03 E8 00 EE E1 C0 7C 
   404)      1008.740 1  Rx        002A -  8    7E 00 03 E8 00 01 00 00 
   405)      1011.214 1  Rx        002B -  8    00 03 E8 00 EE E1 C0 7C 
   406)      1013.731 1  Rx        001A -  8    7F 00 03 E8 00 01 00 00 
   407)      1016.206 1  Rx        001B -  8    00 03 E8 00 75 44 8C 13 
   408)      1018.723 1  Rx        002A -  8    7F 00 03 E8 00 01 00 00 
   409)      1021.240 1  Rx        002B -  8    00 03 E8 00 75 44 8C 13 
   410)      1023.715 1  Rx        001A -  8    80 00 03 E8 00 01 00 00 
   411)      1026.232 1  Rx        001B -  8    00 03 E8 00 43 5D FD 76 
   412)      1028.749 1  Rx        002A -  8    80 00 03 E8 00 01 00 00 
   413)      1031.735 1  Rx        002B -  8    00 03 E8 00 43 5D FD 76 
   414)      1033.740 1  Rx        001A -  8    81 00 03 E8 00 01 00 00 
   415)      1036.215 1  Rx        001B -  8    00 03 E8 00 D8 F8 B1 19 
   416)      1040.012 1  Rx        002A -  8    81 00 03 E8 00 01 00 00 
   417)      1041.206 1  Rx        002B -  8    00 03 E8 00 D8 F8 B1 19 
   418)      1043.724 1  Rx        001A -  8    82 00 03 E8 00 01 00 00 
   419)      1046.198 1  Rx        001B -  8    00 03 E8 00 AF 66 63 E9 
   420)      1048.715 1  Rx        002A -  8    82 00 03 E8 00 01 00 00 
   421)      1051.232 1  Rx        002B -  8    00 03 E8 00 AF 66 63 E9 
   422)      1053.707 1  Rx        001A -  8    83 00 03 E8 00 01 00 00 
   423)      1056.224 1  Rx        001B -  8    00 03 E8 00 34 C3 2F 86 
   424)      1058.698 1  Rx        002A -  8    83 00 03 E8 00 01 00 00 
   425)      1061.215 1  Rx        002B -  8    00 03 E8 00 34 C3 2F 86 
   426)      1064.244 1  Rx        001A -  8    84 00 03 E8 00 01 00 00 
   427)      1066.207 1  Rx        001B -  8    00 03 E8 00 40 5B C6 09 
   428)      1068.724 1  Rx        002A -  8    84 00 03 E8 00 01 00 00 
   429)      1071.198 1  Rx        002B -  8    00 03 E8 00 40 5B C6 09 
   430)      1074.100 1  Rx        001A -  8    85 00 03 E8 00 01 00 00 
   431)      1076.233 1  Rx        001B -  8    00 03 E8 00 DB FE 8A 66 
   432)      1078.707 1  Rx        002A -  8    85 00 03 E8 00 01 00 00 
   433)      1081.224 1  Rx        002B -  8    00 03 E8 00 DB FE 8A 66 
   434)      1083.741 1  Rx        001A -  8    86 00 03 E8 00 01 00 00 
   435)      1086.216 1  Rx        001B -  8    00 03 E8 00 AC 60 58 96 
   436)      1088.733 1  Rx        002A -  8    86 00 03 E8 00 01 00 00 
   437)      1091.207 1  Rx        002B -  8    00 03 E8 00 AC 60 58 96 
   438)      1093.725 1  Rx        001A -  8    87 00 03 E8 00 01 00 00 
   439)      1096.199 1  Rx        001B -  8    00 03 E8 00 37 C5 14 F9 
   440)      1098.716 1  Rx        002A -  8    87 00 03 E8 00 01 00 00 
   441)      1101.233 1  Rx        002B -  8    00 03 E8 00 37 C5 14 F9 
   442)      1103.708 1  Rx        001A -  8    88 00 03 E8 00 01 00 00 
   443)      1106.225 1  Rx        001B -  8    00 03 E8 00 45 51 8B 88 
   444)      1108.699 1  Rx        002A -  8    88 00 03 E8 00 01 00 00 
   445)      1111.216 1  Rx        002B -  8    00 03 E8 00 45 51 8B 88 
   446)      1113.734 1  Rx        001A -  8    89 00 03 E8 00 01 00 00 
   447)      1116.208 1  Rx        001B -  8    00 03 E8 00 DE F4 C7 E7 
   448)      1118.725 1  Rx        002A -  8    89 00 03 E8 00 01 00 00 
   449)      1121.200 1  Rx        002B -  8    00 03 E8 00 DE F4 C7 E7 
   450)      1123.717 1  Rx        001A -  8    8A 00 03 E8 00 01 00 00 
   451)      1126.191 1  Rx        001B -  8    00 03 E8 00 A9 6A 15 17 
   452)      1128.708 1  Rx        002A -  8    8A 00 03 E8 00 01 00 00 
   453)      1131.225 1  Rx        002B -  8    00 03 E8 00 A9 6A 15 17 
   454)      1133.700 1  Rx        001A -  8    8B 00 03 E8 00 01 00 00 
   455)      1136.217 1  Rx        001B -  8    00 03 E8 00 32 CF 59 78 
   456)      1140.270 1  Rx        002A -  8    8B 00 03 E8 00 01 00 00 
   457)      1141.208 1  Rx        002B -  8    00 03 E8 00 32 CF 59 78 
   458)      1143.726 1  Rx        001A -  8    8C 00 03 E8 00 01 00 00 
   459)      1146.456 1  Rx        001B -  8    00 03 E8 00 46 57 B0 F7 
   460)      1148.717 1  Rx        002A -  8    8C 00 03 E8 00 01 00 00 
   461)      1151.192 1  Rx        002B -  8    00 03 E8 00 46 57 B0 F7 
   462)      1153.709 1  Rx        001A -  8    8D 00 03 E8 00 01 00 00 
   463)      1156.226 1  Rx        001B -  8    00 03 E8 00 DD F2 FC 98 
   464)      1158.700 1  Rx        002A -  8    8D 00 03 E8 00 01 00 00 
   465)      1161.217 1  Rx        002B -  8    00 03 E8 00 DD F2 FC 98 
   466)      1163.692 1  Rx        001A -  8    8E 00 03 E8 00 01 00 00 
   467)      1166.209 1  Rx        001B -  8    00 03 E8 00 AA 6C 2E 68 
   468)      1168.726 1  Rx        002A -  8    8E 00 03 E8 00 01 00 00 
   469)      1171.201 1  Rx        002B -  8    00 03 E8 00 AA 6C 2E 68 
   470)      1173.718 1  Rx        001A -  8    8F 00 03 E8 00 01 00 00 
   471)      1176.192 1  Rx        001B -  8    00 03 E8 00 31 C9 62 07 
   472)      1178.709 1  Rx        002A -  8    8F 00 03 E8 00 01 00 00 
   473)      1181.226 1  Rx        002B -  8    00 03 E8 00 31 C9 62 07 
   474)      1183.701 1  Rx        001A -  8    90 00 03 E8 00 01 00 00 
   475)      1186.218 1  Rx        001B -  8    00 03 E8 00 4F 45 10 8A 
   476)      1188.692 1  Rx        002A -  8    90 00 03 E8 00 01 00 00 
   477)      1191.210 1  Rx        002B -  8    00 03 E8 00 4F 45 10 8A 
   478)      1193.727 1  Rx        001A -  8    91 00 03 E8 00 01 00 00 
   479)      1196.201 1  Rx        001B -  8    00 03 E8 00 D4 E0 5C E5 
   480)      1198.718 1  Rx        002A -  8    91 00 03 E8 00 01 00 00 
   481)      1201.193 1  Rx        002B -  8    00 03 E8 00 D4 E0 5C E5 
   482)      1203.710 1  Rx        001A -  8    92 00 03 E8 00 01 00 00 
   483)      1206.184 1  Rx        001B -  8    00 03 E8 00 A3 7E 8E 15 
   484)      1208.701 1  Rx        002A -  8    92 00 03 E8 00 01 00 00 
   485)      1211.218 1  Rx        002B -  8    00 03 E8 00 A3 7E 8E 15 
   486)      1213.693 1  Rx        001A -  8    93 00 03 E8 00 01 00 00 
   487)      1216.210 1  Rx        001B -  8    00 03 E8 00 38 DB C2 7A 
   488)      1218.727 1  Rx        002A -  8    93 00 03 E8 00 01 00 00 
   489)      1221.202 1  Rx        002B -  8    00 03 E8 00 38 DB C2 7A 
   490)      1223.719 1  Rx        001A -  8    94 00 03 E8 00 01 00 00 
   491)      1226.193 1  Rx        001B -  8    00 03 E8 00 4C 43 2B F5 
   492)      1228.710 1  Rx        002A -  8    94 00 03 E8 00 01 00 00 
   493)      1231.227 1  Rx        002B -  8    00 03 E8 00 4C 43 2B F5 
   494)      1233.702 1  Rx        001A -  8    95 00 03 E8 00 01 00 00 
   495)      1236.219 1  Rx        001B -  8    00 03 E8 00 D7 E6 67 9A 
   496)      1238.693 1  Rx        002A -  8    95 00 03 E8 00 01 00 00 
   497)      1241.211 1  Rx        002B -  8    00 03 E8 00 D7 E6 67 9A 
   498)      1243.728 1  Rx        001A -  8    96 00 03 E8 00 01 00 00 
   499)      1246.202 1  Rx        001B -  8    00 03 E8 00 A0 78 B5 6A 
   500)      1248.719 1  Rx        002A -  8    96 00 03 E8 00 01 00 00 
   501)      1251.194 1  Rx        002B -  8    00 03 E8 00 A0 78 B5 6A 
   502)      1253.711 1  Rx        001A -  8    97 00 03 E8 00 01 00 00 
   503)      1256.484 1  Rx        001B -  8    00 03 E8 00 3B DD F9 05 
   504)      1258.702 1  Rx        002A -  8    97 00 03 E8 00 01 00 00 
   505)      1261.219 1  Rx        002B -  8    00 03 E8 00 3B DD F9 05 
   506)      1263.694 1  Rx        001A -  8    98 00 03 E8 00 01 00 00 
   507)      1266.211 1  Rx        001B -  8    00 03 E8 00 49 49 66 74 
   508)      1268.728 1  Rx        002A -  8    98 00 03 E8 00 01 00 00 
   509)      1271.203 1  Rx        002B -  8    00 03 E8 00 49 49 66 74 
   510)      1273.720 1  Rx        001A -  8    99 00 03 E8 00 01 00 00 
   511)      1276.194 1  Rx        001B -  8    00 03 E8 00 D2 EC 2A 1B 
   512)      1278.711 1  Rx        002A -  8    99 00 03 E8 00 01 00 00 
   513)      1281.186 1  Rx        002B -  8    00 03 E8 00 D2 EC 2A 1B 
   514)      1283.703 1  Rx        001A -  8    9A 00 03 E8 00 01 00 00 
   515)      1286.220 1  Rx        001B -  8    00 03 E8 00 A5 72 F8 EB 
   516)      1289.462 1  Rx        002A -  8    9A 00 03 E8 00 01 00 00 
   517)      1291.212 1  Rx        002B -  8    00 03 E8 00 A5 72 F8 EB 
   518)      1293.686 1  Rx        001A -  8    9B 00 03 E8 00 01 00 00 
   519)      1296.203 1  Rx        001B -  8    00 03 E8 00 3E D7 B4 84 
   520)      1298.720 1  Rx        002A -  8    9B 00 03 E8 00 01 00 00 
   521)      1301.195 1  Rx        002B -  8    00 03 E8 00 3E D7 B4 84 
   522)      1303.712 1  Rx        001A -  8    9C 00 03 E8 00 01 00 00 
   523)      1306.186 1  Rx        001B -  8    00 03 E8 00 4A 4F 5D 0B 
   524)      1308.703 1  Rx        002A -  8    9C 00 03 E8 00 01 00 00 
   525)      1311.221 1  Rx        002B -  8    00 03 E8 00 4A 4F 5D 0B 
   526)      1313.695 1  Rx        001A -  8    9D 00 03 E8 00 01 00 00 
   527)      1316.212 1  Rx        001B -  8    00 03 E8 00 D1 EA 11 64 
   528)      1318.729 1  Rx        002A -  8    9D 00 03 E8 00 01 00 00 
   529)      1321.204 1  Rx        002B -  8    00 03 E8 00 D1 EA 11 64 
   530)      1323.721 1  Rx        001A -  8    9E 00 03 E8 00 01 00 00 
   531)      1326.195 1  Rx        001B -  8    00 03 E8 00 A6 74 C3 94 
   532)      1328.712 1  Rx        002A -  8    9E 00 03 E8 00 01 00 00 
   533)      1331.187 1  Rx        002B -  8    00 03 E8 00 A6 74 C3 94 
   534)      1333.704 1  Rx        001A -  8    9F 00 03 E8 00 01 00 00 
   535)      1336.221 1  Rx        001B -  8    00 03 E8 00 3D D1 8F FB 
   536)      1338.695 1  Rx        002A -  8    9F 00 03 E8 00 01 00 00 
   537)      1341.213 1  Rx        002B -  8    00 03 E8 00 3D D1 8F FB 
   538)      1343.687 1  Rx        001A -  8    A0 00 03 E8 00 01 00 00 
   539)      1346.204 1  Rx        001B -  8    00 03 E8 00 5B 6C 26 8E 
   540)      1348.721 1  Rx        002A -  8    A0 00 03 E8 00 01 00 00 
   541)      1351.196 1  Rx        002B -  8    00 03 E8 00 5B 6C 26 8E 
   542)      1353.713 1  Rx        001A -  8    A1 00 03 E8 00 01 00 00 
   543)      1356.486 1  Rx        001B -  8    00 03 E8 00 C0 C9 6A E1 
   544)      1358.704 1  Rx        002A -  8    A1 00 03 E8 00 01 00 00 
   545)      1361.222 1  Rx        002B -  8    00 03 E8 00 C0 C9 6A E1 
   546)      1363.696 1  Rx        001A -  8    A2 00 03 E8 00 01 00 00 
   547)      1366.213 1  Rx        001B -  8    00 03 E8 00 B7 57 B8 11 
   548)      1368.688 1  Rx        002A -  8    A2 00 03 E8 00 01 00 00 
   549)      1371.205 1  Rx        002B -  8    00 03 E8 00 B7 57 B8 11 
   550)      1373.679 1  Rx        001A -  8    A3 00 07 D0 00 02 00 00 
   551)      1376.196 1  Rx        001B -  8    00 07 D0 00 91 8E 38 74 
   552)      1378.713 1  Rx        002A -  8    A3 00 07 D0 00 02 00 00 
   553)      1381.188 1  Rx        002B -  8    00 07 D0 00 91 8E 38 74 
   554)      1383.705 1  Rx        001A -  8    A4 00 07 D0 00 02 00 00 
   555)      1386.222 1  Rx        001B -  8    00 07 D0 00 E5 16 D1 FB 
   556)      1388.697 1  Rx        002A -  8    A4 00 07 D0 00 02 00 00 
   557)      1391.214 1  Rx        002B -  8    00 07 D0 00 E5 16 D1 FB 
   558)      1393.688 1  Rx        001A -  8    A5 00 07 D0 00 02 00 00 
   559)      1396.675 1  Rx        001B -  8    00 07 D0 00 7E B3 9D 94 
   560)      1398.680 1  Rx        002A -  8    A5 00 07 D0 00 02 00 00 
   561)      1401.197 1  Rx        002B -  8    00 07 D0 00 7E B3 9D 94 
   562)      1403.714 1  Rx        001A -  8    A6 00 07 D0 00 02 00 00 
   563)      1406.188 1  Rx        001B -  8    00 07 D0 00 09 2D 4F 64 
   564)      1408.705 1  Rx        002A -  8    A6 00 07 D0 00 02 00 00 
   565)      1411.180 1  Rx        002B -  8    00 07 D0 00 09 2D 4F 64 
   566)      1415.233 1  Rx        001A -  8    A7 00 07 D0 00 02 00 00 
   567)      1416.214 1  Rx        001B -  8    00 07 D0 00 92 88 03 0B 
   568)      1418.689 1  Rx        002A -  8    A7 00 07 D0 00 02 00 00 
   569)      1421.206 1  Rx        002B -  8    00 07 D0 00 92 88 03 0B 
   570)      1423.680 1  Rx        001A -  8    A8 00 07 D0 00 02 00 00 
   571)      1426.197 1  Rx        001B -  8    00 07 D0 00 E0 1C 9C 7A 
   572)      1428.714 1  Rx        002A -  8    A8 00 07 D0 00 02 00 00 
   573)      1431.701 1  Rx        002B -  8    00 07 D0 00 E0 1C 9C 7A 
   574)      1433.706 1  Rx        001A -  8    A9 00 07 D0 00 02 00 00 
   575)      1436.180 1  Rx        001B -  8    00 07 D0 00 7B B9 D0 15 
   576)      1439.210 1  Rx        002A -  8    A9 00 07 D0 00 02 00 00 
   577)      1441.215 1  Rx        002B -  8    00 07 D0 00 7B B9 D0 15 
   578)      1443.689 1  Rx        001A -  8    AA 00 07 D0 00 02 00 00 
   579)      1446.206 1  Rx        001B -  8    00 07 D0 00 0C 27 02 E5 
   580)      1448.681 1  Rx        002A -  8    AA 00 07 D0 00 02 00 00 
   581)      1451.198 1  Rx        002B -  8    00 07 D0 00 0C 27 02 E5 
   582)      1453.715 1  Rx        001A -  8    AB 00 07 D0 00 02 00 00 
   583)      1456.189 1  Rx        001B -  8    00 07 D0 00 97 82 4E 8A 
   584)      1458.707 1  Rx        002A -  8    AB 00 07 D0 00 02 00 00 
   585)      1461.181 1  Rx        002B -  8    00 07 D0 00 97 82 4E 8A 
   586)      1464.210 1  Rx        001A -  8    AC 00 07 D0 00 02 00 00 
   587)      1466.173 1  Rx        001B -  8    00 07 D0 00 E3 1A A7 05 
   588)      1468.690 1  Rx        002A -  8    AC 00 07 D0 00 02 00 00 
   589)      1471.207 1  Rx        002B -  8    00 07 D0 00 E3 1A A7 05 
   590)      1473.681 1  Rx        001A -  8    AD 00 07 D0 00 02 00 00 
   591)      1476.198 1  Rx        001B -  8    00 07 D0 00 78 BF EB 6A 
   592)      1478.715 1  Rx        002A -  8    AD 00 07 D0 00 02 00 00 
   593)      1481.702 1  Rx        002B -  8    00 07 D0 00 78 BF EB 6A 
   594)      1483.707 1  Rx        001A -  8    AE 00 07 D0 00 02 00 00 
   595)      1486.181 1  Rx        001B -  8    00 07 D0 00 0F 21 39 9A 
   596)      1488.699 1  Rx        002A -  8    AE 00 07 D0 00 02 00 00 
   597)      1491.216 1  Rx        002B -  8    00 07 D0 00 0F 21 39 9A 
   598)      1493.690 1  Rx        001A -  8    AF 00 07 D0 00 02 00 00 
   599)      1496.207 1  Rx        001B -  8    00 07 D0 00 94 84 75 F5 
   600)      1498.682 1  Rx        002A -  8    AF 00 07 D0 00 02 00 00 
   601)      1501.199 1  Rx        002B -  8    00 07 D0 00 94 84 75 F5 
   602)      1503.716 1  Rx        001A -  8    B0 00 07 D0 00 02 00 00 
   603)      1506.190 1  Rx        001B -  8    00 07 D0 00 EA 08 07 78 
   604)      1508.713 1  Rx        002A -  8    B0 00 07 D0 00 02 00 00 
   605)      1511.187 1  Rx        002B -  8    00 07 D0 00 EA 08 07 78 
   606)      1513.704 1  Rx        001A -  8    B1 00 07 D0 00 02 00 00 
   607)      1516.179 1  Rx        001B -  8    00 07 D0 00 71 AD 4B 17 
   608)      1518.696 1  Rx        002A -  8    B1 00 07 D0 00 02 00 00 
   609)      1521.213 1  Rx        002B -  8    00 07 D0 00 71 AD 4B 17 
   610)      1523.687 1  Rx        001A -  8    B2 00 07 D0 00 02 00 00 
   611)      1526.204 1  Rx        001B -  8    00 07 D0 00 06 33 99 E7 
   612)      1528.679 1  Rx        002A -  8    B2 00 07 D0 00 02 00 00 
   613)      1531.708 1  Rx        002B -  8    00 07 D0 00 06 33 99 E7 
   614)      1533.713 1  Rx        001A -  8    B3 00 07 D0 00 02 00 00 
   615)      1536.188 1  Rx        001B -  8    00 07 D0 00 9D 96 D5 88 
   616)      1539.217 1  Rx        002A -  8    B3 00 07 D0 00 02 00 00 
   617)      1541.179 1  Rx        002B -  8    00 07 D0 00 9D 96 D5 88 
   618)      1543.696 1  Rx        001A -  8    B4 00 07 D0 00 02 00 00 
   619)      1546.213 1  Rx        001B -  8    00 07 D0 00 E9 0E 3C 07 
   620)      1548.688 1  Rx        002A -  8    B4 00 07 D0 00 02 00 00 
   621)      1551.205 1  Rx        002B -  8    00 07 D0 00 E9 0E 3C 07 
   622)      1553.679 1  Rx        001A -  8    B5 00 07 D0 00 02 00 00 
   623)      1556.708 1  Rx        001B -  8    00 07 D0 00 72 AB 70 68 
   624)      1558.714 1  Rx        002A -  8    B5 00 07 D0 00 02 00 00 
   625)      1561.188 1  Rx        002B -  8    00 07 D0 00 72 AB 70 68 
   626)      1563.705 1  Rx        001A -  8    B6 00 07 D0 00 02 00 00 
   627)      1566.180 1  Rx        001B -  8    00 07 D0 00 05 35 A2 98 
   628)      1568.697 1  Rx        002A -  8    B6 00 07 D0 00 02 00 00 
   629)      1571.214 1  Rx        002B -  8    00 07 D0 00 05 35 A2 98 
   630)      1573.688 1  Rx        001A -  8    B7 00 07 D0 00 02 00 00 
   631)      1576.205 1  Rx        001B -  8    00 07 D0 00 9E 90 EE F7 
   632)      1578.680 1  Rx        002A -  8    B7 00 07 D0 00 02 00 00 
   633)      1581.197 1  Rx        002B -  8    00 07 D0 00 9E 90 EE F7 
   634)      1583.714 1  Rx        001A -  8    B8 00 07 D0 00 02 00 00 
   635)      1586.189 1  Rx        001B -  8    00 07 D0 00 EC 04 71 86 
   636)      1588.706 1  Rx        002A -  8    B8 00 07 D0 00 02 00 00 
   637)      1591.180 1  Rx        002B -  8    00 07 D0 00 EC 04 71 86 
   638)      1593.697 1  Rx        001A -  8    B9 00 07 D0 00 02 00 00 
   639)      1596.172 1  Rx        001B -  8    00 07 D0 00 77 A1 3D E9 
   640)      1598.689 1  Rx        002A -  8    B9 00 07 D0 00 02 00 00 
   641)      1601.206 1  Rx        002B -  8    00 07 D0 00 77 A1 3D E9 
   642)      1603.680 1  Rx        001A -  8    BA 00 07 D0 00 02 00 00 
   643)      1606.709 1  Rx        001B -  8    00 07 D0 00 00 3F EF 19 
   644)      1608.672 1  Rx        002A -  8    BA 00 07 D0 00 02 00 00 
   645)      1611.189 1  Rx        002B -  8    00 07 D0 00 00 3F EF 19 
   646)      1613.706 1  Rx        001A -  8    BB 00 07 D0 00 02 00 00 
   647)      1616.181 1  Rx        001B -  8    00 07 D0 00 9B 9A A3 76 
   648)      1618.698 1  Rx        002A -  8    BB 00 07 D0 00 02 00 00 
   649)      1621.215 1  Rx        002B -  8    00 07 D0 00 9B 9A A3 76 
   650)      1623.689 1  Rx        001A -  8    BC 00 07 D0 00 02 00 00 
   651)      1626.206 1  Rx        001B -  8    00 07 D0 00 EF 02 4A F9 
   652)      1628.681 1  Rx        002A -  8    BC 00 07 D0 00 02 00 00 
   653)      1631.710 1  Rx        002B -  8    00 07 D0 00 EF 02 4A F9 
   654)      1633.715 1  Rx        001A -  8    BD 00 07 D0 00 02 00 00 
   655)      1636.190 1  Rx        001B -  8    00 07 D0 00 74 A7 06 96 
   656)      1638.707 1  Rx        002A -  8    BD 00 07 D0 00 02 00 00 
   657)      1641.181 1  Rx        002B -  8    00 07 D0 00 74 A7 06 96 
   658)      1643.698 1  Rx        001A -  8    BE 00 07 D0 00 02 00 00 
   659)      1646.173 1  Rx        001B -  8    00 07 D0 00 03 39 D4 66 
   660)      1648.690 1  Rx        002A -  8    BE 00 07 D0 00 02 00 00 
   661)      1651.207 1  Rx        002B -  8    00 07 D0 00 03 39 D4 66 
   662)      1653.681 1  Rx        001A -  8    BF 00 07 D0 00 02 00 00 
   663)      1656.711 1  Rx        001B -  8    00 07 D0 00 98 9C 98 09 
   664)      1658.673 1  Rx        002A -  8    BF 00 07 D0 00 02 00 00 
   665)      1661.190 1  Rx        002B -  8    00 07 D0 00 98 9C 98 09 
   666)      1663.707 1  Rx        001A -  8    C0 00 07 D0 00 02 00 00 
   667)      1666.182 1  Rx        001B -  8    00 07 D0 00 CE 42 86 8C 
   668)      1668.699 1  Rx        002A -  8    C0 00 07 D0 00 02 00 00 
   669)      1671.173 1  Rx        002B -  8    00 07 D0 00 CE 42 86 8C 
   670)      1673.690 1  Rx        001A -  8    C1 00 07 D0 00 02 00 00 
   671)      1676.207 1  Rx        001B -  8    00 07 D0 00 55 E7 CA E3 
   672)      1678.682 1  Rx        002A -  8    C1 00 07 D0 00 02 00 00 
   673)      1681.199 1  Rx        002B -  8    00 07 D0 00 55 E7 CA E3 
   674)      1683.674 1  Rx        001A -  8    C2 00 07 D0 00 02 00 00 
   675)      1686.191 1  Rx        001B -  8    00 07 D0 00 22 79 18 13 
   676)      1688.665 1  Rx        002A -  8    C2 00 07 D0 00 02 00 00 
   677)      1691.182 1  Rx        002B -  8    00 07 D0 00 22 79 18 13 
   678)      1693.699 1  Rx        001A -  8    C3 00 07 D0 00 02 00 00 
   679)      1696.174 1  Rx        001B -  8    00 07 D0 00 B9 DC 54 7C 
   680)      1698.691 1  Rx        002A -  8    C3 00 07 D0 00 02 00 00 
   681)      1701.208 1  Rx        002B -  8    00 07 D0 00 B9 DC 54 7C 
   682)      1703.682 1  Rx        001A -  8    C4 00 07 D0 00 02 00 00 
   683)      1706.712 1  Rx        001B -  8    00 07 D0 00 CD 44 BD F3 
   684)      1708.674 1  Rx        002A -  8    C4 00 07 D0 00 02 00 00 
   685)      1711.191 1  Rx        002B -  8    00 07 D0 00 CD 44 BD F3 
   686)      1713.666 1  Rx        001A -  8    C5 00 07 D0 00 02 00 00 
   687)      1716.183 1  Rx        001B -  8    00 07 D0 00 56 E1 F1 9C 
   688)      1718.700 1  Rx        002A -  8    C5 00 07 D0 00 02 00 00 
   689)      1721.174 1  Rx        002B -  8    00 07 D0 00 56 E1 F1 9C 
   690)      1723.691 1  Rx        001A -  8    C6 00 07 D0 00 02 00 00 
   691)      1726.166 1  Rx        001B -  8    00 07 D0 00 21 7F 23 6C 
   692)      1728.683 1  Rx        002A -  8    C6 00 07 D0 00 02 00 00 
   693)      1731.200 1  Rx        002B -  8    00 07 D0 00 21 7F 23 6C 
   694)      1733.675 1  Rx        001A -  8    C7 00 07 D0 00 02 00 00 
   695)      1736.192 1  Rx        001B -  8    00 07 D0 00 BA DA 6F 03 
   696)      1738.709 1  Rx        002A -  8    C7 00 07 D0 00 02 00 00 
   697)      1741.183 1  Rx        002B -  8    00 07 D0 00 BA DA 6F 03 
   698)      1743.700 1  Rx        001A -  8    C8 00 07 D0 00 02 00 00 
   699)      1746.175 1  Rx        001B -  8    00 07 D0 00 C8 4E F0 72 
   700)      1748.692 1  Rx        002A -  8    C8 00 07 D0 00 02 00 00 
   701)      1751.166 1  Rx        002B -  8    00 07 D0 00 C8 4E F0 72 
   702)      1753.684 1  Rx        001A -  8    C9 00 07 D0 00 02 00 00 
   703)      1756.201 1  Rx        001B -  8    00 07 D0 00 53 EB BC 1D 
   704)      1758.675 1  Rx        002A -  8    C9 00 07 D0 00 02 00 00 
   705)      1761.192 1  Rx        002B -  8    00 07 D0 00 53 EB BC 1D 
   706)      1763.667 1  Rx        001A -  8    CA 00 07 D0 00 02 00 00 
   707)      1766.184 1  Rx        001B -  8    00 07 D0 00 24 75 6E ED 
   708)      1768.701 1  Rx        002A -  8    CA 00 07 D0 00 02 00 00 
   709)      1771.175 1  Rx        002B -  8    00 07 D0 00 24 75 6E ED 
   710)      1773.692 1  Rx        001A -  8    CB 00 07 D0 00 02 00 00 
   711)      1776.210 1  Rx        001B -  8    00 07 D0 00 BF D0 22 82 
   712)      1778.684 1  Rx        002A -  8    CB 00 07 D0 00 02 00 00 
   713)      1781.201 1  Rx        002B -  8    00 07 D0 00 BF D0 22 82 
   714)      1783.676 1  Rx        001A -  8    CC 00 07 D0 00 02 00 00 
   715)      1786.193 1  Rx        001B -  8    00 07 D0 00 CB 48 CB 0D 
   716)      1788.667 1  Rx        002A -  8    CC 00 07 D0 00 02 00 00 
   717)      1791.184 1  Rx        002B -  8    00 07 D0 00 CB 48 CB 0D 
   718)      1793.701 1  Rx        001A -  8    CD 00 07 D0 00 02 00 00 
   719)      1796.176 1  Rx        001B -  8    00 07 D0 00 50 ED 87 62 
   720)      1798.693 1  Rx        002A -  8    CD 00 07 D0 00 02 00 00 
   721)      1801.167 1  Rx        002B -  8    00 07 D0 00 50 ED 87 62 
   722)      1803.685 1  Rx        001A -  8    CE 00 07 D0 00 02 00 00 
   723)      1806.671 1  Rx        001B -  8    00 07 D0 00 27 73 55 92 
   724)      1808.676 1  Rx        002A -  8    CE 00 07 D0 00 02 00 00 
   725)      1811.193 1  Rx        002B -  8    00 07 D0 00 27 73 55 92 
   726)      1814.052 1  Rx        001A -  8    CF 00 07 D0 00 02 00 00 
   727)      1816.185 1  Rx        001B -  8    00 07 D0 00 BC D6 19 FD 
   728)      1818.702 1  Rx        002A -  8    CF 00 07 D0 00 02 00 00 
   729)      1821.176 1  Rx        002B -  8    00 07 D0 00 BC D6 19 FD 
   730)      1823.693 1  Rx        001A -  8    D0 00 07 D0 00 02 00 00 
   731)      1826.168 1  Rx        001B -  8    00 07 D0 00 C2 5A 6B 70 
   732)      1828.685 1  Rx        002A -  8    D0 00 07 D0 00 02 00 00 
   733)      1831.160 1  Rx        002B -  8    00 07 D0 00 C2 5A 6B 70 
   734)      1833.677 1  Rx        001A -  8    D1 00 07 D0 00 02 00 00 
   735)      1836.194 1  Rx        001B -  8    00 07 D0 00 59 FF 27 1F 
   736)      1838.668 1  Rx        002A -  8    D1 00 07 D0 00 02 00 00 
   737)      1841.185 1  Rx        002B -  8    00 07 D0 00 59 FF 27 1F 
   738)      1843.660 1  Rx        001A -  8    D2 00 07 D0 00 02 00 00 
   739)      1846.177 1  Rx        001B -  8    00 07 D0 00 2E 61 F5 EF 
   740)      1848.694 1  Rx        002A -  8    D2 00 07 D0 00 02 00 00 
   741)      1851.168 1  Rx        002B -  8    00 07 D0 00 2E 61 F5 EF 
   742)      1853.686 1  Rx        001A -  8    D3 00 07 D0 00 02 00 00 
   743)      1856.160 1  Rx        001B -  8    00 07 D0 00 B5 C4 B9 80 
   744)      1858.677 1  Rx        002A -  8    D3 00 07 D0 00 02 00 00 
   745)      1861.194 1  Rx        002B -  8    00 07 D0 00 B5 C4 B9 80 
   746)      1863.669 1  Rx        001A -  8    D4 00 07 D0 00 02 00 00 
   747)      1866.186 1  Rx        001B -  8    00 07 D0 00 C1 5C 50 0F 
   748)      1868.703 1  Rx        002A -  8    D4 00 07 D0 00 02 00 00 
   749)      1871.177 1  Rx        002B -  8    00 07 D0 00 C1 5C 50 0F 
   750)      1873.695 1  Rx        001A -  8    D5 00 07 D0 00 02 00 00 
   751)      1876.169 1  Rx        001B -  8    00 07 D0 00 5A F9 1C 60 
   752)      1878.686 1  Rx        002A -  8    D5 00 07 D0 00 02 00 00 
   753)      1881.161 1  Rx        002B -  8    00 07 D0 00 5A F9 1C 60 
   754)      1883.678 1  Rx        001A -  8    D6 00 07 D0 00 02 00 00 
   755)      1886.195 1  Rx        001B -  8    00 07 D0 00 2D 67 CE 90 
   756)      1889.181 1  Rx        002A -  8    D6 00 07 D0 00 02 00 00 
   757)      1891.186 1  Rx        002B -  8    00 07 D0 00 2D 67 CE 90 
   758)      1893.661 1  Rx        001A -  8    D7 00 07 D0 00 02 00 00 
   759)      1896.178 1  Rx        001B -  8    00 07 D0 00 B6 C2 82 FF 
   760)      1898.695 1  Rx        002A -  8    D7 00 07 D0 00 02 00 00 
   761)      1901.169 1  Rx        002B -  8    00 07 D0 00 B6 C2 82 FF 
   762)      1903.687 1  Rx        001A -  8    D8 00 07 D0 00 02 00 00 
   763)      1906.929 1  Rx        001B -  8    00 07 D0 00 C4 56 1D 8E 
   764)      1908.678 1  Rx        002A -  8    D8 00 07 D0 00 02 00 00 
   765)      1911.153 1  Rx        002B -  8    00 07 D0 00 C4 56 1D 8E 
   766)      1913.670 1  Rx        001A -  8    D9 00 07 D0 00 02 00 00 
   767)      1916.187 1  Rx        001B -  8    00 07 D0 00 5F F3 51 E1 
   768)      1918.661 1  Rx        002A -  8    D9 00 07 D0 00 02 00 00 
   769)      1921.178 1  Rx        002B -  8    00 07 D0 00 5F F3 51 E1 
   770)      1923.696 1  Rx        001A -  8    DA 00 07 D0 00 02 00 00 
   771)      1926.170 1  Rx        001B -  8    00 07 D0 00 28 6D 83 11 
   772)      1928.687 1  Rx        002A -  8    DA 00 07 D0 00 02 00 00 
   773)      1931.162 1  Rx        002B -  8    00 07 D0 00 28 6D 83 11 
   774)      1933.679 1  Rx        001A -  8    DB 00 07 D0 00 02 00 00 
   775)      1936.153 1  Rx        001B -  8    00 07 D0 00 B3 C8 CF 7E 
   776)      1938.670 1  Rx        002A -  8    DB 00 07 D0 00 02 00 00 
   777)      1941.187 1  Rx        002B -  8    00 07 D0 00 B3 C8 CF 7E 
   778)      1943.705 1  Rx        001A -  8    DC 00 07 D0 00 02 00 00 
   779)      1946.179 1  Rx        001B -  8    00 07 D0 00 C7 50 26 F1 
   780)      1948.696 1  Rx        002A -  8    DC 00 07 D0 00 02 00 00 
   781)      1951.171 1  Rx        002B -  8    00 07 D0 00 C7 50 26 F1 
   782)      1953.688 1  Rx        001A -  8    DD 00 07 D0 00 02 00 00 
   783)      1956.162 1  Rx        001B -  8    00 07 D0 00 5C F5 6A 9E 
   784)      1958.679 1  Rx        002A -  8    DD 00 07 D0 00 02 00 00 
   785)      1961.154 1  Rx        002B -  8    00 07 D0 00 5C F5 6A 9E 
   786)      1963.969 1  Rx        001A -  8    DE 00 07 D0 00 02 00 00 
   787)      1966.188 1  Rx        001B -  8    00 07 D0 00 2B 6B B8 6E 
   788)      1968.662 1  Rx        002A -  8    DE 00 07 D0 00 02 00 00 
   789)      1971.179 1  Rx        002B -  8    00 07 D0 00 2B 6B B8 6E 
   790)      1973.697 1  Rx        001A -  8    DF 00 07 D0 00 02 00 00 
   791)      1976.171 1  Rx        001B -  8    00 07 D0 00 B0 CE F4 01 
   792)      1978.688 1  Rx        002A -  8    DF 00 07 D0 00 02 00 00 
   793)      1981.163 1  Rx        002B -  8    00 07 D0 00 B0 CE F4 01 
   794)      1983.680 1  Rx        001A -  8    E0 00 07 D0 00 02 00 00 
   795)      1986.154 1  Rx        001B -  8    00 07 D0 00 D6 73 5D 74 
   796)      1989.354 1  Rx        002A -  8    E0 00 07 D0 00 02 00 00 
   797)      1991.188 1  Rx        002B -  8    00 07 D0 00 D6 73 5D 74 
   798)      1993.663 1  Rx        001A -  8    E1 00 07 D0 00 02 00 00 
   799)      1996.180 1  Rx        001B -  8    00 07 D0 00 4D D6 11 1B 
   800)      1998.654 1  Rx        002A -  8    E1 00 07 D0 00 02 00 00 
   801)      2001.172 1  Rx        002B -  8    00 07 D0 00 4D D6 11 1B 
   802)      2003.689 1  Rx        001A -  8    E2 00 07 D0 00 02 00 00 
   803)      2006.675 1  Rx        001B -  8    00 07 D0 00 3A 48 C3 EB 
   804)      2008.680 1  Rx        002A -  8    E2 00 07 D0 00 02 00 00 
   805)      2011.155 1  Rx        002B -  8    00 07 D0 00 3A 48 C3 EB 
   806)      2014.696 1  Rx        001A -  8    E3 00 07 D0 00 02 00 00 
   807)      2016.189 1  Rx        001B -  8    00 07 D0 00 A1 ED 8F 84 
   808)      2018.663 1  Rx        002A -  8    E3 00 07 D0 00 02 00 00 
   809)      2021.181 1  Rx        002B -  8    00 07 D0 00 A1 ED 8F 84 
   810)      2023.655 1  Rx        001A -  8    E4 00 07 D0 00 02 00 00 
   811)      2026.172 1  Rx        001B -  8    00 07 D0 00 D5 75 66 0B 
   812)      2028.689 1  Rx        002A -  8    E4 00 07 D0 00 02 00 00 
   813)      2031.420 1  Rx        002B -  8    00 07 D0 00 D5 75 66 0B 
   814)      2033.681 1  Rx        001A -  8    E5 00 07 D0 00 02 00 00 
   815)      2036.155 1  Rx        001B -  8    00 07 D0 00 4E D0 2A 64 
   816)      2039.184 1  Rx        002A -  8    E5 00 07 D0 00 02 00 00 
   817)      2041.189 1  Rx        002B -  8    00 07 D0 00 4E D0 2A 64 
   818)      2043.664 1  Rx        001A -  8    E6 00 07 D0 00 02 00 00 
   819)      2046.181 1  Rx        001B -  8    00 07 D0 00 39 4E F8 94 
   820)      2048.655 1  Rx        002A -  8    E6 00 07 D0 00 02 00 00 
   821)      2051.173 1  Rx        002B -  8    00 07 D0 00 39 4E F8 94 
   822)      2053.690 1  Rx        001A -  8    E7 00 07 D0 00 02 00 00 
   823)      2056.164 1  Rx        001B -  8    00 07 D0 00 A2 EB B4 FB 
   824)      2058.681 1  Rx        002A -  8    E7 00 07 D0 00 02 00 00 
   825)      2061.156 1  Rx        002B -  8    00 07 D0 00 A2 EB B4 FB 
   826)      2064.057 1  Rx        001A -  8    E8 00 07 D0 00 02 00 00 
   827)      2066.190 1  Rx        001B -  8    00 07 D0 00 D0 7F 2B 8A 
   828)      2068.664 1  Rx        002A -  8    E8 00 07 D0 00 02 00 00 
   829)      2071.182 1  Rx        002B -  8    00 07 D0 00 D0 7F 2B 8A 
   830)      2073.656 1  Rx        001A -  8    E9 00 07 D0 00 02 00 00 
   831)      2076.173 1  Rx        001B -  8    00 07 D0 00 4B DA 67 E5 
   832)      2078.690 1  Rx        002A -  8    E9 00 07 D0 00 02 00 00 
   833)      2081.165 1  Rx        002B -  8    00 07 D0 00 4B DA 67 E5 
   834)      2083.682 1  Rx        001A -  8    EA 00 07 D0 00 02 00 00 
   835)      2086.156 1  Rx        001B -  8    00 07 D0 00 3C 44 B5 15 
   836)      2088.673 1  Rx        002A -  8    EA 00 07 D0 00 02 00 00 
   837)      2091.148 1  Rx        002B -  8    00 07 D0 00 3C 44 B5 15 
   838)      2093.665 1  Rx        001A -  8    EB 00 07 D0 00 02 00 00 
   839)      2096.182 1  Rx        001B -  8    00 07 D0 00 A7 E1 F9 7A 
   840)      2098.657 1  Rx        002A -  8    EB 00 07 D0 00 02 00 00 
   841)      2101.174 1  Rx        002B -  8    00 07 D0 00 A7 E1 F9 7A 
   842)      2103.691 1  Rx        001A -  8    EC 00 07 D0 00 02 00 00 
   843)      2106.165 1  Rx        001B -  8    00 07 D0 00 D3 79 10 F5 
   844)      2108.682 1  Rx        002A -  8    EC 00 07 D0 00 02 00 00 
   845)      2111.157 1  Rx        002B -  8    00 07 D0 00 D3 79 10 F5 
   846)      2113.674 1  Rx        001A -  8    ED 00 07 D0 00 02 00 00 
   847)      2116.148 1  Rx        001B -  8    00 07 D0 00 48 DC 5C 9A 
   848)      2118.665 1  Rx        002A -  8    ED 00 07 D0 00 02 00 00 
   849)      2121.183 1  Rx        002B -  8    00 07 D0 00 48 DC 5C 9A 
   850)      2123.657 1  Rx        001A -  8    EE 00 07 D0 00 02 00 00 
   851)      2126.174 1  Rx        001B -  8    00 07 D0 00 3F 42 8E 6A 
   852)      2128.649 1  Rx        002A -  8    EE 00 07 D0 00 02 00 00 
   853)      2131.166 1  Rx        002B -  8    00 07 D0 00 3F 42 8E 6A 
   854)      2133.683 1  Rx        001A -  8    EF 00 07 D0 00 02 00 00 
   855)      2136.157 1  Rx        001B -  8    00 07 D0 00 A4 E7 C2 05 
   856)      2138.674 1  Rx        002A -  8    EF 00 07 D0 00 02 00 00 
   857)      2141.192 1  Rx        002B -  8    00 07 D0 00 A4 E7 C2 05 
   858)      2143.666 1  Rx        001A -  8    F0 00 07 D0 00 02 00 00 
   859)      2146.140 1  Rx        001B -  8    00 07 D0 00 DA 6B B0 88 
   860)      2148.658 1  Rx        002A -  8    F0 00 07 D0 00 02 00 00 
   861)      2151.175 1  Rx        002B -  8    00 07 D0 00 DA 6B B0 88 
   862)      2153.649 1  Rx        001A -  8    F1 00 07 D0 00 02 00 00 
   863)      2156.166 1  Rx        001B -  8    00 07 D0 00 41 CE FC E7 
   864)      2158.641 1  Rx        002A -  8    F1 00 07 D0 00 02 00 00 
   865)      2161.158 1  Rx        002B -  8    00 07 D0 00 41 CE FC E7 
   866)      2164.187 1  Rx        001A -  8    F2 00 07 D0 00 02 00 00 
   867)      2166.149 1  Rx        001B -  8    00 07 D0 00 36 50 2E 17 
   868)      2168.667 1  Rx        002A -  8    F2 00 07 D0 00 02 00 00 
   869)      2171.184 1  Rx        002B -  8    00 07 D0 00 36 50 2E 17 
   870)      2173.658 1  Rx        001A -  8    F3 00 07 D0 00 02 00 00 
   871)      2176.175 1  Rx        001B -  8    00 07 D0 00 AD F5 62 78 
   872)      2178.650 1  Rx        002A -  8    F3 00 07 D0 00 02 00 00 
   873)      2181.423 1  Rx        002B -  8    00 07 D0 00 AD F5 62 78 
   874)      2183.684 1  Rx        001A -  8    F4 00 07 D0 00 02 00 00 
   875)      2186.158 1  Rx        001B -  8    00 07 D0 00 D9 6D 8B F7 
   876)      2188.675 1  Rx        002A -  8    F4 00 07 D0 00 02 00 00 
   877)      2191.150 1  Rx        002B -  8    00 07 D0 00 D9 6D 8B F7 
   878)      2193.667 1  Rx        001A -  8    F5 00 07 D0 00 02 00 00 
   879)      2196.141 1  Rx        001B -  8    00 07 D0 00 42 C8 C7 98 
   880)      2198.659 1  Rx        002A -  8    F5 00 07 D0 00 02 00 00 
   881)      2201.176 1  Rx        002B -  8    00 07 D0 00 42 C8 C7 98 
   882)      2203.650 1  Rx        001A -  8    F6 00 07 D0 00 02 00 00 
   883)      2206.167 1  Rx        001B -  8    00 07 D0 00 35 56 15 68 
   884)      2208.642 1  Rx        002A -  8    F6 00 07 D0 00 02 00 00 
   885)      2211.159 1  Rx        002B -  8    00 07 D0 00 35 56 15 68 
   886)      2213.676 1  Rx        001A -  8    F7 00 07 D0 00 02 00 00 
   887)      2216.150 1  Rx        001B -  8    00 07 D0 00 AE F3 59 07 
   888)      2218.668 1  Rx        002A -  8    F7 00 07 D0 00 02 00 00 
   889)      2221.185 1  Rx        002B -  8    00 07 D0 00 AE F3 59 07 
   890)      2223.659 1  Rx        001A -  8    F8 00 07 D0 00 02 00 00 
   891)      2226.176 1  Rx        001B -  8    00 07 D0 00 DC 67 C6 76 
   892)      2228.651 1  Rx        002A -  8    F8 00 07 D0 00 02 00 00 
   893)      2231.424 1  Rx        002B -  8    00 07 D0 00 DC 67 C6 76 
   894)      2233.685 1  Rx        001A -  8    F9 00 07 D0 00 02 00 00 
   895)      2236.159 1  Rx        001B -  8    00 07 D0 00 47 C2 8A 19 
   896)      2238.676 1  Rx        002A -  8    F9 00 07 D0 00 02 00 00 
   897)      2241.151 1  Rx        002B -  8    00 07 D0 00 47 C2 8A 19 
   898)      2243.668 1  Rx        001A -  8    FA 00 07 D0 00 02 00 00 
   899)      2246.143 1  Rx        001B -  8    00 07 D0 00 30 5C 58 E9 
   900)      2248.660 1  Rx        002A -  8    FA 00 07 D0 00 02 00 00 
   901)      2251.177 1  Rx        002B -  8    00 07 D0 00 30 5C 58 E9 
   902)      2253.651 1  Rx        001A -  8    FB 00 07 D0 00 02 00 00 
   903)      2256.424 1  Rx        001B -  8    00 07 D0 00 AB F9 14 86 
   904)      2258.685 1  Rx        002A -  8    FB 00 07 D0 00 02 00 00 
   905)      2261.160 1  Rx        002B -  8    00 07 D0 00 AB F9 14 86 
   906)      2263.677 1  Rx        001A -  8    FC 00 07 D0 00 02 00 00 
   907)      2266.151 1  Rx        001B -  8    00 07 D0 00 DF 61 FD 09 
   908)      2268.669 1  Rx        002A -  8    FC 00 07 D0 00 02 00 00 
   909)      2271.143 1  Rx        002B -  8    00 07 D0 00 DF 61 FD 09 
   910)      2273.660 1  Rx        001A -  8    FD 00 07 D0 00 02 00 00 
   911)      2276.135 1  Rx        001B -  8    00 07 D0 00 44 C4 B1 66 
   912)      2278.652 1  Rx        002A -  8    FD 00 07 D0 00 02 00 00 
   913)      2281.681 1  Rx        002B -  8    00 07 D0 00 44 C4 B1 66 
   914)      2283.643 1  Rx        001A -  8    FE 00 07 D0 00 02 00 00 
   915)      2286.160 1  Rx        001B -  8    00 07 D0 00 33 5A 63 96 
   916)      2288.678 1  Rx        002A -  8    FE 00 07 D0 00 02 00 00 
   917)      2291.152 1  Rx        002B -  8    00 07 D0 00 33 5A 63 96 
   918)      2293.669 1  Rx        001A -  8    FF 00 07 D0 00 02 00 00 
   919)      2296.144 1  Rx        001B -  8    00 07 D0 00 A8 FF 2F F9 
   920)      2298.661 1  Rx        002A -  8    FF 00 07 D0 00 02 00 00 
   921)      2301.178 1  Rx        002B -  8    00 07 D0 00 A8 FF 2F F9 
   922)      2303.652 1  Rx        001A -  8    00 00 07 D0 00 02 00 00 
   923)      2306.169 1  Rx        001B -  8    00 07 D0 00 9E E6 5E 9C 
   924)      2308.644 1  Rx        002A -  8    00 00 07 D0 00 02 00 00 
   925)      2311.161 1  Rx        002B -  8    00 07 D0 00 9E E6 5E 9C 
   926)      2313.678 1  Rx        001A -  8    01 00 07 D0 00 02 00 00 
   927)      2316.152 1  Rx        001B -  8    00 07 D0 00 05 43 12 F3 
   928)      2318.670 1  Rx        002A -  8    01 00 07 D0 00 02 00 00 
   929)      2321.144 1  Rx        002B -  8    00 07 D0 00 05 43 12 F3 
   930)      2323.661 1  Rx        001A -  8    02 00 07 D0 00 02 00 00 
   931)      2326.178 1  Rx        001B -  8    00 07 D0 00 72 DD C0 03 
   932)      2328.653 1  Rx        002A -  8    02 00 07 D0 00 02 00 00 
   933)      2331.170 1  Rx        002B -  8    00 07 D0 00 72 DD C0 03 
   934)      2333.644 1  Rx        001A -  8    03 00 07 D0 00 02 00 00 
   935)      2336.161 1  Rx        001B -  8    00 07 D0 00 E9 78 8C 6C 
   936)      2338.679 1  Rx        002A -  8    03 00 07 D0 00 02 00 00 
   937)      2341.153 1  Rx        002B -  8    00 07 D0 00 E9 78 8C 6C 
   938)      2343.670 1  Rx        001A -  8    04 00 07 D0 00 02 00 00 
   939)      2346.145 1  Rx        001B -  8    00 07 D0 00 9D E0 65 E3 
   940)      2348.662 1  Rx        002A -  8    04 00 07 D0 00 02 00 00 
   941)      2351.136 1  Rx        002B -  8    00 07 D0 00 9D E0 65 E3 
   942)      2353.653 1  Rx        001A -  8    05 00 07 D0 00 02 00 00 
   943)      2356.896 1  Rx        001B -  8    00 07 D0 00 06 45 29 8C 
   944)      2358.645 1  Rx        002A -  8    05 00 07 D0 00 02 00 00 
   945)      2361.162 1  Rx        002B -  8    00 07 D0 00 06 45 29 8C 
   946)      2363.636 1  Rx        001A -  8    06 00 07 D0 00 02 00 00 
   947)      2366.154 1  Rx        001B -  8    00 07 D0 00 71 DB FB 7C 
   948)      2368.671 1  Rx        002A -  8    06 00 07 D0 00 02 00 00 
   949)      2371.145 1  Rx        002B -  8    00 07 D0 00 71 DB FB 7C 
   950)      2373.662 1  Rx        001A -  8    07 00 0B B8 00 03 00 00 
   951)      2376.137 1  Rx        001B -  8    00 0B B8 00 15 B0 67 5E 
   952)      2378.654 1  Rx        002A -  8    07 00 0B B8 00 03 00 00 
   953)      2381.128 1  Rx        002B -  8    00 0B B8 00 15 B0 67 5E 
   954)      2383.645 1  Rx        001A -  8    08 00 0B B8 00 03 00 00 
   955)      2386.162 1  Rx        001B -  8    00 0B B8 00 67 24 F8 2F 
   956)      2389.064 1  Rx        002A -  8    08 00 0B B8 00 03 00 00 
   957)      2391.154 1  Rx        002B -  8    00 0B B8 00 67 24 F8 2F 
   958)      2393.671 1  Rx        001A -  8    09 00 0B B8 00 03 00 00 
   959)      2396.146 1  Rx        001B -  8    00 0B B8 00 FC 81 B4 40 
   960)      2398.663 1  Rx        002A -  8    09 00 0B B8 00 03 00 00 
   961)      2401.137 1  Rx        002B -  8    00 0B B8 00 FC 81 B4 40 
   962)      2403.654 1  Rx        001A -  8    0A 00 0B B8 00 03 00 00 
   963)      2406.171 1  Rx        001B -  8    00 0B B8 00 8B 1F 66 B0 
   964)      2408.646 1  Rx        002A -  8    0A 00 0B B8 00 03 00 00 
   965)      2411.163 1  Rx        002B -  8    00 0B B8 00 8B 1F 66 B0 
   966)      2413.637 1  Rx        001A -  8    0B 00 0B B8 00 03 00 00 
   967)      2416.155 1  Rx        001B -  8    00 0B B8 00 10 BA 2A DF 
   968)      2418.672 1  Rx        002A -  8    0B 00 0B B8 00 03 00 00 
   969)      2421.146 1  Rx        002B -  8    00 0B B8 00 10 BA 2A DF 
   970)      2423.663 1  Rx        001A -  8    0C 00 0B B8 00 03 00 00 
   971)      2426.138 1  Rx        001B -  8    00 0B B8 00 64 22 C3 50 
   972)      2428.655 1  Rx        002A -  8    0C 00 0B B8 00 03 00 00 
   973)      2431.641 1  Rx        002B -  8    00 0B B8 00 64 22 C3 50 
   974)      2433.646 1  Rx        001A -  8    0D 00 0B B8 00 03 00 00 
   975)      2436.164 1  Rx        001B -  8    00 0B B8 00 FF 87 8F 3F 
   976)      2438.638 1  Rx        002A -  8    0D 00 0B B8 00 03 00 00 
   977)      2441.155 1  Rx        002B -  8    00 0B B8 00 FF 87 8F 3F 
   978)      2443.672 1  Rx        001A -  8    0E 00 0B B8 00 03 00 00 
   979)      2446.147 1  Rx        001B -  8    00 0B B8 00 88 19 5D CF 
   980)      2448.664 1  Rx        002A -  8    0E 00 0B B8 00 03 00 00 
   981)      2451.138 1  Rx        002B -  8    00 0B B8 00 88 19 5D CF 
   982)      2453.655 1  Rx        001A -  8    0F 00 0B B8 00 03 00 00 
   983)      2456.172 1  Rx        001B -  8    00 0B B8 00 13 BC 11 A0 
   984)      2458.647 1  Rx        002A -  8    0F 00 0B B8 00 03 00 00 
   985)      2461.164 1  Rx        002B -  8    00 0B B8 00 13 BC 11 A0 
   986)      2464.065 1  Rx        001A -  8    10 00 0B B8 00 03 00 00 
   987)      2466.156 1  Rx        001B -  8    00 0B B8 00 6D 30 63 2D 
   988)      2468.630 1  Rx        002A -  8    10 00 0B B8 00 03 00 00 
   989)      2471.147 1  Rx        002B -  8    00 0B B8 00 6D 30 63 2D 
   990)      2473.664 1  Rx        001A -  8    11 00 0B B8 00 03 00 00 
   991)      2476.139 1  Rx        001B -  8    00 0B B8 00 F6 95 2F 42 
   992)      2478.656 1  Rx        002A -  8    11 00 0B B8 00 03 00 00 
   993)      2481.130 1  Rx        002B -  8    00 0B B8 00 F6 95 2F 42 
   994)      2483.647 1  Rx        001A -  8    12 00 0B B8 00 03 00 00 
   995)      2486.165 1  Rx        001B -  8    00 0B B8 00 81 0B FD B2 
   996)      2488.639 1  Rx        002A -  8    12 00 0B B8 00 03 00 00 
   997)      2491.156 1  Rx        002B -  8    00 0B B8 00 81 0B FD B2 
   998)      2493.631 1  Rx        001A -  8    13 00 0B B8 00 03 00 00 
   999)      2496.148 1  Rx        001B -  8    00 0B B8 00 1A AE B1 DD 
  1000)      2498.665 1  Rx        002A -  8    13 00 0B B8 00 03 00 00 
  1001)      2501.139 1  Rx        002B -  8    00 0B B8 00 1A AE B1 DD 
  1002)      2503.656 1  Rx        001A -  8    14 00 0B B8 00 03 00 00 
  1003)      2506.131 1  Rx        001B -  8    00 0B B8 00 6E 36 58 52 
  1004)      2508.648 1  Rx        002A -  8    14 00 0B B8 00 03 00 00 
  1005)      2511.122 1  Rx        002B -  8    00 0B B8 00 6E 36 58 52 
  1006)      2513.640 1  Rx        001A -  8    15 00 0B B8 00 03 00 00 
  1007)      2516.157 1  Rx        001B -  8    00 0B B8 00 F5 93 14 3D 
  1008)      2518.631 1  Rx        002A -  8    15 00 0B B8 00 03 00 00 
  1009)      2521.148 1  Rx        002B -  8    00 0B B8 00 F5 93 14 3D 
  1010)      2523.665 1  Rx        001A -  8    16 00 0B B8 00 03 00 00 
  1011)      2526.140 1  Rx        001B -  8    00 0B B8 00 82 0D C6 CD 
  1012)      2528.657 1  Rx        002A -  8    16 00 0B B8 00 03 00 00 
  1013)      2531.131 1  Rx        002B -  8    00 0B B8 00 82 0D C6 CD 
  1014)      2533.648 1  Rx        001A -  8    17 00 0B B8 00 03 00 00 
  1015)      2536.123 1  Rx        001B -  8    00 0B B8 00 19 A8 8A A2 
  1016)      2538.640 1  Rx        002A -  8    17 00 0B B8 00 03 00 00 
  1017)      2541.157 1  Rx        002B -  8    00 0B B8 00 19 A8 8A A2 
  1018)      2543.632 1  Rx        001A -  8    18 00 0B B8 00 03 00 00 
  1019)      2546.149 1  Rx        001B -  8    00 0B B8 00 6B 3C 15 D3 
  1020)      2548.666 1  Rx        002A -  8    18 00 0B B8 00 03 00 00 
  1021)      2551.140 1  Rx        002B -  8    00 0B B8 00 6B 3C 15 D3 
  1022)      2553.657 1  Rx        001A -  8    19 00 0B B8 00 03 00 00 
  1023)      2556.080 1  Rx        001B -  8    00 0B B8 00 F0 99 59 BC 
  1024)      2558.597 1  Rx        002A -  8    19 00 0B B8 00 03 00 00 
  1025)      2561.071 1  Rx        002B -  8    00 0B B8 00 F0 99 59 BC 
  1026)      2563.589 1  Rx        001A -  8    1A 00 0B B8 00 03 00 00 
  1027)      2566.106 1  Rx        001B -  8    00 0B B8 00 87 07 8B 4C 
  1028)      2568.580 1  Rx        002A -  8    1A 00 0B B8 00 03 00 00 
  1029)      2571.097 1  Rx        002B -  8    00 0B B8 00 87 07 8B 4C 
  1030)      2573.572 1  Rx        001A -  8    1B 00 0B B8 00 03 00 00 
  1031)      2576.089 1  Rx        001B -  8    00 0B B8 00 1C A2 C7 23 
  1032)      2578.606 1  Rx        002A -  8    1B 00 0B B8 00 03 00 00 
  1033)      2581.592 1  Rx        002B -  8    00 0B B8 00 1C A2 C7 23 
  1034)      2583.598 1  Rx        001A -  8    1C 00 0B B8 00 03 00 00 
  1035)      2586.072 1  Rx        001B -  8    00 0B B8 00 68 3A 2E AC 
  1036)      2588.973 1  Rx        002A -  8    1C 00 0B B8 00 03 00 00 
  1037)      2591.106 1  Rx        002B -  8    00 0B B8 00 68 3A 2E AC 
  1038)      2593.581 1  Rx        001A -  8    1D 00 0B B8 00 03 00 00 
  1039)      2596.098 1  Rx        001B -  8    00 0B B8 00 F3 9F 62 C3 
  1040)      2598.572 1  Rx        002A -  8    1D 00 0B B8 00 03 00 00 
  1041)      2601.089 1  Rx        002B -  8    00 0B B8 00 F3 9F 62 C3 
  1042)      2603.606 1  Rx        001A -  8    1E 00 0B B8 00 03 00 00 
  1043)      2606.081 1  Rx        001B -  8    00 0B B8 00 84 01 B0 33 
  1044)      2608.982 1  Rx        002A -  8    1E 00 0B B8 00 03 00 00 
  1045)      2611.115 1  Rx        002B -  8    00 0B B8 00 84 01 B0 33 
  1046)      2614.102 1  Rx        001A -  8    1F 00 0B B8 00 03 00 00 
  1047)      2616.320 1  Rx        001B -  8    00 0B B8 00 1F A4 FC 5C 
  1048)      2618.581 1  Rx        002A -  8    1F 00 0B B8 00 03 00 00 
  1049)      2621.098 1  Rx        002B -  8    00 0B B8 00 1F A4 FC 5C 
  1050)      2623.615 1  Rx        001A -  8    20 00 0B B8 00 03 00 00 
  1051)      2626.090 1  Rx        001B -  8    00 0B B8 00 79 19 55 29 
  1052)      2628.607 1  Rx        002A -  8    20 00 0B B8 00 03 00 00 
  1053)      2631.081 1  Rx        002B -  8    00 0B B8 00 79 19 55 29 
  1054)      2633.599 1  Rx        001A -  8    21 00 0B B8 00 03 00 00 
  1055)      2636.073 1  Rx        001B -  8    00 0B B8 00 E2 BC 19 46 
  1056)      2638.590 1  Rx        002A -  8    21 00 0B B8 00 03 00 00 
  1057)      2641.107 1  Rx        002B -  8    00 0B B8 00 E2 BC 19 46 
  1058)      2643.582 1  Rx        001A -  8    22 00 0B B8 00 03 00 00 
  1059)      2646.099 1  Rx        001B -  8    00 0B B8 00 95 22 CB B6 
  1060)      2648.573 1  Rx        002A -  8    22 00 0B B8 00 03 00 00 
  1061)      2651.090 1  Rx        002B -  8    00 0B B8 00 95 22 CB B6 
  1062)      2653.565 1  Rx        001A -  8    23 00 0B B8 00 03 00 00 
  1063)      2656.082 1  Rx        001B -  8    00 0B B8 00 0E 87 87 D9 
  1064)      2658.599 1  Rx        002A -  8    23 00 0B B8 00 03 00 00 
  1065)      2661.074 1  Rx        002B -  8    00 0B B8 00 0E 87 87 D9 
  1066)      2663.591 1  Rx        001A -  8    24 00 0B B8 00 03 00 00 
  1067)      2666.065 1  Rx        001B -  8    00 0B B8 00 7A 1F 6E 56 
  1068)      2668.582 1  Rx        002A -  8    24 00 0B B8 00 03 00 00 
  1069)      2671.099 1  Rx        002B -  8    00 0B B8 00 7A 1F 6E 56 
  1070)      2673.574 1  Rx        001A -  8    25 00 0B B8 00 03 00 00 
  1071)      2676.091 1  Rx        001B -  8    00 0B B8 00 E1 BA 22 39 
  1072)      2678.608 1  Rx        002A -  8    25 00 0B B8 00 03 00 00 
  1073)      2681.082 1  Rx        002B -  8    00 0B B8 00 E1 BA 22 39 
  1074)      2683.600 1  Rx        001A -  8    26 00 0B B8 00 03 00 00 
  1075)      2686.074 1  Rx        001B -  8    00 0B B8 00 96 24 F0 C9 
  1076)      2688.591 1  Rx        002A -  8    26 00 0B B8 00 03 00 00 
  1077)      2691.066 1  Rx        002B -  8    00 0B B8 00 96 24 F0 C9 
  1078)      2693.583 1  Rx        001A -  8    27 00 0B B8 00 03 00 00 
  1079)      2696.100 1  Rx        001B -  8    00 0B B8 00 0D 81 BC A6 
  1080)      2698.574 1  Rx        002A -  8    27 00 0B B8 00 03 00 00 
  1081)      2701.091 1  Rx        002B -  8    00 0B B8 00 0D 81 BC A6 
  1082)      2703.566 1  Rx        001A -  8    28 00 0B B8 00 03 00 00 
  1083)      2706.083 1  Rx        001B -  8    00 0B B8 00 7F 15 23 D7 
  1084)      2708.600 1  Rx        002A -  8    28 00 0B B8 00 03 00 00 
  1085)      2711.075 1  Rx        002B -  8    00 0B B8 00 7F 15 23 D7 
  1086)      2714.104 1  Rx        001A -  8    29 00 0B B8 00 03 00 00 
  1087)      2716.066 1  Rx        001B -  8    00 0B B8 00 E4 B0 6F B8 
  1088)      2718.583 1  Rx        002A -  8    29 00 0B B8 00 03 00 00 
  1089)      2721.100 1  Rx        002B -  8    00 0B B8 00 E4 B0 6F B8 
  1090)      2723.575 1  Rx        001A -  8    2A 00 0B B8 00 03 00 00 
  1091)      2726.092 1  Rx        001B -  8    00 0B B8 00 93 2E BD 48 
  1092)      2728.566 1  Rx        002A -  8    2A 00 0B B8 00 03 00 00 
  1093)      2731.083 1  Rx        002B -  8    00 0B B8 00 93 2E BD 48 
  1094)      2733.601 1  Rx        001A -  8    2B 00 0B B8 00 03 00 00 
  1095)      2736.075 1  Rx        001B -  8    00 0B B8 00 08 8B F1 27 
  1096)      2738.592 1  Rx        002A -  8    2B 00 0B B8 00 03 00 00 
  1097)      2741.067 1  Rx        002B -  8    00 0B B8 00 08 8B F1 27 
  1098)      2743.584 1  Rx        001A -  8    2C 00 0B B8 00 03 00 00 
  1099)      2746.101 1  Rx        001B -  8    00 0B B8 00 7C 13 18 A8 
  1100)      2748.575 1  Rx        002A -  8    2C 00 0B B8 00 03 00 00 
  1101)      2751.092 1  Rx        002B -  8    00 0B B8 00 7C 13 18 A8 
  1102)      2753.567 1  Rx        001A -  8    2D 00 0B B8 00 03 00 00 
  1103)      2756.084 1  Rx        001B -  8    00 0B B8 00 E7 B6 54 C7 
  1104)      2758.601 1  Rx        002A -  8    2D 00 0B B8 00 03 00 00 
  1105)      2761.076 1  Rx        002B -  8    00 0B B8 00 E7 B6 54 C7 
  1106)      2764.062 1  Rx        001A -  8    2E 00 0B B8 00 03 00 00 
  1107)      2766.067 1  Rx        001B -  8    00 0B B8 00 90 28 86 37 
  1108)      2768.584 1  Rx        002A -  8    2E 00 0B B8 00 03 00 00 
  1109)      2771.059 1  Rx        002B -  8    00 0B B8 00 90 28 86 37 
  1110)      2773.576 1  Rx        001A -  8    2F 00 0B B8 00 03 00 00 
  1111)      2776.093 1  Rx        001B -  8    00 0B B8 00 0B 8D CA 58 
  1112)      2778.567 1  Rx        002A -  8    2F 00 0B B8 00 03 00 00 
  1113)      2781.085 1  Rx        002B -  8    00 0B B8 00 0B 8D CA 58 
  1114)      2783.602 1  Rx        001A -  8    30 00 0B B8 00 03 00 00 
  1115)      2786.076 1  Rx        001B -  8    00 0B B8 00 75 01 B8 D5 
  1116)      2788.593 1  Rx        002A -  8    30 00 0B B8 00 03 00 00 
  1117)      2791.068 1  Rx        002B -  8    00 0B B8 00 75 01 B8 D5 
  1118)      2793.585 1  Rx        001A -  8    31 00 0B B8 00 03 00 00 
  1119)      2796.059 1  Rx        001B -  8    00 0B B8 00 EE A4 F4 BA 
  1120)      2798.576 1  Rx        002A -  8    31 00 0B B8 00 03 00 00 
  1121)      2801.051 1  Rx        002B -  8    00 0B B8 00 EE A4 F4 BA 
  1122)      2803.568 1  Rx        001A -  8    32 00 0B B8 00 03 00 00 
  1123)      2806.341 1  Rx        001B -  8    00 0B B8 00 99 3A 26 4A 
  1124)      2808.560 1  Rx        002A -  8    32 00 0B B8 00 03 00 00 
  1125)      2811.077 1  Rx        002B -  8    00 0B B8 00 99 3A 26 4A 
  1126)      2814.106 1  Rx        001A -  8    33 00 0B B8 00 03 00 00 
  1127)      2816.068 1  Rx        001B -  8    00 0B B8 00 02 9F 6A 25 
  1128)      2818.585 1  Rx        002A -  8    33 00 0B B8 00 03 00 00 
  1129)      2821.060 1  Rx        002B -  8    00 0B B8 00 02 9F 6A 25 
  1130)      2823.577 1  Rx        001A -  8    34 00 0B B8 00 03 00 00 
  1131)      2826.094 1  Rx        001B -  8    00 0B B8 00 76 07 83 AA 
  1132)      2828.568 1  Rx        002A -  8    34 00 0B B8 00 03 00 00 
  1133)      2831.598 1  Rx        002B -  8    00 0B B8 00 76 07 83 AA 
  1134)      2833.560 1  Rx        001A -  8    35 00 0B B8 00 03 00 00 
  1135)      2836.077 1  Rx        001B -  8    00 0B B8 00 ED A2 CF C5 
  1136)      2838.594 1  Rx        002A -  8    35 00 0B B8 00 03 00 00 
  1137)      2841.069 1  Rx        002B -  8    00 0B B8 00 ED A2 CF C5 
  1138)      2843.586 1  Rx        001A -  8    36 00 0B B8 00 03 00 00 
  1139)      2846.572 1  Rx        001B -  8    00 0B B8 00 9A 3C 1D 35 
  1140)      2848.577 1  Rx        002A -  8    36 00 0B B8 00 03 00 00 
  1141)      2851.095 1  Rx        002B -  8    00 0B B8 00 9A 3C 1D 35 
  1142)      2853.569 1  Rx        001A -  8    37 00 0B B8 00 03 00 00 
  1143)      2856.086 1  Rx        001B -  8    00 0B B8 00 01 99 51 5A 
  1144)      2858.561 1  Rx        002A -  8    37 00 0B B8 00 03 00 00 
  1145)      2861.078 1  Rx        002B -  8    00 0B B8 00 01 99 51 5A 
  1146)      2863.595 1  Rx        001A -  8    38 00 0B B8 00 03 00 00 
  1147)      2866.069 1  Rx        001B -  8    00 0B B8 00 73 0D CE 2B 
  1148)      2868.586 1  Rx        002A -  8    38 00 0B B8 00 03 00 00 
  1149)      2871.061 1  Rx        002B -  8    00 0B B8 00 73 0D CE 2B 
  1150)      2873.578 1  Rx        001A -  8    39 00 0B B8 00 03 00 00 
  1151)      2876.095 1  Rx        001B -  8    00 0B B8 00 E8 A8 82 44 
  1152)      2878.569 1  Rx        002A -  8    39 00 0B B8 00 03 00 00 
  1153)      2881.599 1  Rx        002B -  8    00 0B B8 00 E8 A8 82 44 
  1154)      2883.561 1  Rx        001A -  8    3A 00 0B B8 00 03 00 00 
  1155)      2886.078 1  Rx        001B -  8    00 0B B8 00 9F 36 50 B4 
  1156)      2890.003 1  Rx        002A -  8    3A 00 0B B8 00 03 00 00 
  1157)      2891.070 1  Rx        002B -  8    00 0B B8 00 9F 36 50 B4 
  1158)      2893.587 1  Rx        001A -  8    3B 00 0B B8 00 03 00 00 
  1159)      2896.061 1  Rx        001B -  8    00 0B B8 00 04 93 1C DB 
  1160)      2898.578 1  Rx        002A -  8    3B 00 0B B8 00 03 00 00 
  1161)      2901.096 1  Rx        002B -  8    00 0B B8 00 04 93 1C DB 
  1162)      2903.570 1  Rx        001A -  8    3C 00 0B B8 00 03 00 00 
  1163)      2907.111 1  Rx        001B -  8    00 0B B8 00 70 0B F5 54 
  1164)      2908.562 1  Rx        002A -  8    3C 00 0B B8 00 03 00 00 
  1165)      2911.079 1  Rx        002B -  8    00 0B B8 00 70 0B F5 54 
  1166)      2913.596 1  Rx        001A -  8    3D 00 0B B8 00 03 00 00 
  1167)      2916.070 1  Rx        001B -  8    00 0B B8 00 EB AE B9 3B 
  1168)      2918.587 1  Rx        002A -  8    3D 00 0B B8 00 03 00 00 
  1169)      2921.062 1  Rx        002B -  8    00 0B B8 00 EB AE B9 3B 
  1170)      2923.579 1  Rx        001A -  8    3E 00 0B B8 00 03 00 00 
  1171)      2926.053 1  Rx        001B -  8    00 0B B8 00 9C 30 6B CB 
  1172)      2928.571 1  Rx        002A -  8    3E 00 0B B8 00 03 00 00 
  1173)      2931.600 1  Rx        002B -  8    00 0B B8 00 9C 30 6B CB 
  1174)      2933.562 1  Rx        001A -  8    3F 00 0B B8 00 03 00 00 
  1175)      2936.079 1  Rx        001B -  8    00 0B B8 00 07 95 27 A4 
  1176)      2940.260 1  Rx        002A -  8    3F 00 0B B8 00 03 00 00 
  1177)      2941.071 1  Rx        002B -  8    00 0B B8 00 07 95 27 A4 
  1178)      2943.588 1  Rx        001A -  8    40 00 0B B8 00 03 00 00 
  1179)      2946.062 1  Rx        001B -  8    00 0B B8 00 51 4B 39 21 
  1180)      2948.579 1  Rx        002A -  8    40 00 0B B8 00 03 00 00 
  1181)      2951.054 1  Rx        002B -  8    00 0B B8 00 51 4B 39 21 
  1182)      2953.571 1  Rx        001A -  8    41 00 0B B8 00 03 00 00 
  1183)      2956.045 1  Rx        001B -  8    00 0B B8 00 CA EE 75 4E 
  1184)      2958.563 1  Rx        002A -  8    41 00 0B B8 00 03 00 00 
  1185)      2961.080 1  Rx        002B -  8    00 0B B8 00 CA EE 75 4E 
  1186)      2963.554 1  Rx        001A -  8    42 00 0B B8 00 03 00 00 
  1187)      2966.071 1  Rx        001B -  8    00 0B B8 00 BD 70 A7 BE 
  1188)      2968.588 1  Rx        002A -  8    42 00 0B B8 00 03 00 00 
  1189)      2971.063 1  Rx        002B -  8    00 0B B8 00 BD 70 A7 BE 
  1190)      2973.580 1  Rx        001A -  8    43 00 0B B8 00 03 00 00 
  1191)      2976.054 1  Rx        001B -  8    00 0B B8 00 26 D5 EB D1 
  1192)      2978.572 1  Rx        002A -  8    43 00 0B B8 00 03 00 00 
  1193)      2981.046 1  Rx        002B -  8    00 0B B8 00 26 D5 EB D1 
  1194)      2983.563 1  Rx        001A -  8    44 00 0B B8 00 03 00 00 
  1195)      2986.080 1  Rx        001B -  8    00 0B B8 00 52 4D 02 5E 
  1196)      2988.555 1  Rx        002A -  8    44 00 0B B8 00 03 00 00 
  1197)      2991.072 1  Rx        002B -  8    00 0B B8 00 52 4D 02 5E 
  1198)      2993.546 1  Rx        001A -  8    45 00 0B B8 00 03 00 00 
  1199)      2996.063 1  Rx        001B -  8    00 0B B8 00 C9 E8 4E 31 
  1200)      2998.581 1  Rx        002A -  8    45 00 0B B8 00 03 00 00 
  1201)      3001.055 1  Rx        002B -  8    00 0B B8 00 C9 E8 4E 31 
  1202)      3003.572 1  Rx        001A -  8    46 00 0B B8 00 03 00 00 
  1203)      3006.089 1  Rx        001B -  8    00 0B B8 00 BE 76 9C C1 
  1204)      3008.564 1  Rx        002A -  8    46 00 0B B8 00 03 00 00 
  1205)      3011.081 1  Rx        002B -  8    00 0B B8 00 BE 76 9C C1 
  1206)      3013.939 1  Rx        001A -  8    47 00 0B B8 00 03 00 00 
  1207)      3016.072 1  Rx        001B -  8    00 0B B8 00 25 D3 D0 AE 
  1208)      3018.547 1  Rx        002A -  8    47 00 0B B8 00 03 00 00 
  1209)      3021.064 1  Rx        002B -  8    00 0B B8 00 25 D3 D0 AE 
  1210)      3023.581 1  Rx        001A -  8    48 00 0B B8 00 03 00 00 
  1211)      3026.055 1  Rx        001B -  8    00 0B B8 00 57 47 4F DF 
  1212)      3028.573 1  Rx        002A -  8    48 00 0B B8 00 03 00 00 
  1213)      3031.090 1  Rx        002B -  8    00 0B B8 00 57 47 4F DF 
  1214)      3033.564 1  Rx        001A -  8    49 00 0B B8 00 03 00 00 
  1215)      3036.081 1  Rx        001B -  8    00 0B B8 00 CC E2 03 B0 
  1216)      3040.476 1  Rx        002A -  8    49 00 0B B8 00 03 00 00 
  1217)      3041.073 1  Rx        002B -  8    00 0B B8 00 CC E2 03 B0 
  1218)      3043.547 1  Rx        001A -  8    4A 00 0B B8 00 03 00 00 
  1219)      3046.064 1  Rx        001B -  8    00 0B B8 00 BB 7C D1 40 
  1220)      3048.582 1  Rx        002A -  8    4A 00 0B B8 00 03 00 00 
  1221)      3051.056 1  Rx        002B -  8    00 0B B8 00 BB 7C D1 40 
  1222)      3053.573 1  Rx        001A -  8    4B 00 0B B8 00 03 00 00 
  1223)      3056.090 1  Rx        001B -  8    00 0B B8 00 20 D9 9D 2F 
  1224)      3058.565 1  Rx        002A -  8    4B 00 0B B8 00 03 00 00 
  1225)      3061.082 1  Rx        002B -  8    00 0B B8 00 20 D9 9D 2F 
  1226)      3064.068 1  Rx        001A -  8    4C 00 0B B8 00 03 00 00 
  1227)      3066.073 1  Rx        001B -  8    00 0B B8 00 54 41 74 A0 
  1228)      3068.590 1  Rx        002A -  8    4C 00 0B B8 00 03 00 00 
  1229)      3071.065 1  Rx        002B -  8    00 0B B8 00 54 41 74 A0 
  1230)      3073.582 1  Rx        001A -  8    4D 00 0B B8 00 03 00 00 
  1231)      3076.057 1  Rx        001B -  8    00 0B B8 00 CF E4 38 CF 
  1232)      3078.574 1  Rx        002A -  8    4D 00 0B B8 00 03 00 00 
  1233)      3081.048 1  Rx        002B -  8    00 0B B8 00 CF E4 38 CF 
  1234)      3083.565 1  Rx        001A -  8    4E 00 0B B8 00 03 00 00 
  1235)      3086.082 1  Rx        001B -  8    00 0B B8 00 B8 7A EA 3F 
  1236)      3088.557 1  Rx        002A -  8    4E 00 0B B8 00 03 00 00 
  1237)      3091.074 1  Rx        002B -  8    00 0B B8 00 B8 7A EA 3F 
  1238)      3093.548 1  Rx        001A -  8    4F 00 0B B8 00 03 00 00 
  1239)      3096.065 1  Rx        001B -  8    00 0B B8 00 23 DF A6 50 
  1240)      3098.540 1  Rx        002A -  8    4F 00 0B B8 00 03 00 00 
  1241)      3101.057 1  Rx        002B -  8    00 0B B8 00 23 DF A6 50 
  1242)      3103.574 1  Rx        001A -  8    50 00 0B B8 00 03 00 00 
  1243)      3106.049 1  Rx        001B -  8    00 0B B8 00 5D 53 D4 DD 
  1244)      3108.566 1  Rx        002A -  8    50 00 0B B8 00 03 00 00 
  1245)      3111.083 1  Rx        002B -  8    00 0B B8 00 5D 53 D4 DD 
  1246)      3113.557 1  Rx        001A -  8    51 00 0B B8 00 03 00 00 
  1247)      3116.074 1  Rx        001B -  8    00 0B B8 00 C6 F6 98 B2 
  1248)      3118.549 1  Rx        002A -  8    51 00 0B B8 00 03 00 00 
  1249)      3121.066 1  Rx        002B -  8    00 0B B8 00 C6 F6 98 B2 
  1250)      3123.540 1  Rx        001A -  8    52 00 0B B8 00 03 00 00 
  1251)      3126.058 1  Rx        001B -  8    00 0B B8 00 B1 68 4A 42 
  1252)      3128.575 1  Rx        002A -  8    52 00 0B B8 00 03 00 00 
  1253)      3131.049 1  Rx        002B -  8    00 0B B8 00 B1 68 4A 42 
  1254)      3133.566 1  Rx        001A -  8    53 00 0B B8 00 03 00 00 
  1255)      3136.041 1  Rx        001B -  8    00 0B B8 00 2A CD 06 2D 
  1256)      3138.558 1  Rx        002A -  8    53 00 0B B8 00 03 00 00 
  1257)      3141.075 1  Rx        002B -  8    00 0B B8 00 2A CD 06 2D 
  1258)      3143.549 1  Rx        001A -  8    54 00 0B B8 00 03 00 00 
  1259)      3146.066 1  Rx        001B -  8    00 0B B8 00 5E 55 EF A2 
  1260)      3148.541 1  Rx        002A -  8    54 00 0B B8 00 03 00 00 
  1261)      3151.058 1  Rx        002B -  8    00 0B B8 00 5E 55 EF A2 
  1262)      3153.575 1  Rx        001A -  8    55 00 0B B8 00 03 00 00 
  1263)      3156.050 1  Rx        001B -  8    00 0B B8 00 C5 F0 A3 CD 
  1264)      3158.567 1  Rx        002A -  8    55 00 0B B8 00 03 00 00 
  1265)      3161.084 1  Rx        002B -  8    00 0B B8 00 C5 F0 A3 CD 
  1266)      3164.070 1  Rx        001A -  8    56 00 0B B8 00 03 00 00 
  1267)      3166.033 1  Rx        001B -  8    00 0B B8 00 B2 6E 71 3D 
  1268)      3168.550 1  Rx        002A -  8    56 00 0B B8 00 03 00 00 
  1269)      3171.067 1  Rx        002B -  8    00 0B B8 00 B2 6E 71 3D 
  1270)      3173.541 1  Rx        001A -  8    57 00 0B B8 00 03 00 00 
  1271)      3176.059 1  Rx        001B -  8    00 0B B8 00 29 CB 3D 52 
  1272)      3178.576 1  Rx        002A -  8    57 00 0B B8 00 03 00 00 
  1273)      3181.050 1  Rx        002B -  8    00 0B B8 00 29 CB 3D 52 
  1274)      3183.567 1  Rx        001A -  8    58 00 0B B8 00 03 00 00 
  1275)      3186.042 1  Rx        001B -  8    00 0B B8 00 5B 5F A2 23 
  1276)      3188.559 1  Rx        002A -  8    58 00 0B B8 00 03 00 00 
  1277)      3191.076 1  Rx        002B -  8    00 0B B8 00 5B 5F A2 23 
  1278)      3193.550 1  Rx        001A -  8    59 00 0B B8 00 03 00 00 
  1279)      3196.068 1  Rx        001B -  8    00 0B B8 00 C0 FA EE 4C 
  1280)      3198.542 1  Rx        002A -  8    59 00 0B B8 00 03 00 00 
  1281)      3201.059 1  Rx        002B -  8    00 0B B8 00 C0 FA EE 4C 
  1282)      3203.576 1  Rx        001A -  8    5A 00 0B B8 00 03 00 00 
  1283)      3206.819 1  Rx        001B -  8    00 0B B8 00 B7 64 3C BC 
  1284)      3208.568 1  Rx        002A -  8    5A 00 0B B8 00 03 00 00 
  1285)      3211.042 1  Rx        002B -  8    00 0B B8 00 B7 64 3C BC 
  1286)      3213.559 1  Rx        001A -  8    5B 00 0B B8 00 03 00 00 
  1287)      3216.076 1  Rx        001B -  8    00 0B B8 00 2C C1 70 D3 
  1288)      3218.551 1  Rx        002A -  8    5B 00 0B B8 00 03 00 00 
  1289)      3221.068 1  Rx        002B -  8    00 0B B8 00 2C C1 70 D3 
  1290)      3223.543 1  Rx        001A -  8    5C 00 0B B8 00 03 00 00 
  1291)      3226.060 1  Rx        001B -  8    00 0B B8 00 58 59 99 5C 
  1292)      3228.534 1  Rx        002A -  8    5C 00 0B B8 00 03 00 00 
  1293)      3231.051 1  Rx        002B -  8    00 0B B8 00 58 59 99 5C 
  1294)      3233.568 1  Rx        001A -  8    5D 00 0B B8 00 03 00 00 
  1295)      3236.043 1  Rx        001B -  8    00 0B B8 00 C3 FC D5 33 
  1296)      3238.560 1  Rx        002A -  8    5D 00 0B B8 00 03 00 00 
  1297)      3241.034 1  Rx        002B -  8    00 0B B8 00 C3 FC D5 33 
  1298)      3243.551 1  Rx        001A -  8    5E 00 0B B8 00 03 00 00 
  1299)      3246.069 1  Rx        001B -  8    00 0B B8 00 B4 62 07 C3 
  1300)      3248.543 1  Rx        002A -  8    5E 00 0B B8 00 03 00 00 
  1301)      3251.060 1  Rx        002B -  8    00 0B B8 00 B4 62 07 C3 
  1302)      3253.577 1  Rx        001A -  8    5F 00 0B B8 00 03 00 00 
  1303)      3256.052 1  Rx        001B -  8    00 0B B8 00 2F C7 4B AC 
  1304)      3258.569 1  Rx        002A -  8    5F 00 0B B8 00 03 00 00 
  1305)      3261.043 1  Rx        002B -  8    00 0B B8 00 2F C7 4B AC 
  1306)      3263.560 1  Rx        001A -  8    60 00 0B B8 00 03 00 00 
  1307)      3266.035 1  Rx        001B -  8    00 0B B8 00 49 7A E2 D9 
  1308)      3268.552 1  Rx        002A -  8    60 00 0B B8 00 03 00 00 
  1309)      3271.069 1  Rx        002B -  8    00 0B B8 00 49 7A E2 D9 
  1310)      3273.544 1  Rx        001A -  8    61 00 0B B8 00 03 00 00 
  1311)      3276.061 1  Rx        001B -  8    00 0B B8 00 D2 DF AE B6 
  1312)      3278.535 1  Rx        002A -  8    61 00 0B B8 00 03 00 00 
  1313)      3281.052 1  Rx        002B -  8    00 0B B8 00 D2 DF AE B6 
  1314)      3283.569 1  Rx        001A -  8    62 00 0B B8 00 03 00 00 
  1315)      3286.044 1  Rx        001B -  8    00 0B B8 00 A5 41 7C 46 
  1316)      3288.561 1  Rx        002A -  8    62 00 0B B8 00 03 00 00 
  1317)      3291.078 1  Rx        002B -  8    00 0B B8 00 A5 41 7C 46 
  1318)      3293.552 1  Rx        001A -  8    63 00 0B B8 00 03 00 00 
  1319)      3296.070 1  Rx        001B -  8    00 0B B8 00 3E E4 30 29 
  1320)      3298.544 1  Rx        002A -  8    63 00 0B B8 00 03 00 00 
  1321)      3301.061 1  Rx        002B -  8    00 0B B8 00 3E E4 30 29 
  1322)      3303.536 1  Rx        001A -  8    64 00 0B B8 00 03 00 00 
  1323)      3306.053 1  Rx        001B -  8    00 0B B8 00 4A 7C D9 A6 
  1324)      3308.570 1  Rx        002A -  8    64 00 0B B8 00 03 00 00 
  1325)      3311.044 1  Rx        002B -  8    00 0B B8 00 4A 7C D9 A6 
  1326)      3313.561 1  Rx        001A -  8    65 00 0B B8 00 03 00 00 
  1327)      3316.036 1  Rx        001B -  8    00 0B B8 00 D1 D9 95 C9 
  1328)      3318.553 1  Rx        002A -  8    65 00 0B B8 00 03 00 00 
  1329)      3321.027 1  Rx        002B -  8    00 0B B8 00 D1 D9 95 C9 
  1330)      3323.545 1  Rx        001A -  8    66 00 0B B8 00 03 00 00 
  1331)      3326.062 1  Rx        001B -  8    00 0B B8 00 A6 47 47 39 
  1332)      3328.536 1  Rx        002A -  8    66 00 0B B8 00 03 00 00 
  1333)      3331.309 1  Rx        002B -  8    00 0B B8 00 A6 47 47 39 
  1334)      3333.570 1  Rx        001A -  8    67 00 0B B8 00 03 00 00 
  1335)      3336.045 1  Rx        001B -  8    00 0B B8 00 3D E2 0B 56 
  1336)      3339.458 1  Rx        002A -  8    67 00 0B B8 00 03 00 00 
  1337)      3341.036 1  Rx        002B -  8    00 0B B8 00 3D E2 0B 56 
  1338)      3343.554 1  Rx        001A -  8    68 00 0B B8 00 03 00 00 
  1339)      3346.028 1  Rx        001B -  8    00 0B B8 00 4F 76 94 27 
  1340)      3348.545 1  Rx        002A -  8    68 00 0B B8 00 03 00 00 
  1341)      3351.062 1  Rx        002B -  8    00 0B B8 00 4F 76 94 27 
  1342)      3353.537 1  Rx        001A -  8    69 00 0B B8 00 03 00 00 
  1343)      3356.054 1  Rx        001B -  8    00 0B B8 00 D4 D3 D8 48 
  1344)      3358.571 1  Rx        002A -  8    69 00 0B B8 00 03 00 00 
  1345)      3361.045 1  Rx        002B -  8    00 0B B8 00 D4 D3 D8 48 
  1346)      3363.562 1  Rx        001A -  8    6A 00 0B B8 00 03 00 00 
  1347)      3366.037 1  Rx        001B -  8    00 0B B8 00 A3 4D 0A B8 
  1348)      3368.554 1  Rx        002A -  8    6A 00 0B B8 00 03 00 00 
  1349)      3371.028 1  Rx        002B -  8    00 0B B8 00 A3 4D 0A B8 
  1350)      3373.546 1  Rx        001A -  8    6B 00 0F A0 00 04 00 00 
  1351)      3376.063 1  Rx        001B -  8    00 0F A0 00 66 AE 08 CF 
  1352)      3378.537 1  Rx        002A -  8    6B 00 0F A0 00 04 00 00 
  1353)      3381.566 1  Rx        002B -  8    00 0F A0 00 66 AE 08 CF 
  1354)      3383.529 1  Rx        001A -  8    6C 00 0F A0 00 04 00 00 
  1355)      3386.046 1  Rx        001B -  8    00 0F A0 00 12 36 E1 40 
  1356)      3388.563 1  Rx        002A -  8    6C 00 0F A0 00 04 00 00 
  1357)      3391.037 1  Rx        002B -  8    00 0F A0 00 12 36 E1 40 
