;$FILEVERSION=1.3
;$STARTTIME=43467.3989369865
;
;   F:\Galx_1133 Selector 6 box\PCAN_Data\ENC_CAN\Learn_to_20000.trc
;   Start time: 1/2/2019 09:34:28.155.6
;-------------------------------------------------------------------------------
;   Bus  Name        Connection           Protocol
;   1    CEDS_2_CAN  CEDS_2_CAN@pcan_usb  CAN
;-------------------------------------------------------------------------------
;   Message Number
;   |         Time Offset (ms)
;   |         |       Bus
;   |         |       |    Type
;   |         |       |    |       ID (hex)
;   |         |       |    |       |    Reserved
;   |         |       |    |       |    |   Data Length Code
;   |         |       |    |       |    |   |    Data Bytes (hex) ...
;   |         |       |    |       |    |   |    |
;   |         |       |    |       |    |   |    |
;---+-- ------+------ +- --+-- ----+--- +- -+-- -+ -- -- -- -- -- -- --
     1)         1.085 1  Rx        001A -  8    9C 00 75 30 00 1E 00 00 
     2)         3.815 1  Rx        001B -  8    00 75 30 00 96 CC FC 27 
     3)         6.076 1  Rx        002A -  8    9C 00 75 30 00 1E 00 00 
     4)         8.593 1  Rx        002B -  8    00 75 30 00 96 CC FC 27 
     5)        12.092 1  Rx        001A -  8    9D 00 75 30 00 1E 00 00 
     6)        13.585 1  Rx        001B -  8    00 75 30 00 0D 69 B0 48 
     7)        16.059 1  Rx        002A -  8    9D 00 75 30 00 1E 00 00 
     8)        18.577 1  Rx        002B -  8    00 75 30 00 0D 69 B0 48 
     9)        21.094 1  Rx        001A -  8    9E 00 75 30 00 1E 00 00 
    10)        23.568 1  Rx        001B -  8    00 75 30 00 7A F7 62 B8 
    11)        26.085 1  Rx        002A -  8    9E 00 75 30 00 1E 00 00 
    12)        28.560 1  Rx        002B -  8    00 75 30 00 7A F7 62 B8 
    13)        31.077 1  Rx        001A -  8    9F 00 75 30 00 1E 00 00 
    14)        33.551 1  Rx        001B -  8    00 75 30 00 E1 52 2E D7 
    15)        36.068 1  Rx        002A -  8    9F 00 75 30 00 1E 00 00 
    16)        38.586 1  Rx        002B -  8    00 75 30 00 E1 52 2E D7 
    17)        41.060 1  Rx        001A -  8    A0 00 75 30 00 1E 00 00 
    18)        43.577 1  Rx        001B -  8    00 75 30 00 87 EF 87 A2 
    19)        46.094 1  Rx        002A -  8    A0 00 75 30 00 1E 00 00 
    20)        48.569 1  Rx        002B -  8    00 75 30 00 87 EF 87 A2 
    21)        51.086 1  Rx        001A -  8    A1 00 75 30 00 1E 00 00 
    22)        54.072 1  Rx        001B -  8    00 75 30 00 1C 4A CB CD 
    23)        56.077 1  Rx        002A -  8    A1 00 75 30 00 1E 00 00 
    24)        58.552 1  Rx        002B -  8    00 75 30 00 1C 4A CB CD 
    25)        61.069 1  Rx        001A -  8    A2 00 75 30 00 1E 00 00 
    26)        63.543 1  Rx        001B -  8    00 75 30 00 6B D4 19 3D 
    27)        66.060 1  Rx        002A -  8    A2 00 75 30 00 1E 00 00 
    28)        68.578 1  Rx        002B -  8    00 75 30 00 6B D4 19 3D 
    29)        71.095 1  Rx        001A -  8    A3 00 75 30 00 1E 00 00 
    30)        73.569 1  Rx        001B -  8    00 75 30 00 F0 71 55 52 
    31)        76.086 1  Rx        002A -  8    A3 00 75 30 00 1E 00 00 
    32)        78.561 1  Rx        002B -  8    00 75 30 00 F0 71 55 52 
    33)        81.078 1  Rx        001A -  8    A4 00 75 30 00 1E 00 00 
    34)        83.552 1  Rx        001B -  8    00 75 30 00 84 E9 BC DD 
    35)        86.453 1  Rx        002A -  8    A4 00 75 30 00 1E 00 00 
    36)        88.544 1  Rx        002B -  8    00 75 30 00 84 E9 BC DD 
    37)        91.061 1  Rx        001A -  8    A5 00 75 30 00 1E 00 00 
    38)        93.578 1  Rx        001B -  8    00 75 30 00 1F 4C F0 B2 
    39)        96.053 1  Rx        002A -  8    A5 00 75 30 00 1E 00 00 
    40)        98.570 1  Rx        002B -  8    00 75 30 00 1F 4C F0 B2 
    41)       101.087 1  Rx        001A -  8    A6 00 75 30 00 1E 00 00 
    42)       103.561 1  Rx        001B -  8    00 75 30 00 68 D2 22 42 
    43)       106.078 1  Rx        002A -  8    A6 00 75 30 00 1E 00 00 
    44)       108.553 1  Rx        002B -  8    00 75 30 00 68 D2 22 42 
    45)       111.582 1  Rx        001A -  8    A7 00 75 30 00 1E 00 00 
    46)       113.544 1  Rx        001B -  8    00 75 30 00 F3 77 6E 2D 
    47)       116.062 1  Rx        002A -  8    A7 00 75 30 00 1E 00 00 
    48)       118.579 1  Rx        002B -  8    00 75 30 00 F3 77 6E 2D 
    49)       121.053 1  Rx        001A -  8    A8 00 75 30 00 1E 00 00 
    50)       123.570 1  Rx        001B -  8    00 75 30 00 81 E3 F1 5C 
    51)       126.087 1  Rx        002A -  8    A8 00 75 30 00 1E 00 00 
    52)       128.562 1  Rx        002B -  8    00 75 30 00 81 E3 F1 5C 
    53)       131.079 1  Rx        001A -  8    A9 00 75 30 00 1E 00 00 
    54)       133.553 1  Rx        001B -  8    00 75 30 00 1A 46 BD 33 
    55)       137.649 1  Rx        002A -  8    A9 00 75 30 00 1E 00 00 
    56)       138.588 1  Rx        002B -  8    00 75 30 00 1A 46 BD 33 
    57)       141.062 1  Rx        001A -  8    AA 00 75 30 00 1E 00 00 
    58)       143.579 1  Rx        001B -  8    00 75 30 00 6D D8 6F C3 
    59)       146.054 1  Rx        002A -  8    AA 00 75 30 00 1E 00 00 
    60)       148.571 1  Rx        002B -  8    00 75 30 00 6D D8 6F C3 
    61)       151.045 1  Rx        001A -  8    AB 00 75 30 00 1E 00 00 
    62)       153.562 1  Rx        001B -  8    00 75 30 00 F6 7D 23 AC 
    63)       156.079 1  Rx        002A -  8    AB 00 75 30 00 1E 00 00 
    64)       158.554 1  Rx        002B -  8    00 75 30 00 F6 7D 23 AC 
    65)       161.071 1  Rx        001A -  8    AC 00 75 30 00 1E 00 00 
    66)       163.545 1  Rx        001B -  8    00 75 30 00 82 E5 CA 23 
    67)       166.063 1  Rx        002A -  8    AC 00 75 30 00 1E 00 00 
    68)       168.580 1  Rx        002B -  8    00 75 30 00 82 E5 CA 23 
    69)       171.054 1  Rx        001A -  8    AD 00 75 30 00 1E 00 00 
    70)       173.571 1  Rx        001B -  8    00 75 30 00 19 40 86 4C 
    71)       176.046 1  Rx        002A -  8    AD 00 75 30 00 1E 00 00 
    72)       178.563 1  Rx        002B -  8    00 75 30 00 19 40 86 4C 
    73)       181.080 1  Rx        001A -  8    AE 00 75 30 00 1E 00 00 
    74)       183.554 1  Rx        001B -  8    00 75 30 00 6E DE 54 BC 
    75)       186.072 1  Rx        002A -  8    AE 00 75 30 00 1E 00 00 
    76)       188.546 1  Rx        002B -  8    00 75 30 00 6E DE 54 BC 
    77)       191.063 1  Rx        001A -  8    AF 00 75 30 00 1E 00 00 
    78)       193.538 1  Rx        001B -  8    00 75 30 00 F5 7B 18 D3 
    79)       196.055 1  Rx        002A -  8    AF 00 75 30 00 1E 00 00 
    80)       198.572 1  Rx        002B -  8    00 75 30 00 F5 7B 18 D3 
    81)       201.046 1  Rx        001A -  8    B0 00 75 30 00 1E 00 00 
    82)       203.563 1  Rx        001B -  8    00 75 30 00 8B F7 6A 5E 
    83)       206.080 1  Rx        002A -  8    B0 00 75 30 00 1E 00 00 
    84)       208.555 1  Rx        002B -  8    00 75 30 00 8B F7 6A 5E 
    85)       211.072 1  Rx        001A -  8    B1 00 75 30 00 1E 00 00 
    86)       213.546 1  Rx        001B -  8    00 75 30 00 10 52 26 31 
    87)       216.064 1  Rx        002A -  8    B1 00 75 30 00 1E 00 00 
    88)       218.581 1  Rx        002B -  8    00 75 30 00 10 52 26 31 
    89)       221.055 1  Rx        001A -  8    B2 00 75 30 00 1E 00 00 
    90)       223.572 1  Rx        001B -  8    00 75 30 00 67 CC F4 C1 
    91)       226.089 1  Rx        002A -  8    B2 00 75 30 00 1E 00 00 
    92)       228.564 1  Rx        002B -  8    00 75 30 00 67 CC F4 C1 
    93)       231.081 1  Rx        001A -  8    B3 00 75 30 00 1E 00 00 
    94)       233.555 1  Rx        001B -  8    00 75 30 00 FC 69 B8 AE 
    95)       236.073 1  Rx        002A -  8    B3 00 75 30 00 1E 00 00 
    96)       238.547 1  Rx        002B -  8    00 75 30 00 FC 69 B8 AE 
    97)       241.064 1  Rx        001A -  8    B4 00 75 30 00 1E 00 00 
    98)       243.539 1  Rx        001B -  8    00 75 30 00 88 F1 51 21 
    99)       246.056 1  Rx        002A -  8    B4 00 75 30 00 1E 00 00 
   100)       248.573 1  Rx        002B -  8    00 75 30 00 88 F1 51 21 
   101)       251.047 1  Rx        001A -  8    B5 00 75 30 00 1E 00 00 
   102)       254.034 1  Rx        001B -  8    00 75 30 00 13 54 1D 4E 
   103)       256.081 1  Rx        002A -  8    B5 00 75 30 00 1E 00 00 
   104)       258.556 1  Rx        002B -  8    00 75 30 00 13 54 1D 4E 
   105)       262.353 1  Rx        001A -  8    B6 00 75 30 00 1E 00 00 
   106)       263.548 1  Rx        001B -  8    00 75 30 00 64 CA CF BE 
   107)       266.065 1  Rx        002A -  8    B6 00 75 30 00 1E 00 00 
   108)       268.582 1  Rx        002B -  8    00 75 30 00 64 CA CF BE 
   109)       271.056 1  Rx        001A -  8    B7 00 75 30 00 1E 00 00 
   110)       273.573 1  Rx        001B -  8    00 75 30 00 FF 6F 83 D1 
   111)       276.048 1  Rx        002A -  8    B7 00 75 30 00 1E 00 00 
   112)       278.565 1  Rx        002B -  8    00 75 30 00 FF 6F 83 D1 
   113)       281.082 1  Rx        001A -  8    B8 00 75 30 00 1E 00 00 
   114)       283.556 1  Rx        001B -  8    00 75 30 00 8D FB 1C A0 
   115)       286.458 1  Rx        002A -  8    B8 00 75 30 00 1E 00 00 
   116)       288.548 1  Rx        002B -  8    00 75 30 00 8D FB 1C A0 
   117)       291.065 1  Rx        001A -  8    B9 00 75 30 00 1E 00 00 
   118)       293.540 1  Rx        001B -  8    00 75 30 00 16 5E 50 CF 
   119)       296.057 1  Rx        002A -  8    B9 00 75 30 00 1E 00 00 
   120)       298.574 1  Rx        002B -  8    00 75 30 00 16 5E 50 CF 
   121)       301.048 1  Rx        001A -  8    BA 00 75 30 00 1E 00 00 
   122)       303.565 1  Rx        001B -  8    00 75 30 00 61 C0 82 3F 
   123)       306.040 1  Rx        002A -  8    BA 00 75 30 00 1E 00 00 
   124)       308.557 1  Rx        002B -  8    00 75 30 00 61 C0 82 3F 
   125)       311.415 1  Rx        001A -  8    BB 00 75 30 00 1E 00 00 
   126)       313.549 1  Rx        001B -  8    00 75 30 00 FA 65 CE 50 
   127)       316.066 1  Rx        002A -  8    BB 00 75 30 00 1E 00 00 
   128)       318.540 1  Rx        002B -  8    00 75 30 00 FA 65 CE 50 
   129)       321.057 1  Rx        001A -  8    BC 00 75 30 00 1E 00 00 
   130)       323.574 1  Rx        001B -  8    00 75 30 00 8E FD 27 DF 
   131)       326.049 1  Rx        002A -  8    BC 00 75 30 00 1E 00 00 
   132)       328.566 1  Rx        002B -  8    00 75 30 00 8E FD 27 DF 
   133)       331.040 1  Rx        001A -  8    BD 00 75 30 00 1E 00 00 
   134)       333.557 1  Rx        001B -  8    00 75 30 00 15 58 6B B0 
   135)       336.032 1  Rx        002A -  8    BD 00 75 30 00 1E 00 00 
   136)       338.549 1  Rx        002B -  8    00 75 30 00 15 58 6B B0 
   137)       341.066 1  Rx        001A -  8    BE 00 75 30 00 1E 00 00 
   138)       343.541 1  Rx        001B -  8    00 75 30 00 62 C6 B9 40 
   139)       346.058 1  Rx        002A -  8    BE 00 75 30 00 1E 00 00 
   140)       348.575 1  Rx        002B -  8    00 75 30 00 62 C6 B9 40 
   141)       351.049 1  Rx        001A -  8    BF 00 75 30 00 1E 00 00 
   142)       354.078 1  Rx        001B -  8    00 75 30 00 F9 63 F5 2F 
   143)       356.041 1  Rx        002A -  8    BF 00 75 30 00 1E 00 00 
   144)       358.558 1  Rx        002B -  8    00 75 30 00 F9 63 F5 2F 
   145)       361.587 1  Rx        001A -  8    C0 00 75 30 00 1E 00 00 
   146)       363.550 1  Rx        001B -  8    00 75 30 00 AF BD EB AA 
   147)       366.067 1  Rx        002A -  8    C0 00 75 30 00 1E 00 00 
   148)       368.541 1  Rx        002B -  8    00 75 30 00 AF BD EB AA 
   149)       371.058 1  Rx        001A -  8    C1 00 75 30 00 1E 00 00 
   150)       373.575 1  Rx        001B -  8    00 75 30 00 34 18 A7 C5 
   151)       376.050 1  Rx        002A -  8    C1 00 75 30 00 1E 00 00 
   152)       378.567 1  Rx        002B -  8    00 75 30 00 34 18 A7 C5 
   153)       381.041 1  Rx        001A -  8    C2 00 75 30 00 1E 00 00 
   154)       383.559 1  Rx        001B -  8    00 75 30 00 43 86 75 35 
   155)       386.545 1  Rx        002A -  8    C2 00 75 30 00 1E 00 00 
   156)       388.550 1  Rx        002B -  8    00 75 30 00 43 86 75 35 
   157)       391.067 1  Rx        001A -  8    C3 00 75 30 00 1E 00 00 
   158)       393.542 1  Rx        001B -  8    00 75 30 00 D8 23 39 5A 
   159)       396.059 1  Rx        002A -  8    C3 00 75 30 00 1E 00 00 
   160)       398.533 1  Rx        002B -  8    00 75 30 00 D8 23 39 5A 
   161)       401.050 1  Rx        001A -  8    C4 00 75 30 00 1E 00 00 
   162)       403.781 1  Rx        001B -  8    00 75 30 00 AC BB D0 D5 
   163)       406.042 1  Rx        002A -  8    C4 00 75 30 00 1E 00 00 
   164)       408.559 1  Rx        002B -  8    00 75 30 00 AC BB D0 D5 
   165)       411.034 1  Rx        001A -  8    C5 00 75 30 00 1E 00 00 
   166)       413.551 1  Rx        001B -  8    00 75 30 00 37 1E 9C BA 
   167)       416.068 1  Rx        002A -  8    C5 00 75 30 00 1E 00 00 
   168)       418.542 1  Rx        002B -  8    00 75 30 00 37 1E 9C BA 
   169)       421.059 1  Rx        001A -  8    C6 00 75 30 00 1E 00 00 
   170)       423.534 1  Rx        001B -  8    00 75 30 00 40 80 4E 4A 
   171)       426.051 1  Rx        002A -  8    C6 00 75 30 00 1E 00 00 
   172)       428.568 1  Rx        002B -  8    00 75 30 00 40 80 4E 4A 
   173)       431.042 1  Rx        001A -  8    C7 00 75 30 00 1E 00 00 
   174)       433.560 1  Rx        001B -  8    00 75 30 00 DB 25 02 25 
   175)       436.034 1  Rx        002A -  8    C7 00 75 30 00 1E 00 00 
   176)       438.551 1  Rx        002B -  8    00 75 30 00 DB 25 02 25 
   177)       441.068 1  Rx        001A -  8    C8 00 75 30 00 1E 00 00 
   178)       443.543 1  Rx        001B -  8    00 75 30 00 A9 B1 9D 54 
   179)       446.060 1  Rx        002A -  8    C8 00 75 30 00 1E 00 00 
   180)       448.534 1  Rx        002B -  8    00 75 30 00 A9 B1 9D 54 
   181)       451.051 1  Rx        001A -  8    C9 00 75 30 00 1E 00 00 
   182)       453.526 1  Rx        001B -  8    00 75 30 00 32 14 D1 3B 
   183)       456.043 1  Rx        002A -  8    C9 00 75 30 00 1E 00 00 
   184)       458.560 1  Rx        002B -  8    00 75 30 00 32 14 D1 3B 
   185)       461.546 1  Rx        001A -  8    CA 00 75 30 00 1E 00 00 
   186)       463.552 1  Rx        001B -  8    00 75 30 00 45 8A 03 CB 
   187)       466.069 1  Rx        002A -  8    CA 00 75 30 00 1E 00 00 
   188)       468.543 1  Rx        002B -  8    00 75 30 00 45 8A 03 CB 
   189)       471.060 1  Rx        001A -  8    CB 00 75 30 00 1E 00 00 
   190)       473.535 1  Rx        001B -  8    00 75 30 00 DE 2F 4F A4 
   191)       476.052 1  Rx        002A -  8    CB 00 75 30 00 1E 00 00 
   192)       478.526 1  Rx        002B -  8    00 75 30 00 DE 2F 4F A4 
   193)       481.043 1  Rx        001A -  8    CC 00 75 30 00 1E 00 00 
   194)       483.561 1  Rx        001B -  8    00 75 30 00 AA B7 A6 2B 
   195)       486.035 1  Rx        002A -  8    CC 00 75 30 00 1E 00 00 
   196)       488.552 1  Rx        002B -  8    00 75 30 00 AA B7 A6 2B 
   197)       491.069 1  Rx        001A -  8    CD 00 75 30 00 1E 00 00 
   198)       493.544 1  Rx        001B -  8    00 75 30 00 31 12 EA 44 
   199)       496.061 1  Rx        002A -  8    CD 00 75 30 00 1E 00 00 
   200)       498.535 1  Rx        002B -  8    00 75 30 00 31 12 EA 44 
   201)       501.052 1  Rx        001A -  8    CE 00 75 30 00 1E 00 00 
   202)       504.039 1  Rx        001B -  8    00 75 30 00 46 8C 38 B4 
   203)       506.044 1  Rx        002A -  8    CE 00 75 30 00 1E 00 00 
   204)       508.518 1  Rx        002B -  8    00 75 30 00 46 8C 38 B4 
   205)       512.102 1  Rx        001A -  8    CF 00 75 30 00 1E 00 00 
   206)       513.553 1  Rx        001B -  8    00 75 30 00 DD 29 74 DB 
   207)       516.027 1  Rx        002A -  8    CF 00 75 30 00 1E 00 00 
   208)       518.544 1  Rx        002B -  8    00 75 30 00 DD 29 74 DB 
   209)       521.061 1  Rx        001A -  8    D0 00 75 30 00 1E 00 00 
   210)       523.536 1  Rx        001B -  8    00 75 30 00 A3 A5 06 56 
   211)       526.053 1  Rx        002A -  8    D0 00 75 30 00 1E 00 00 
   212)       528.911 1  Rx        002B -  8    00 75 30 00 A3 A5 06 56 
   213)       531.045 1  Rx        001A -  8    D1 00 75 30 00 1E 00 00 
   214)       533.562 1  Rx        001B -  8    00 75 30 00 38 00 4A 39 
   215)       536.036 1  Rx        002A -  8    D1 00 75 30 00 1E 00 00 
   216)       538.553 1  Rx        002B -  8    00 75 30 00 38 00 4A 39 
   217)       541.070 1  Rx        001A -  8    D2 00 75 30 00 1E 00 00 
   218)       543.545 1  Rx        001B -  8    00 75 30 00 4F 9E 98 C9 
   219)       546.062 1  Rx        002A -  8    D2 00 75 30 00 1E 00 00 
   220)       548.536 1  Rx        002B -  8    00 75 30 00 4F 9E 98 C9 
   221)       551.053 1  Rx        001A -  8    D3 00 75 30 00 1E 00 00 
   222)       553.784 1  Rx        001B -  8    00 75 30 00 D4 3B D4 A6 
   223)       556.045 1  Rx        002A -  8    D3 00 75 30 00 1E 00 00 
   224)       558.519 1  Rx        002B -  8    00 75 30 00 D4 3B D4 A6 
   225)       562.061 1  Rx        001A -  8    D4 00 75 30 00 1E 00 00 
   226)       563.554 1  Rx        001B -  8    00 75 30 00 A0 A3 3D 29 
   227)       566.071 1  Rx        002A -  8    D4 00 75 30 00 1E 00 00 
   228)       568.545 1  Rx        002B -  8    00 75 30 00 A0 A3 3D 29 
   229)       571.062 1  Rx        001A -  8    D5 00 75 30 00 1E 00 00 
   230)       573.537 1  Rx        001B -  8    00 75 30 00 3B 06 71 46 
   231)       576.054 1  Rx        002A -  8    D5 00 75 30 00 1E 00 00 
   232)       578.528 1  Rx        002B -  8    00 75 30 00 3B 06 71 46 
   233)       581.046 1  Rx        001A -  8    D6 00 75 30 00 1E 00 00 
   234)       583.520 1  Rx        001B -  8    00 75 30 00 4C 98 A3 B6 
   235)       586.037 1  Rx        002A -  8    D6 00 75 30 00 1E 00 00 
   236)       588.554 1  Rx        002B -  8    00 75 30 00 4C 98 A3 B6 
   237)       591.029 1  Rx        001A -  8    D7 00 75 30 00 1E 00 00 
   238)       593.546 1  Rx        001B -  8    00 75 30 00 D7 3D EF D9 
   239)       596.404 1  Rx        002A -  8    D7 00 75 30 00 1E 00 00 
   240)       598.537 1  Rx        002B -  8    00 75 30 00 D7 3D EF D9 
   241)       601.055 1  Rx        001A -  8    D8 00 75 30 00 1E 00 00 
   242)       604.041 1  Rx        001B -  8    00 75 30 00 A5 A9 70 A8 
   243)       606.046 1  Rx        002A -  8    D8 00 75 30 00 1E 00 00 
   244)       608.521 1  Rx        002B -  8    00 75 30 00 A5 A9 70 A8 
   245)       611.038 1  Rx        001A -  8    D9 00 75 30 00 1E 00 00 
   246)       613.555 1  Rx        001B -  8    00 75 30 00 3E 0C 3C C7 
   247)       616.029 1  Rx        002A -  8    D9 00 75 30 00 1E 00 00 
   248)       618.546 1  Rx        002B -  8    00 75 30 00 3E 0C 3C C7 
   249)       621.063 1  Rx        001A -  8    DA 00 75 30 00 1E 00 00 
   250)       623.538 1  Rx        001B -  8    00 75 30 00 49 92 EE 37 
   251)       626.055 1  Rx        002A -  8    DA 00 75 30 00 1E 00 00 
   252)       629.041 1  Rx        002B -  8    00 75 30 00 49 92 EE 37 
   253)       631.047 1  Rx        001A -  8    DB 00 75 30 00 1E 00 00 
   254)       633.521 1  Rx        001B -  8    00 75 30 00 D2 37 A2 58 
   255)       636.550 1  Rx        002A -  8    DB 00 75 30 00 1E 00 00 
   256)       638.555 1  Rx        002B -  8    00 75 30 00 D2 37 A2 58 
   257)       641.030 1  Rx        001A -  8    DC 00 75 30 00 1E 00 00 
   258)       643.547 1  Rx        001B -  8    00 75 30 00 A6 AF 4B D7 
   259)       646.021 1  Rx        002A -  8    DC 00 75 30 00 1E 00 00 
   260)       648.538 1  Rx        002B -  8    00 75 30 00 A6 AF 4B D7 
   261)       651.056 1  Rx        001A -  8    DD 00 75 30 00 1E 00 00 
   262)       654.042 1  Rx        001B -  8    00 75 30 00 3D 0A 07 B8 
   263)       656.047 1  Rx        002A -  8    DD 00 75 30 00 1E 00 00 
   264)       658.522 1  Rx        002B -  8    00 75 30 00 3D 0A 07 B8 
   265)       661.039 1  Rx        001A -  8    DE 00 75 30 00 1E 00 00 
   266)       663.556 1  Rx        001B -  8    00 75 30 00 4A 94 D5 48 
   267)       666.030 1  Rx        002A -  8    DE 00 75 30 00 1E 00 00 
   268)       668.547 1  Rx        002B -  8    00 75 30 00 4A 94 D5 48 
   269)       671.064 1  Rx        001A -  8    DF 00 75 30 00 1E 00 00 
   270)       673.539 1  Rx        001B -  8    00 75 30 00 D1 31 99 27 
   271)       676.056 1  Rx        002A -  8    DF 00 75 30 00 1E 00 00 
   272)       678.531 1  Rx        002B -  8    00 75 30 00 D1 31 99 27 
   273)       681.048 1  Rx        001A -  8    E0 00 75 30 00 1E 00 00 
   274)       683.522 1  Rx        001B -  8    00 75 30 00 B7 8C 30 52 
   275)       686.551 1  Rx        002A -  8    E0 00 75 30 00 1E 00 00 
   276)       688.514 1  Rx        002B -  8    00 75 30 00 B7 8C 30 52 
   277)       691.031 1  Rx        001A -  8    E1 00 75 30 00 1E 00 00 
   278)       693.548 1  Rx        001B -  8    00 75 30 00 2C 29 7C 3D 
   279)       696.022 1  Rx        002A -  8    E1 00 75 30 00 1E 00 00 
   280)       698.539 1  Rx        002B -  8    00 75 30 00 2C 29 7C 3D 
   281)       701.057 1  Rx        001A -  8    E2 00 75 30 00 1E 00 00 
   282)       704.043 1  Rx        001B -  8    00 75 30 00 5B B7 AE CD 
   283)       706.048 1  Rx        002A -  8    E2 00 75 30 00 1E 00 00 
   284)       708.523 1  Rx        002B -  8    00 75 30 00 5B B7 AE CD 
   285)       711.552 1  Rx        001A -  8    E3 00 75 30 00 1E 00 00 
   286)       713.514 1  Rx        001B -  8    00 75 30 00 C0 12 E2 A2 
   287)       716.031 1  Rx        002A -  8    E3 00 75 30 00 1E 00 00 
   288)       719.018 1  Rx        002B -  8    00 75 30 00 C0 12 E2 A2 
   289)       721.066 1  Rx        001A -  8    E4 00 75 30 00 1E 00 00 
   290)       723.540 1  Rx        001B -  8    00 75 30 00 B4 8A 0B 2D 
   291)       726.057 1  Rx        002A -  8    E4 00 75 30 00 1E 00 00 
   292)       728.532 1  Rx        002B -  8    00 75 30 00 B4 8A 0B 2D 
   293)       731.049 1  Rx        001A -  8    E5 00 75 30 00 1E 00 00 
   294)       733.523 1  Rx        001B -  8    00 75 30 00 2F 2F 47 42 
   295)       736.040 1  Rx        002A -  8    E5 00 75 30 00 1E 00 00 
   296)       738.515 1  Rx        002B -  8    00 75 30 00 2F 2F 47 42 
   297)       741.032 1  Rx        001A -  8    E6 00 75 30 00 1E 00 00 
   298)       743.506 1  Rx        001B -  8    00 75 30 00 58 B1 95 B2 
   299)       746.023 1  Rx        002A -  8    E6 00 75 30 00 1E 00 00 
   300)       748.540 1  Rx        002B -  8    00 75 30 00 58 B1 95 B2 
   301)       751.015 1  Rx        001A -  8    E7 00 75 30 00 1E 00 00 
   302)       754.001 1  Rx        001B -  8    00 75 30 00 C3 14 D9 DD 
   303)       756.049 1  Rx        002A -  8    E7 00 75 30 00 1E 00 00 
   304)       758.524 1  Rx        002B -  8    00 75 30 00 C3 14 D9 DD 
   305)       761.041 1  Rx        001A -  8    E8 00 75 30 00 1E 00 00 
   306)       763.515 1  Rx        001B -  8    00 75 30 00 B1 80 46 AC 
   307)       766.032 1  Rx        002A -  8    E8 00 75 30 00 1E 00 00 
   308)       768.549 1  Rx        002B -  8    00 75 30 00 B1 80 46 AC 
   309)       771.024 1  Rx        001A -  8    E9 00 75 30 00 1E 00 00 
   310)       773.541 1  Rx        001B -  8    00 75 30 00 2A 25 0A C3 
   311)       776.058 1  Rx        002A -  8    E9 00 75 30 00 1E 00 00 
   312)       778.533 1  Rx        002B -  8    00 75 30 00 2A 25 0A C3 
   313)       781.050 1  Rx        001A -  8    EA 00 75 30 00 1E 00 00 
   314)       783.524 1  Rx        001B -  8    00 75 30 00 5D BB D8 33 
   315)       786.041 1  Rx        002A -  8    EA 00 75 30 00 1E 00 00 
   316)       788.516 1  Rx        002B -  8    00 75 30 00 5D BB D8 33 
   317)       791.033 1  Rx        001A -  8    EB 00 75 30 00 1E 00 00 
   318)       793.507 1  Rx        001B -  8    00 75 30 00 C6 1E 94 5C 
   319)       796.024 1  Rx        002A -  8    EB 00 75 30 00 1E 00 00 
   320)       798.542 1  Rx        002B -  8    00 75 30 00 C6 1E 94 5C 
   321)       801.016 1  Rx        001A -  8    EC 00 75 30 00 1E 00 00 
   322)       803.533 1  Rx        001B -  8    00 75 30 00 B2 86 7D D3 
   323)       806.050 1  Rx        002A -  8    EC 00 75 30 00 1E 00 00 
   324)       808.525 1  Rx        002B -  8    00 75 30 00 B2 86 7D D3 
   325)       811.042 1  Rx        001A -  8    ED 00 75 30 00 1E 00 00 
   326)       813.516 1  Rx        001B -  8    00 75 30 00 29 23 31 BC 
   327)       816.033 1  Rx        002A -  8    ED 00 75 30 00 1E 00 00 
   328)       818.508 1  Rx        002B -  8    00 75 30 00 29 23 31 BC 
   329)       821.025 1  Rx        001A -  8    EE 00 75 30 00 1E 00 00 
   330)       823.542 1  Rx        001B -  8    00 75 30 00 5E BD E3 4C 
   331)       826.017 1  Rx        002A -  8    EE 00 75 30 00 1E 00 00 
   332)       828.534 1  Rx        002B -  8    00 75 30 00 5E BD E3 4C 
   333)       831.008 1  Rx        001A -  8    EF 00 75 30 00 1E 00 00 
   334)       833.525 1  Rx        001B -  8    00 75 30 00 C5 18 AF 23 
   335)       836.042 1  Rx        002A -  8    EF 00 75 30 00 1E 00 00 
   336)       838.517 1  Rx        002B -  8    00 75 30 00 C5 18 AF 23 
   337)       841.034 1  Rx        001A -  8    F0 00 75 30 00 1E 00 00 
   338)       843.508 1  Rx        001B -  8    00 75 30 00 BB 94 DD AE 
   339)       846.025 1  Rx        002A -  8    F0 00 75 30 00 1E 00 00 
   340)       848.543 1  Rx        002B -  8    00 03 E8 00 A2 09 86 5B 
   341)       851.017 1  Rx        001A -  8    F1 00 03 E8 00 01 00 00 
   342)       854.046 1  Rx        001B -  8    00 03 E8 00 FC B2 30 ED 
   343)       856.051 1  Rx        002A -  8    F1 00 03 E8 00 01 00 00 
   344)       858.526 1  Rx        002B -  8    00 03 E8 00 FC B2 30 ED 
   345)       861.043 1  Rx        001A -  8    F2 00 03 E8 00 01 00 00 
   346)       863.517 1  Rx        001B -  8    00 03 E8 00 8B 2C E2 1D 
   347)       866.034 1  Rx        002A -  8    F2 00 03 E8 00 01 00 00 
   348)       868.509 1  Rx        002B -  8    00 03 E8 00 8B 2C E2 1D 
   349)       871.026 1  Rx        001A -  8    F3 00 03 E8 00 01 00 00 
   350)       873.543 1  Rx        001B -  8    00 03 E8 00 10 89 AE 72 
   351)       876.018 1  Rx        002A -  8    F3 00 03 E8 00 01 00 00 
   352)       879.047 1  Rx        002B -  8    00 03 E8 00 10 89 AE 72 
   353)       881.052 1  Rx        001A -  8    F4 00 03 E8 00 01 00 00 
   354)       883.526 1  Rx        001B -  8    00 03 E8 00 64 11 47 FD 
   355)       886.427 1  Rx        002A -  8    F4 00 03 E8 00 01 00 00 
   356)       888.518 1  Rx        002B -  8    00 03 E8 00 64 11 47 FD 
   357)       891.035 1  Rx        001A -  8    F5 00 03 E8 00 01 00 00 
   358)       893.552 1  Rx        001B -  8    00 03 E8 00 FF B4 0B 92 
   359)       896.026 1  Rx        002A -  8    F5 00 03 E8 00 01 00 00 
   360)       898.544 1  Rx        002B -  8    00 03 E8 00 FF B4 0B 92 
   361)       901.018 1  Rx        001A -  8    F6 00 03 E8 00 01 00 00 
   362)       903.535 1  Rx        001B -  8    00 03 E8 00 88 2A D9 62 
   363)       906.052 1  Rx        002A -  8    F6 00 03 E8 00 01 00 00 
   364)       908.527 1  Rx        002B -  8    00 03 E8 00 88 2A D9 62 
   365)       911.044 1  Rx        001A -  8    F7 00 03 E8 00 01 00 00 
   366)       913.518 1  Rx        001B -  8    00 03 E8 00 13 8F 95 0D 
   367)       916.035 1  Rx        002A -  8    F7 00 03 E8 00 01 00 00 
   368)       918.510 1  Rx        002B -  8    00 03 E8 00 13 8F 95 0D 
   369)       921.027 1  Rx        001A -  8    F8 00 03 E8 00 01 00 00 
   370)       923.544 1  Rx        001B -  8    00 03 E8 00 61 1B 0A 7C 
   371)       926.019 1  Rx        002A -  8    F8 00 03 E8 00 01 00 00 
   372)       928.536 1  Rx        002B -  8    00 03 E8 00 61 1B 0A 7C 
   373)       931.053 1  Rx        001A -  8    F9 00 03 E8 00 01 00 00 
   374)       933.527 1  Rx        001B -  8    00 03 E8 00 FA BE 46 13 
   375)       936.044 1  Rx        002A -  8    F9 00 03 E8 00 01 00 00 
   376)       938.519 1  Rx        002B -  8    00 03 E8 00 FA BE 46 13 
   377)       941.036 1  Rx        001A -  8    FA 00 03 E8 00 01 00 00 
   378)       943.510 1  Rx        001B -  8    00 03 E8 00 8D 20 94 E3 
   379)       946.028 1  Rx        002A -  8    FA 00 03 E8 00 01 00 00 
   380)       948.545 1  Rx        002B -  8    00 03 E8 00 8D 20 94 E3 
   381)       951.019 1  Rx        001A -  8    FB 00 03 E8 00 01 00 00 
   382)       953.792 1  Rx        001B -  8    00 03 E8 00 16 85 D8 8C 
   383)       956.053 1  Rx        002A -  8    FB 00 03 E8 00 01 00 00 
   384)       958.528 1  Rx        002B -  8    00 03 E8 00 16 85 D8 8C 
   385)       961.045 1  Rx        001A -  8    FC 00 03 E8 00 01 00 00 
   386)       963.519 1  Rx        001B -  8    00 03 E8 00 62 1D 31 03 
   387)       966.036 1  Rx        002A -  8    FC 00 03 E8 00 01 00 00 
   388)       968.511 1  Rx        002B -  8    00 03 E8 00 62 1D 31 03 
   389)       971.028 1  Rx        001A -  8    FD 00 03 E8 00 01 00 00 
   390)       973.545 1  Rx        001B -  8    00 03 E8 00 F9 B8 7D 6C 
   391)       976.020 1  Rx        002A -  8    FD 00 03 E8 00 01 00 00 
   392)       978.537 1  Rx        002B -  8    00 03 E8 00 F9 B8 7D 6C 
   393)       981.054 1  Rx        001A -  8    FE 00 03 E8 00 01 00 00 
   394)       983.528 1  Rx        001B -  8    00 03 E8 00 8E 26 AF 9C 
   395)       986.045 1  Rx        002A -  8    FE 00 03 E8 00 01 00 00 
   396)       988.520 1  Rx        002B -  8    00 03 E8 00 8E 26 AF 9C 
   397)       991.037 1  Rx        001A -  8    FF 00 03 E8 00 01 00 00 
   398)       993.554 1  Rx        001B -  8    00 03 E8 00 15 83 E3 F3 
   399)       996.029 1  Rx        002A -  8    FF 00 03 E8 00 01 00 00 
   400)       998.546 1  Rx        002B -  8    00 03 E8 00 15 83 E3 F3 
   401)      1001.020 1  Rx        001A -  8    00 00 03 E8 00 01 00 00 
   402)      1003.537 1  Rx        001B -  8    00 03 E8 00 23 9A 92 96 
   403)      1006.054 1  Rx        002A -  8    00 00 03 E8 00 01 00 00 
   404)      1008.529 1  Rx        002B -  8    00 03 E8 00 23 9A 92 96 
   405)      1011.046 1  Rx        001A -  8    01 00 03 E8 00 01 00 00 
   406)      1013.520 1  Rx        001B -  8    00 03 E8 00 B8 3F DE F9 
   407)      1016.038 1  Rx        002A -  8    01 00 03 E8 00 01 00 00 
   408)      1018.512 1  Rx        002B -  8    00 03 E8 00 B8 3F DE F9 
   409)      1021.029 1  Rx        001A -  8    02 00 03 E8 00 01 00 00 
   410)      1023.546 1  Rx        001B -  8    00 03 E8 00 CF A1 0C 09 
   411)      1026.021 1  Rx        002A -  8    02 00 03 E8 00 01 00 00 
   412)      1028.538 1  Rx        002B -  8    00 03 E8 00 CF A1 0C 09 
   413)      1031.012 1  Rx        001A -  8    03 00 03 E8 00 01 00 00 
   414)      1033.529 1  Rx        001B -  8    00 03 E8 00 54 04 40 66 
   415)      1036.558 1  Rx        002A -  8    03 00 03 E8 00 01 00 00 
   416)      1038.521 1  Rx        002B -  8    00 03 E8 00 54 04 40 66 
   417)      1041.038 1  Rx        001A -  8    04 00 03 E8 00 01 00 00 
   418)      1043.512 1  Rx        001B -  8    00 03 E8 00 20 9C A9 E9 
   419)      1046.030 1  Rx        002A -  8    04 00 03 E8 00 01 00 00 
   420)      1048.577 1  Rx        002B -  8    00 03 E8 00 20 9C A9 E9 
   421)      1051.051 1  Rx        001A -  8    05 00 03 E8 00 01 00 00 
   422)      1053.568 1  Rx        001B -  8    00 03 E8 00 BB 39 E5 86 
   423)      1056.043 1  Rx        002A -  8    05 00 03 E8 00 01 00 00 
   424)      1058.560 1  Rx        002B -  8    00 03 E8 00 BB 39 E5 86 
   425)      1062.101 1  Rx        001A -  8    06 00 03 E8 00 01 00 00 
   426)      1063.551 1  Rx        001B -  8    00 03 E8 00 CC A7 37 76 
   427)      1066.069 1  Rx        002A -  8    06 00 03 E8 00 01 00 00 
   428)      1068.543 1  Rx        002B -  8    00 03 E8 00 CC A7 37 76 
   429)      1071.060 1  Rx        001A -  8    07 00 03 E8 00 01 00 00 
   430)      1073.535 1  Rx        001B -  8    00 03 E8 00 57 02 7B 19 
   431)      1076.052 1  Rx        002A -  8    07 00 03 E8 00 01 00 00 
   432)      1078.569 1  Rx        002B -  8    00 03 E8 00 57 02 7B 19 
   433)      1081.043 1  Rx        001A -  8    08 00 03 E8 00 01 00 00 
   434)      1083.560 1  Rx        001B -  8    00 03 E8 00 25 96 E4 68 
   435)      1086.077 1  Rx        002A -  8    08 00 03 E8 00 01 00 00 
   436)      1088.552 1  Rx        002B -  8    00 03 E8 00 25 96 E4 68 
   437)      1091.069 1  Rx        001A -  8    09 00 03 E8 00 01 00 00 
   438)      1093.544 1  Rx        001B -  8    00 03 E8 00 BE 33 A8 07 
   439)      1096.445 1  Rx        002A -  8    09 00 03 E8 00 01 00 00 
   440)      1098.535 1  Rx        002B -  8    00 03 E8 00 BE 33 A8 07 
   441)      1101.052 1  Rx        001A -  8    0A 00 03 E8 00 01 00 00 
   442)      1103.527 1  Rx        001B -  8    00 03 E8 00 C9 AD 7A F7 
   443)      1106.044 1  Rx        002A -  8    0A 00 03 E8 00 01 00 00 
   444)      1108.561 1  Rx        002B -  8    00 03 E8 00 C9 AD 7A F7 
   445)      1111.803 1  Rx        001A -  8    0B 00 03 E8 00 01 00 00 
   446)      1113.552 1  Rx        001B -  8    00 03 E8 00 52 08 36 98 
   447)      1116.070 1  Rx        002A -  8    0B 00 03 E8 00 01 00 00 
   448)      1118.544 1  Rx        002B -  8    00 03 E8 00 52 08 36 98 
   449)      1121.061 1  Rx        001A -  8    0C 00 03 E8 00 01 00 00 
   450)      1123.536 1  Rx        001B -  8    00 03 E8 00 26 90 DF 17 
   451)      1126.053 1  Rx        002A -  8    0C 00 03 E8 00 01 00 00 
   452)      1128.570 1  Rx        002B -  8    00 03 E8 00 26 90 DF 17 
   453)      1131.044 1  Rx        001A -  8    0D 00 03 E8 00 01 00 00 
   454)      1133.561 1  Rx        001B -  8    00 03 E8 00 BD 35 93 78 
   455)      1136.590 1  Rx        002A -  8    0D 00 03 E8 00 01 00 00 
   456)      1138.553 1  Rx        002B -  8    00 03 E8 00 BD 35 93 78 
   457)      1141.070 1  Rx        001A -  8    0E 00 03 E8 00 01 00 00 
   458)      1143.545 1  Rx        001B -  8    00 03 E8 00 CA AB 41 88 
   459)      1146.062 1  Rx        002A -  8    0E 00 03 E8 00 01 00 00 
   460)      1148.536 1  Rx        002B -  8    00 03 E8 00 CA AB 41 88 
   461)      1151.053 1  Rx        001A -  8    0F 00 03 E8 00 01 00 00 
   462)      1153.528 1  Rx        001B -  8    00 03 E8 00 51 0E 0D E7 
   463)      1156.045 1  Rx        002A -  8    0F 00 03 E8 00 01 00 00 
   464)      1158.562 1  Rx        002B -  8    00 03 E8 00 51 0E 0D E7 
   465)      1161.036 1  Rx        001A -  8    10 00 03 E8 00 01 00 00 
   466)      1163.553 1  Rx        001B -  8    00 03 E8 00 2F 82 7F 6A 
   467)      1166.071 1  Rx        002A -  8    10 00 03 E8 00 01 00 00 
   468)      1168.545 1  Rx        002B -  8    00 03 E8 00 2F 82 7F 6A 
   469)      1171.062 1  Rx        001A -  8    11 00 03 E8 00 01 00 00 
   470)      1173.537 1  Rx        001B -  8    00 03 E8 00 B4 27 33 05 
   471)      1176.054 1  Rx        002A -  8    11 00 03 E8 00 01 00 00 
   472)      1178.784 1  Rx        002B -  8    00 03 E8 00 B4 27 33 05 
   473)      1181.045 1  Rx        001A -  8    12 00 03 E8 00 01 00 00 
   474)      1183.562 1  Rx        001B -  8    00 03 E8 00 C3 B9 E1 F5 
   475)      1187.487 1  Rx        002A -  8    12 00 03 E8 00 01 00 00 
   476)      1188.554 1  Rx        002B -  8    00 03 E8 00 C3 B9 E1 F5 
   477)      1191.071 1  Rx        001A -  8    13 00 03 E8 00 01 00 00 
   478)      1193.546 1  Rx        001B -  8    00 03 E8 00 58 1C AD 9A 
   479)      1196.063 1  Rx        002A -  8    13 00 03 E8 00 01 00 00 
   480)      1198.537 1  Rx        002B -  8    00 03 E8 00 58 1C AD 9A 
   481)      1201.054 1  Rx        001A -  8    14 00 03 E8 00 01 00 00 
   482)      1203.529 1  Rx        001B -  8    00 03 E8 00 2C 84 44 15 
   483)      1206.046 1  Rx        002A -  8    14 00 03 E8 00 01 00 00 
   484)      1208.563 1  Rx        002B -  8    00 03 E8 00 2C 84 44 15 
   485)      1211.037 1  Rx        001A -  8    15 00 03 E8 00 01 00 00 
   486)      1213.555 1  Rx        001B -  8    00 03 E8 00 B7 21 08 7A 
   487)      1216.029 1  Rx        002A -  8    15 00 03 E8 00 01 00 00 
   488)      1218.546 1  Rx        002B -  8    00 03 E8 00 B7 21 08 7A 
   489)      1221.063 1  Rx        001A -  8    16 00 03 E8 00 01 00 00 
   490)      1223.538 1  Rx        001B -  8    00 03 E8 00 C0 BF DA 8A 
   491)      1226.055 1  Rx        002A -  8    16 00 03 E8 00 01 00 00 
   492)      1229.041 1  Rx        002B -  8    00 03 E8 00 C0 BF DA 8A 
   493)      1231.046 1  Rx        001A -  8    17 00 03 E8 00 01 00 00 
   494)      1233.521 1  Rx        001B -  8    00 03 E8 00 5B 1A 96 E5 
   495)      1236.550 1  Rx        002A -  8    17 00 03 E8 00 01 00 00 
   496)      1238.555 1  Rx        002B -  8    00 03 E8 00 5B 1A 96 E5 
   497)      1241.072 1  Rx        001A -  8    18 00 03 E8 00 01 00 00 
   498)      1243.547 1  Rx        001B -  8    00 03 E8 00 29 8E 09 94 
   499)      1246.064 1  Rx        002A -  8    18 00 03 E8 00 01 00 00 
   500)      1248.538 1  Rx        002B -  8    00 03 E8 00 29 8E 09 94 
   501)      1251.055 1  Rx        001A -  8    19 00 03 E8 00 01 00 00 
   502)      1253.530 1  Rx        001B -  8    00 03 E8 00 B2 2B 45 FB 
   503)      1256.047 1  Rx        002A -  8    19 00 03 E8 00 01 00 00 
   504)      1258.564 1  Rx        002B -  8    00 03 E8 00 B2 2B 45 FB 
   505)      1261.593 1  Rx        001A -  8    1A 00 03 E8 00 01 00 00 
   506)      1263.556 1  Rx        001B -  8    00 03 E8 00 C5 B5 97 0B 
   507)      1266.030 1  Rx        002A -  8    1A 00 03 E8 00 01 00 00 
   508)      1268.547 1  Rx        002B -  8    00 03 E8 00 C5 B5 97 0B 
   509)      1271.064 1  Rx        001A -  8    1B 00 03 E8 00 01 00 00 
   510)      1273.539 1  Rx        001B -  8    00 03 E8 00 5E 10 DB 64 
   511)      1276.056 1  Rx        002A -  8    1B 00 03 E8 00 01 00 00 
   512)      1278.786 1  Rx        002B -  8    00 03 E8 00 5E 10 DB 64 
   513)      1281.047 1  Rx        001A -  8    1C 00 03 E8 00 01 00 00 
   514)      1283.522 1  Rx        001B -  8    00 03 E8 00 2A 88 32 EB 
   515)      1286.039 1  Rx        002A -  8    1C 00 03 E8 00 01 00 00 
   516)      1288.556 1  Rx        002B -  8    00 03 E8 00 2A 88 32 EB 
   517)      1291.031 1  Rx        001A -  8    1D 00 03 E8 00 01 00 00 
   518)      1293.548 1  Rx        001B -  8    00 03 E8 00 B1 2D 7E 84 
   519)      1296.065 1  Rx        002A -  8    1D 00 03 E8 00 01 00 00 
   520)      1298.539 1  Rx        002B -  8    00 03 E8 00 B1 2D 7E 84 
   521)      1301.056 1  Rx        001A -  8    1E 00 03 E8 00 01 00 00 
   522)      1303.787 1  Rx        001B -  8    00 03 E8 00 C6 B3 AC 74 
   523)      1306.048 1  Rx        002A -  8    1E 00 03 E8 00 01 00 00 
   524)      1308.522 1  Rx        002B -  8    00 03 E8 00 C6 B3 AC 74 
   525)      1311.594 1  Rx        001A -  8    1F 00 03 E8 00 01 00 00 
   526)      1313.557 1  Rx        001B -  8    00 03 E8 00 5D 16 E0 1B 
   527)      1316.031 1  Rx        002A -  8    1F 00 03 E8 00 01 00 00 
   528)      1318.548 1  Rx        002B -  8    00 03 E8 00 5D 16 E0 1B 
   529)      1321.065 1  Rx        001A -  8    20 00 03 E8 00 01 00 00 
   530)      1323.540 1  Rx        001B -  8    00 03 E8 00 3B AB 49 6E 
   531)      1326.057 1  Rx        002A -  8    20 00 03 E8 00 01 00 00 
   532)      1328.531 1  Rx        002B -  8    00 03 E8 00 3B AB 49 6E 
   533)      1331.048 1  Rx        001A -  8    21 00 03 E8 00 01 00 00 
   534)      1333.566 1  Rx        001B -  8    00 03 E8 00 A0 0E 05 01 
   535)      1336.040 1  Rx        002A -  8    21 00 03 E8 00 01 00 00 
   536)      1338.557 1  Rx        002B -  8    00 03 E8 00 A0 0E 05 01 
   537)      1341.032 1  Rx        001A -  8    22 00 03 E8 00 01 00 00 
   538)      1343.549 1  Rx        001B -  8    00 03 E8 00 D7 90 D7 F1 
   539)      1346.066 1  Rx        002A -  8    22 00 03 E8 00 01 00 00 
   540)      1348.540 1  Rx        002B -  8    00 03 E8 00 D7 90 D7 F1 
   541)      1351.057 1  Rx        001A -  8    23 00 03 E8 00 01 00 00 
   542)      1353.532 1  Rx        001B -  8    00 03 E8 00 4C 35 9B 9E 
   543)      1356.049 1  Rx        002A -  8    23 00 03 E8 00 01 00 00 
   544)      1358.523 1  Rx        002B -  8    00 03 E8 00 4C 35 9B 9E 
   545)      1361.041 1  Rx        001A -  8    24 00 03 E8 00 01 00 00 
   546)      1363.515 1  Rx        001B -  8    00 03 E8 00 38 AD 72 11 
   547)      1366.032 1  Rx        002A -  8    24 00 03 E8 00 01 00 00 
   548)      1368.549 1  Rx        002B -  8    00 03 E8 00 38 AD 72 11 
   549)      1371.024 1  Rx        001A -  8    25 00 03 E8 00 01 00 00 
   550)      1373.541 1  Rx        001B -  8    00 03 E8 00 A3 08 3E 7E 
   551)      1376.058 1  Rx        002A -  8    25 00 03 E8 00 01 00 00 
   552)      1378.788 1  Rx        002B -  8    00 03 E8 00 A3 08 3E 7E 
   553)      1381.049 1  Rx        001A -  8    26 00 03 E8 00 01 00 00 
   554)      1383.524 1  Rx        001B -  8    00 03 E8 00 D4 96 EC 8E 
   555)      1386.041 1  Rx        002A -  8    26 00 03 E8 00 01 00 00 
   556)      1388.515 1  Rx        002B -  8    00 03 E8 00 D4 96 EC 8E 
   557)      1391.033 1  Rx        001A -  8    27 00 03 E8 00 01 00 00 
   558)      1393.550 1  Rx        001B -  8    00 03 E8 00 4F 33 A0 E1 
   559)      1396.024 1  Rx        002A -  8    27 00 03 E8 00 01 00 00 
   560)      1398.541 1  Rx        002B -  8    00 03 E8 00 4F 33 A0 E1 
   561)      1401.058 1  Rx        001A -  8    28 00 03 E8 00 01 00 00 
   562)      1403.533 1  Rx        001B -  8    00 03 E8 00 3D A7 3F 90 
   563)      1406.050 1  Rx        002A -  8    28 00 03 E8 00 01 00 00 
   564)      1408.524 1  Rx        002B -  8    00 03 E8 00 3D A7 3F 90 
   565)      1411.340 1  Rx        001A -  8    29 00 03 E8 00 01 00 00 
   566)      1413.559 1  Rx        001B -  8    00 03 E8 00 A6 02 73 FF 
   567)      1416.033 1  Rx        002A -  8    29 00 03 E8 00 01 00 00 
   568)      1418.550 1  Rx        002B -  8    00 03 E8 00 A6 02 73 FF 
   569)      1421.025 1  Rx        001A -  8    2A 00 03 E8 00 01 00 00 
   570)      1423.542 1  Rx        001B -  8    00 03 E8 00 D1 9C A1 0F 
   571)      1426.059 1  Rx        002A -  8    2A 00 03 E8 00 01 00 00 
   572)      1428.533 1  Rx        002B -  8    00 03 E8 00 D1 9C A1 0F 
   573)      1431.051 1  Rx        001A -  8    2B 00 03 E8 00 01 00 00 
   574)      1433.525 1  Rx        001B -  8    00 03 E8 00 4A 39 ED 60 
   575)      1437.066 1  Rx        002A -  8    2B 00 03 E8 00 01 00 00 
   576)      1438.517 1  Rx        002B -  8    00 03 E8 00 4A 39 ED 60 
   577)      1441.034 1  Rx        001A -  8    2C 00 03 E8 00 01 00 00 
   578)      1443.551 1  Rx        001B -  8    00 03 E8 00 3E A1 04 EF 
   579)      1446.025 1  Rx        002A -  8    2C 00 03 E8 00 01 00 00 
   580)      1448.542 1  Rx        002B -  8    00 03 E8 00 3E A1 04 EF 
   581)      1451.059 1  Rx        001A -  8    2D 00 03 E8 00 01 00 00 
   582)      1453.534 1  Rx        001B -  8    00 03 E8 00 A5 04 48 80 
   583)      1456.051 1  Rx        002A -  8    2D 00 03 E8 00 01 00 00 
   584)      1458.525 1  Rx        002B -  8    00 03 E8 00 A5 04 48 80 
   585)      1461.043 1  Rx        001A -  8    2E 00 03 E8 00 01 00 00 
   586)      1463.517 1  Rx        001B -  8    00 03 E8 00 D2 9A 9A 70 
   587)      1466.034 1  Rx        002A -  8    2E 00 03 E8 00 01 00 00 
   588)      1468.551 1  Rx        002B -  8    00 03 E8 00 D2 9A 9A 70 
   589)      1471.026 1  Rx        001A -  8    2F 00 03 E8 00 01 00 00 
   590)      1473.543 1  Rx        001B -  8    00 03 E8 00 49 3F D6 1F 
   591)      1476.017 1  Rx        002A -  8    2F 00 03 E8 00 01 00 00 
   592)      1478.534 1  Rx        002B -  8    00 03 E8 00 49 3F D6 1F 
   593)      1481.052 1  Rx        001A -  8    30 00 03 E8 00 01 00 00 
   594)      1483.526 1  Rx        001B -  8    00 03 E8 00 37 B3 A4 92 
   595)      1486.939 1  Rx        002A -  8    30 00 03 E8 00 01 00 00 
   596)      1488.518 1  Rx        002B -  8    00 03 E8 00 37 B3 A4 92 
   597)      1491.035 1  Rx        001A -  8    31 00 03 E8 00 01 00 00 
   598)      1493.552 1  Rx        001B -  8    00 03 E8 00 AC 16 E8 FD 
   599)      1496.026 1  Rx        002A -  8    31 00 03 E8 00 01 00 00 
   600)      1498.543 1  Rx        002B -  8    00 03 E8 00 AC 16 E8 FD 
   601)      1501.018 1  Rx        001A -  8    32 00 03 E8 00 01 00 00 
   602)      1503.535 1  Rx        001B -  8    00 03 E8 00 DB 88 3A 0D 
   603)      1506.052 1  Rx        002A -  8    32 00 03 E8 00 01 00 00 
   604)      1508.527 1  Rx        002B -  8    00 03 E8 00 DB 88 3A 0D 
   605)      1511.044 1  Rx        001A -  8    33 00 03 E8 00 01 00 00 
   606)      1513.518 1  Rx        001B -  8    00 03 E8 00 40 2D 76 62 
   607)      1516.035 1  Rx        002A -  8    33 00 03 E8 00 01 00 00 
   608)      1518.510 1  Rx        002B -  8    00 03 E8 00 40 2D 76 62 
   609)      1521.027 1  Rx        001A -  8    34 00 03 E8 00 01 00 00 
   610)      1523.544 1  Rx        001B -  8    00 03 E8 00 34 B5 9F ED 
   611)      1526.018 1  Rx        002A -  8    34 00 03 E8 00 01 00 00 
   612)      1528.535 1  Rx        002B -  8    00 03 E8 00 34 B5 9F ED 
   613)      1531.053 1  Rx        001A -  8    35 00 03 E8 00 01 00 00 
   614)      1533.527 1  Rx        001B -  8    00 03 E8 00 AF 10 D3 82 
   615)      1536.044 1  Rx        002A -  8    35 00 03 E8 00 01 00 00 
   616)      1538.519 1  Rx        002B -  8    00 03 E8 00 AF 10 D3 82 
   617)      1541.036 1  Rx        001A -  8    36 00 03 E8 00 01 00 00 
   618)      1543.510 1  Rx        001B -  8    00 03 E8 00 D8 8E 01 72 
   619)      1546.027 1  Rx        002A -  8    36 00 03 E8 00 01 00 00 
   620)      1548.544 1  Rx        002B -  8    00 03 E8 00 D8 8E 01 72 
   621)      1551.019 1  Rx        001A -  8    37 00 03 E8 00 01 00 00 
   622)      1553.536 1  Rx        001B -  8    00 03 E8 00 43 2B 4D 1D 
   623)      1556.010 1  Rx        002A -  8    37 00 03 E8 00 01 00 00 
   624)      1558.528 1  Rx        002B -  8    00 03 E8 00 43 2B 4D 1D 
   625)      1561.045 1  Rx        001A -  8    38 00 03 E8 00 01 00 00 
   626)      1563.519 1  Rx        001B -  8    00 03 E8 00 31 BF D2 6C 
   627)      1566.036 1  Rx        002A -  8    38 00 03 E8 00 01 00 00 
   628)      1568.511 1  Rx        002B -  8    00 03 E8 00 31 BF D2 6C 
   629)      1571.028 1  Rx        001A -  8    39 00 03 E8 00 01 00 00 
   630)      1573.545 1  Rx        001B -  8    00 03 E8 00 AA 1A 9E 03 
   631)      1576.019 1  Rx        002A -  8    39 00 03 E8 00 01 00 00 
   632)      1578.536 1  Rx        002B -  8    00 03 E8 00 AA 1A 9E 03 
   633)      1581.054 1  Rx        001A -  8    3A 00 03 E8 00 01 00 00 
   634)      1583.528 1  Rx        001B -  8    00 03 E8 00 DD 84 4C F3 
   635)      1586.045 1  Rx        002A -  8    3A 00 03 E8 00 01 00 00 
   636)      1588.520 1  Rx        002B -  8    00 03 E8 00 DD 84 4C F3 
   637)      1591.037 1  Rx        001A -  8    3B 00 03 E8 00 01 00 00 
   638)      1593.767 1  Rx        001B -  8    00 03 E8 00 46 21 00 9C 
   639)      1596.028 1  Rx        002A -  8    3B 00 03 E8 00 01 00 00 
   640)      1598.545 1  Rx        002B -  8    00 03 E8 00 46 21 00 9C 
   641)      1601.020 1  Rx        001A -  8    3C 00 03 E8 00 01 00 00 
   642)      1603.537 1  Rx        001B -  8    00 03 E8 00 32 B9 E9 13 
   643)      1606.054 1  Rx        002A -  8    3C 00 03 E8 00 01 00 00 
   644)      1608.529 1  Rx        002B -  8    00 03 E8 00 32 B9 E9 13 
   645)      1611.046 1  Rx        001A -  8    3D 00 03 E8 00 01 00 00 
   646)      1613.520 1  Rx        001B -  8    00 03 E8 00 A9 1C A5 7C 
   647)      1616.037 1  Rx        002A -  8    3D 00 03 E8 00 01 00 00 
   648)      1618.512 1  Rx        002B -  8    00 03 E8 00 A9 1C A5 7C 
   649)      1621.029 1  Rx        001A -  8    3E 00 03 E8 00 01 00 00 
   650)      1623.546 1  Rx        001B -  8    00 03 E8 00 DE 82 77 8C 
   651)      1626.020 1  Rx        002A -  8    3E 00 03 E8 00 01 00 00 
   652)      1628.538 1  Rx        002B -  8    00 03 E8 00 DE 82 77 8C 
   653)      1631.012 1  Rx        001A -  8    3F 00 03 E8 00 01 00 00 
   654)      1633.529 1  Rx        001B -  8    00 03 E8 00 45 27 3B E3 
   655)      1636.046 1  Rx        002A -  8    3F 00 03 E8 00 01 00 00 
   656)      1638.521 1  Rx        002B -  8    00 03 E8 00 45 27 3B E3 
   657)      1641.038 1  Rx        001A -  8    40 00 03 E8 00 01 00 00 
   658)      1643.512 1  Rx        001B -  8    00 03 E8 00 13 F9 25 66 
   659)      1646.029 1  Rx        002A -  8    40 00 03 E8 00 01 00 00 
   660)      1648.546 1  Rx        002B -  8    00 03 E8 00 13 F9 25 66 
   661)      1651.021 1  Rx        001A -  8    41 00 03 E8 00 01 00 00 
   662)      1653.538 1  Rx        001B -  8    00 03 E8 00 88 5C 69 09 
   663)      1656.013 1  Rx        002A -  8    41 00 03 E8 00 01 00 00 
   664)      1658.530 1  Rx        002B -  8    00 03 E8 00 88 5C 69 09 
   665)      1661.047 1  Rx        001A -  8    42 00 03 E8 00 01 00 00 
   666)      1663.521 1  Rx        001B -  8    00 03 E8 00 FF C2 BB F9 
   667)      1666.038 1  Rx        002A -  8    42 00 03 E8 00 01 00 00 
   668)      1669.323 1  Rx        002B -  8    00 03 E8 00 FF C2 BB F9 
   669)      1671.030 1  Rx        001A -  8    43 00 03 E8 00 01 00 00 
   670)      1673.504 1  Rx        001B -  8    00 03 E8 00 64 67 F7 96 
   671)      1676.021 1  Rx        002A -  8    43 00 03 E8 00 01 00 00 
   672)      1679.008 1  Rx        002B -  8    00 03 E8 00 64 67 F7 96 
   673)      1681.013 1  Rx        001A -  8    44 00 03 E8 00 01 00 00 
   674)      1683.530 1  Rx        001B -  8    00 03 E8 00 10 FF 1E 19 
   675)      1686.047 1  Rx        002A -  8    44 00 03 E8 00 01 00 00 
   676)      1688.522 1  Rx        002B -  8    00 03 E8 00 10 FF 1E 19 
   677)      1691.039 1  Rx        001A -  8    45 00 03 E8 00 01 00 00 
   678)      1693.513 1  Rx        001B -  8    00 03 E8 00 8B 5A 52 76 
   679)      1696.372 1  Rx        002A -  8    45 00 03 E8 00 01 00 00 
   680)      1698.505 1  Rx        002B -  8    00 03 E8 00 8B 5A 52 76 
   681)      1701.022 1  Rx        001A -  8    46 00 03 E8 00 01 00 00 
   682)      1703.539 1  Rx        001B -  8    00 03 E8 00 FC C4 80 86 
   683)      1706.014 1  Rx        002A -  8    46 00 03 E8 00 01 00 00 
   684)      1708.531 1  Rx        002B -  8    00 03 E8 00 FC C4 80 86 
   685)      1711.389 1  Rx        001A -  8    47 00 03 E8 00 01 00 00 
   686)      1713.522 1  Rx        001B -  8    00 03 E8 00 67 61 CC E9 
   687)      1715.997 1  Rx        002A -  8    47 00 03 E8 00 01 00 00 
   688)      1718.514 1  Rx        002B -  8    00 03 E8 00 67 61 CC E9 
   689)      1721.031 1  Rx        001A -  8    48 00 03 E8 00 01 00 00 
   690)      1723.505 1  Rx        001B -  8    00 03 E8 00 15 F5 53 98 
   691)      1726.022 1  Rx        002A -  8    48 00 03 E8 00 01 00 00 
   692)      1728.540 1  Rx        002B -  8    00 03 E8 00 15 F5 53 98 
   693)      1731.014 1  Rx        001A -  8    49 00 03 E8 00 01 00 00 
   694)      1733.531 1  Rx        001B -  8    00 03 E8 00 8E 50 1F F7 
   695)      1736.006 1  Rx        002A -  8    49 00 03 E8 00 01 00 00 
   696)      1738.523 1  Rx        002B -  8    00 03 E8 00 8E 50 1F F7 
   697)      1741.040 1  Rx        001A -  8    4A 00 03 E8 00 01 00 00 
   698)      1743.514 1  Rx        001B -  8    00 03 E8 00 F9 CE CD 07 
   699)      1746.031 1  Rx        002A -  8    4A 00 03 E8 00 01 00 00 
   700)      1748.506 1  Rx        002B -  8    00 03 E8 00 F9 CE CD 07 
   701)      1751.023 1  Rx        001A -  8    4B 00 03 E8 00 01 00 00 
   702)      1753.497 1  Rx        001B -  8    00 03 E8 00 62 6B 81 68 
   703)      1756.015 1  Rx        002A -  8    4B 00 03 E8 00 01 00 00 
   704)      1758.532 1  Rx        002B -  8    00 03 E8 00 62 6B 81 68 
   705)      1761.390 1  Rx        001A -  8    4C 00 03 E8 00 01 00 00 
   706)      1763.523 1  Rx        001B -  8    00 03 E8 00 16 F3 68 E7 
   707)      1765.998 1  Rx        002A -  8    4C 00 03 E8 00 01 00 00 
   708)      1768.515 1  Rx        002B -  8    00 03 E8 00 16 F3 68 E7 
   709)      1771.032 1  Rx        001A -  8    4D 00 03 E8 00 01 00 00 
   710)      1773.506 1  Rx        001B -  8    00 03 E8 00 8D 56 24 88 
   711)      1776.024 1  Rx        002A -  8    4D 00 03 E8 00 01 00 00 
   712)      1778.498 1  Rx        002B -  8    00 03 E8 00 8D 56 24 88 
   713)      1781.015 1  Rx        001A -  8    4E 00 03 E8 00 01 00 00 
   714)      1783.532 1  Rx        001B -  8    00 03 E8 00 FA C8 F6 78 
   715)      1786.007 1  Rx        002A -  8    4E 00 03 E8 00 01 00 00 
   716)      1788.524 1  Rx        002B -  8    00 03 E8 00 FA C8 F6 78 
   717)      1790.998 1  Rx        001A -  8    4F 00 03 E8 00 01 00 00 
   718)      1793.515 1  Rx        001B -  8    00 03 E8 00 61 6D BA 17 
   719)      1796.032 1  Rx        002A -  8    4F 00 03 E8 00 01 00 00 
   720)      1798.507 1  Rx        002B -  8    00 03 E8 00 61 6D BA 17 
   721)      1801.024 1  Rx        001A -  8    50 00 03 E8 00 01 00 00 
   722)      1804.010 1  Rx        001B -  8    00 03 E8 00 1F E1 C8 9A 
   723)      1806.016 1  Rx        002A -  8    50 00 03 E8 00 01 00 00 
   724)      1808.533 1  Rx        002B -  8    00 03 E8 00 1F E1 C8 9A 
   725)      1811.519 1  Rx        001A -  8    51 00 03 E8 00 01 00 00 
   726)      1813.524 1  Rx        001B -  8    00 03 E8 00 84 44 84 F5 
   727)      1815.999 1  Rx        002A -  8    51 00 03 E8 00 01 00 00 
   728)      1818.516 1  Rx        002B -  8    00 03 E8 00 84 44 84 F5 
   729)      1821.033 1  Rx        001A -  8    52 00 03 E8 00 01 00 00 
   730)      1823.507 1  Rx        001B -  8    00 03 E8 00 F3 DA 56 05 
   731)      1826.025 1  Rx        002A -  8    52 00 03 E8 00 01 00 00 
   732)      1828.499 1  Rx        002B -  8    00 03 E8 00 F3 DA 56 05 
   733)      1831.016 1  Rx        001A -  8    53 00 03 E8 00 01 00 00 
   734)      1833.533 1  Rx        001B -  8    00 03 E8 00 68 7F 1A 6A 
   735)      1836.008 1  Rx        002A -  8    53 00 03 E8 00 01 00 00 
   736)      1838.525 1  Rx        002B -  8    00 03 E8 00 68 7F 1A 6A 
   737)      1840.999 1  Rx        001A -  8    54 00 07 D0 00 02 00 00 
   738)      1843.516 1  Rx        001B -  8    00 07 D0 00 A1 9B 3F EF 
   739)      1846.034 1  Rx        002A -  8    54 00 07 D0 00 02 00 00 
   740)      1848.508 1  Rx        002B -  8    00 07 D0 00 A1 9B 3F EF 
   741)      1851.025 1  Rx        001A -  8    55 00 07 D0 00 02 00 00 
   742)      1854.011 1  Rx        001B -  8    00 07 D0 00 3A 3E 73 80 
   743)      1856.017 1  Rx        002A -  8    55 00 07 D0 00 02 00 00 
   744)      1858.534 1  Rx        002B -  8    00 07 D0 00 3A 3E 73 80 
   745)      1861.008 1  Rx        001A -  8    56 00 07 D0 00 02 00 00 
   746)      1863.525 1  Rx        001B -  8    00 07 D0 00 4D A0 A1 70 
   747)      1866.000 1  Rx        002A -  8    56 00 07 D0 00 02 00 00 
   748)      1868.517 1  Rx        002B -  8    00 07 D0 00 4D A0 A1 70 
   749)      1871.034 1  Rx        001A -  8    57 00 07 D0 00 02 00 00 
   750)      1873.508 1  Rx        001B -  8    00 07 D0 00 D6 05 ED 1F 
   751)      1876.026 1  Rx        002A -  8    57 00 07 D0 00 02 00 00 
   752)      1878.543 1  Rx        002B -  8    00 07 D0 00 D6 05 ED 1F 
   753)      1881.017 1  Rx        001A -  8    58 00 07 D0 00 02 00 00 
   754)      1883.492 1  Rx        001B -  8    00 07 D0 00 A4 91 72 6E 
   755)      1886.009 1  Rx        002A -  8    58 00 07 D0 00 02 00 00 
   756)      1888.526 1  Rx        002B -  8    00 07 D0 00 A4 91 72 6E 
   757)      1891.000 1  Rx        001A -  8    59 00 07 D0 00 02 00 00 
   758)      1893.517 1  Rx        001B -  8    00 07 D0 00 3F 34 3E 01 
   759)      1895.992 1  Rx        002A -  8    59 00 07 D0 00 02 00 00 
   760)      1898.509 1  Rx        002B -  8    00 07 D0 00 3F 34 3E 01 
   761)      1901.026 1  Rx        001A -  8    5A 00 07 D0 00 02 00 00 
   762)      1904.013 1  Rx        001B -  8    00 07 D0 00 48 AA EC F1 
   763)      1906.018 1  Rx        002A -  8    5A 00 07 D0 00 02 00 00 
   764)      1908.492 1  Rx        002B -  8    00 07 D0 00 48 AA EC F1 
   765)      1911.009 1  Rx        001A -  8    5B 00 07 D0 00 02 00 00 
   766)      1913.526 1  Rx        001B -  8    00 07 D0 00 D3 0F A0 9E 
   767)      1916.001 1  Rx        002A -  8    5B 00 07 D0 00 02 00 00 
   768)      1918.518 1  Rx        002B -  8    00 07 D0 00 D3 0F A0 9E 
   769)      1920.992 1  Rx        001A -  8    5C 00 07 D0 00 02 00 00 
   770)      1923.510 1  Rx        001B -  8    00 07 D0 00 A7 97 49 11 
   771)      1926.027 1  Rx        002A -  8    5C 00 07 D0 00 02 00 00 
   772)      1929.013 1  Rx        002B -  8    00 07 D0 00 A7 97 49 11 
   773)      1931.018 1  Rx        001A -  8    5D 00 07 D0 00 02 00 00 
   774)      1933.493 1  Rx        001B -  8    00 07 D0 00 3C 32 05 7E 
   775)      1936.010 1  Rx        002A -  8    5D 00 07 D0 00 02 00 00 
   776)      1938.527 1  Rx        002B -  8    00 07 D0 00 3C 32 05 7E 
   777)      1941.001 1  Rx        001A -  8    5E 00 07 D0 00 02 00 00 
   778)      1943.518 1  Rx        001B -  8    00 07 D0 00 4B AC D7 8E 
   779)      1945.993 1  Rx        002A -  8    5E 00 07 D0 00 02 00 00 
   780)      1948.510 1  Rx        002B -  8    00 07 D0 00 4B AC D7 8E 
   781)      1951.027 1  Rx        001A -  8    5F 00 07 D0 00 02 00 00 
   782)      1954.014 1  Rx        001B -  8    00 07 D0 00 D0 09 9B E1 
   783)      1956.019 1  Rx        002A -  8    5F 00 07 D0 00 02 00 00 
   784)      1958.493 1  Rx        002B -  8    00 07 D0 00 D0 09 9B E1 
   785)      1962.034 1  Rx        001A -  8    60 00 07 D0 00 02 00 00 
   786)      1963.527 1  Rx        001B -  8    00 07 D0 00 B6 B4 32 94 
   787)      1966.002 1  Rx        002A -  8    60 00 07 D0 00 02 00 00 
   788)      1968.519 1  Rx        002B -  8    00 07 D0 00 B6 B4 32 94 
   789)      1970.993 1  Rx        001A -  8    61 00 07 D0 00 02 00 00 
   790)      1973.511 1  Rx        001B -  8    00 07 D0 00 2D 11 7E FB 
   791)      1975.985 1  Rx        002A -  8    61 00 07 D0 00 02 00 00 
   792)      1978.502 1  Rx        002B -  8    00 07 D0 00 2D 11 7E FB 
   793)      1981.019 1  Rx        001A -  8    62 00 07 D0 00 02 00 00 
   794)      1983.494 1  Rx        001B -  8    00 07 D0 00 5A 8F AC 0B 
   795)      1986.523 1  Rx        002A -  8    62 00 07 D0 00 02 00 00 
   796)      1988.528 1  Rx        002B -  8    00 07 D0 00 5A 8F AC 0B 
   797)      1991.002 1  Rx        001A -  8    63 00 07 D0 00 02 00 00 
   798)      1993.519 1  Rx        001B -  8    00 07 D0 00 C1 2A E0 64 
   799)      1995.994 1  Rx        002A -  8    63 00 07 D0 00 02 00 00 
   800)      1998.511 1  Rx        002B -  8    00 07 D0 00 C1 2A E0 64 
   801)      2001.028 1  Rx        001A -  8    64 00 07 D0 00 02 00 00 
   802)      2003.503 1  Rx        001B -  8    00 07 D0 00 B5 B2 09 EB 
   803)      2006.020 1  Rx        002A -  8    64 00 07 D0 00 02 00 00 
   804)      2008.494 1  Rx        002B -  8    00 07 D0 00 B5 B2 09 EB 
   805)      2011.523 1  Rx        001A -  8    65 00 07 D0 00 02 00 00 
   806)      2013.486 1  Rx        001B -  8    00 07 D0 00 2E 17 45 84 
   807)      2016.003 1  Rx        002A -  8    65 00 07 D0 00 02 00 00 
   808)      2018.520 1  Rx        002B -  8    00 07 D0 00 2E 17 45 84 
   809)      2020.994 1  Rx        001A -  8    66 00 07 D0 00 02 00 00 
   810)      2023.512 1  Rx        001B -  8    00 07 D0 00 59 89 97 74 
   811)      2025.986 1  Rx        002A -  8    66 00 07 D0 00 02 00 00 
   812)      2028.503 1  Rx        002B -  8    00 07 D0 00 59 89 97 74 
   813)      2031.020 1  Rx        001A -  8    67 00 07 D0 00 02 00 00 
   814)      2033.495 1  Rx        001B -  8    00 07 D0 00 C2 2C DB 1B 
   815)      2036.012 1  Rx        002A -  8    67 00 07 D0 00 02 00 00 
   816)      2038.486 1  Rx        002B -  8    00 07 D0 00 C2 2C DB 1B 
   817)      2041.003 1  Rx        001A -  8    68 00 07 D0 00 02 00 00 
   818)      2043.521 1  Rx        001B -  8    00 07 D0 00 B0 B8 44 6A 
   819)      2045.995 1  Rx        002A -  8    68 00 07 D0 00 02 00 00 
   820)      2048.512 1  Rx        002B -  8    00 07 D0 00 B0 B8 44 6A 
   821)      2050.987 1  Rx        001A -  8    69 00 07 D0 00 02 00 00 
   822)      2053.504 1  Rx        001B -  8    00 07 D0 00 2B 1D 08 05 
   823)      2056.021 1  Rx        002A -  8    69 00 07 D0 00 02 00 00 
   824)      2058.495 1  Rx        002B -  8    00 07 D0 00 2B 1D 08 05 
   825)      2061.012 1  Rx        001A -  8    6A 00 07 D0 00 02 00 00 
   826)      2063.487 1  Rx        001B -  8    00 07 D0 00 5C 83 DA F5 
   827)      2066.004 1  Rx        002A -  8    6A 00 07 D0 00 02 00 00 
   828)      2068.521 1  Rx        002B -  8    00 07 D0 00 5C 83 DA F5 
   829)      2070.996 1  Rx        001A -  8    6B 00 07 D0 00 02 00 00 
   830)      2073.513 1  Rx        001B -  8    00 07 D0 00 C7 26 96 9A 
   831)      2075.987 1  Rx        002A -  8    6B 00 07 D0 00 02 00 00 
   832)      2078.504 1  Rx        002B -  8    00 07 D0 00 C7 26 96 9A 
   833)      2081.021 1  Rx        001A -  8    6C 00 07 D0 00 02 00 00 
   834)      2083.496 1  Rx        001B -  8    00 07 D0 00 B3 BE 7F 15 
   835)      2086.525 1  Rx        002A -  8    6C 00 07 D0 00 02 00 00 
   836)      2088.487 1  Rx        002B -  8    00 07 D0 00 B3 BE 7F 15 
   837)      2091.004 1  Rx        001A -  8    6D 00 07 D0 00 02 00 00 
   838)      2093.522 1  Rx        001B -  8    00 07 D0 00 28 1B 33 7A 
   839)      2095.997 1  Rx        002A -  8    6D 00 07 D0 00 02 00 00 
   840)      2098.514 1  Rx        002B -  8    00 07 D0 00 28 1B 33 7A 
   841)      2100.989 1  Rx        001A -  8    6E 00 07 D0 00 02 00 00 
   842)      2103.762 1  Rx        001B -  8    00 07 D0 00 5F 85 E1 8A 
   843)      2106.023 1  Rx        002A -  8    6E 00 07 D0 00 02 00 00 
   844)      2108.497 1  Rx        002B -  8    00 07 D0 00 5F 85 E1 8A 
   845)      2111.014 1  Rx        001A -  8    6F 00 07 D0 00 02 00 00 
   846)      2113.489 1  Rx        001B -  8    00 07 D0 00 C4 20 AD E5 
   847)      2116.006 1  Rx        002A -  8    6F 00 07 D0 00 02 00 00 
   848)      2118.523 1  Rx        002B -  8    00 07 D0 00 C4 20 AD E5 
   849)      2120.998 1  Rx        001A -  8    70 00 07 D0 00 02 00 00 
   850)      2123.515 1  Rx        001B -  8    00 07 D0 00 BA AC DF 68 
   851)      2125.989 1  Rx        002A -  8    70 00 07 D0 00 02 00 00 
   852)      2128.506 1  Rx        002B -  8    00 07 D0 00 BA AC DF 68 
   853)      2130.981 1  Rx        001A -  8    71 00 07 D0 00 02 00 00 
   854)      2133.498 1  Rx        001B -  8    00 07 D0 00 21 09 93 07 
   855)      2136.015 1  Rx        002A -  8    71 00 07 D0 00 02 00 00 
   856)      2138.745 1  Rx        002B -  8    00 07 D0 00 21 09 93 07 
   857)      2141.006 1  Rx        001A -  8    72 00 07 D0 00 02 00 00 
   858)      2143.524 1  Rx        001B -  8    00 07 D0 00 56 97 41 F7 
   859)      2145.998 1  Rx        002A -  8    72 00 07 D0 00 02 00 00 
   860)      2148.515 1  Rx        002B -  8    00 07 D0 00 56 97 41 F7 
   861)      2150.990 1  Rx        001A -  8    73 00 07 D0 00 02 00 00 
   862)      2153.507 1  Rx        001B -  8    00 07 D0 00 CD 32 0D 98 
   863)      2155.981 1  Rx        002A -  8    73 00 07 D0 00 02 00 00 
   864)      2158.498 1  Rx        002B -  8    00 07 D0 00 CD 32 0D 98 
   865)      2161.015 1  Rx        001A -  8    74 00 07 D0 00 02 00 00 
   866)      2163.490 1  Rx        001B -  8    00 07 D0 00 B9 AA E4 17 
   867)      2166.007 1  Rx        002A -  8    74 00 07 D0 00 02 00 00 
   868)      2168.481 1  Rx        002B -  8    00 07 D0 00 B9 AA E4 17 
   869)      2170.999 1  Rx        001A -  8    75 00 07 D0 00 02 00 00 
   870)      2173.516 1  Rx        001B -  8    00 07 D0 00 22 0F A8 78 
   871)      2175.990 1  Rx        002A -  8    75 00 07 D0 00 02 00 00 
   872)      2178.507 1  Rx        002B -  8    00 07 D0 00 22 0F A8 78 
   873)      2180.982 1  Rx        001A -  8    76 00 07 D0 00 02 00 00 
   874)      2183.499 1  Rx        001B -  8    00 07 D0 00 55 91 7A 88 
   875)      2186.485 1  Rx        002A -  8    76 00 07 D0 00 02 00 00 
   876)      2188.490 1  Rx        002B -  8    00 07 D0 00 55 91 7A 88 
   877)      2191.008 1  Rx        001A -  8    77 00 07 D0 00 02 00 00 
   878)      2193.482 1  Rx        001B -  8    00 07 D0 00 CE 34 36 E7 
   879)      2195.999 1  Rx        002A -  8    77 00 07 D0 00 02 00 00 
   880)      2198.474 1  Rx        002B -  8    00 07 D0 00 CE 34 36 E7 
   881)      2200.991 1  Rx        001A -  8    78 00 07 D0 00 02 00 00 
   882)      2203.764 1  Rx        001B -  8    00 07 D0 00 BC A0 A9 96 
   883)      2206.025 1  Rx        002A -  8    78 00 07 D0 00 02 00 00 
   884)      2208.499 1  Rx        002B -  8    00 07 D0 00 BC A0 A9 96 
   885)      2211.016 1  Rx        001A -  8    79 00 07 D0 00 02 00 00 
   886)      2213.491 1  Rx        001B -  8    00 07 D0 00 27 05 E5 F9 
   887)      2216.008 1  Rx        002A -  8    79 00 07 D0 00 02 00 00 
   888)      2218.482 1  Rx        002B -  8    00 07 D0 00 27 05 E5 F9 
   889)      2221.000 1  Rx        001A -  8    7A 00 07 D0 00 02 00 00 
   890)      2223.517 1  Rx        001B -  8    00 07 D0 00 50 9B 37 09 
   891)      2225.991 1  Rx        002A -  8    7A 00 07 D0 00 02 00 00 
   892)      2228.508 1  Rx        002B -  8    00 07 D0 00 50 9B 37 09 
   893)      2230.983 1  Rx        001A -  8    7B 00 07 D0 00 02 00 00 
   894)      2233.500 1  Rx        001B -  8    00 07 D0 00 CB 3E 7B 66 
   895)      2235.974 1  Rx        002A -  8    7B 00 07 D0 00 02 00 00 
   896)      2238.491 1  Rx        002B -  8    00 07 D0 00 CB 3E 7B 66 
   897)      2241.009 1  Rx        001A -  8    7C 00 07 D0 00 02 00 00 
   898)      2243.483 1  Rx        001B -  8    00 07 D0 00 BF A6 92 E9 
   899)      2246.000 1  Rx        002A -  8    7C 00 07 D0 00 02 00 00 
   900)      2248.517 1  Rx        002B -  8    00 07 D0 00 BF A6 92 E9 
   901)      2250.992 1  Rx        001A -  8    7D 00 07 D0 00 02 00 00 
   902)      2253.509 1  Rx        001B -  8    00 07 D0 00 24 03 DE 86 
   903)      2255.983 1  Rx        002A -  8    7D 00 07 D0 00 02 00 00 
   904)      2258.500 1  Rx        002B -  8    00 07 D0 00 24 03 DE 86 
   905)      2262.212 1  Rx        001A -  8    7E 00 07 D0 00 02 00 00 
   906)      2263.492 1  Rx        001B -  8    00 07 D0 00 53 9D 0C 76 
   907)      2266.009 1  Rx        002A -  8    7E 00 07 D0 00 02 00 00 
   908)      2268.484 1  Rx        002B -  8    00 07 D0 00 53 9D 0C 76 
   909)      2271.001 1  Rx        001A -  8    7F 00 07 D0 00 02 00 00 
   910)      2273.518 1  Rx        001B -  8    00 07 D0 00 C8 38 40 19 
   911)      2275.992 1  Rx        002A -  8    7F 00 07 D0 00 02 00 00 
   912)      2279.021 1  Rx        002B -  8    00 07 D0 00 C8 38 40 19 
   913)      2280.984 1  Rx        001A -  8    80 00 07 D0 00 02 00 00 
   914)      2283.501 1  Rx        001B -  8    00 07 D0 00 FE 21 31 7C 
   915)      2286.018 1  Rx        002A -  8    80 00 07 D0 00 02 00 00 
   916)      2288.492 1  Rx        002B -  8    00 07 D0 00 FE 21 31 7C 
   917)      2291.010 1  Rx        001A -  8    81 00 07 D0 00 02 00 00 
   918)      2293.484 1  Rx        001B -  8    00 07 D0 00 65 84 7D 13 
   919)      2296.001 1  Rx        002A -  8    81 00 07 D0 00 02 00 00 
   920)      2298.476 1  Rx        002B -  8    00 07 D0 00 65 84 7D 13 
   921)      2300.993 1  Rx        001A -  8    82 00 07 D0 00 02 00 00 
   922)      2303.510 1  Rx        001B -  8    00 07 D0 00 12 1A AF E3 
   923)      2305.984 1  Rx        002A -  8    82 00 07 D0 00 02 00 00 
   924)      2308.501 1  Rx        002B -  8    00 07 D0 00 12 1A AF E3 
   925)      2310.976 1  Rx        001A -  8    83 00 07 D0 00 02 00 00 
   926)      2313.493 1  Rx        001B -  8    00 07 D0 00 89 BF E3 8C 
   927)      2316.010 1  Rx        002A -  8    83 00 07 D0 00 02 00 00 
   928)      2318.485 1  Rx        002B -  8    00 07 D0 00 89 BF E3 8C 
   929)      2321.002 1  Rx        001A -  8    84 00 07 D0 00 02 00 00 
   930)      2323.476 1  Rx        001B -  8    00 07 D0 00 FD 27 0A 03 
   931)      2325.993 1  Rx        002A -  8    84 00 07 D0 00 02 00 00 
   932)      2328.510 1  Rx        002B -  8    00 07 D0 00 FD 27 0A 03 
   933)      2330.985 1  Rx        001A -  8    85 00 07 D0 00 02 00 00 
   934)      2333.502 1  Rx        001B -  8    00 07 D0 00 66 82 46 6C 
   935)      2335.976 1  Rx        002A -  8    85 00 07 D0 00 02 00 00 
   936)      2338.749 1  Rx        002B -  8    00 07 D0 00 66 82 46 6C 
   937)      2341.011 1  Rx        001A -  8    86 00 07 D0 00 02 00 00 
   938)      2343.485 1  Rx        001B -  8    00 07 D0 00 11 1C 94 9C 
   939)      2346.002 1  Rx        002A -  8    86 00 07 D0 00 02 00 00 
   940)      2348.477 1  Rx        002B -  8    00 07 D0 00 11 1C 94 9C 
   941)      2350.994 1  Rx        001A -  8    87 00 07 D0 00 02 00 00 
   942)      2353.511 1  Rx        001B -  8    00 07 D0 00 8A B9 D8 F3 
   943)      2355.985 1  Rx        002A -  8    87 00 07 D0 00 02 00 00 
   944)      2358.502 1  Rx        002B -  8    00 07 D0 00 8A B9 D8 F3 
   945)      2360.977 1  Rx        001A -  8    88 00 07 D0 00 02 00 00 
   946)      2363.494 1  Rx        001B -  8    00 07 D0 00 F8 2D 47 82 
   947)      2365.968 1  Rx        002A -  8    88 00 07 D0 00 02 00 00 
   948)      2368.486 1  Rx        002B -  8    00 07 D0 00 F8 2D 47 82 
   949)      2371.003 1  Rx        001A -  8    89 00 07 D0 00 02 00 00 
   950)      2373.477 1  Rx        001B -  8    00 07 D0 00 63 88 0B ED 
   951)      2375.994 1  Rx        002A -  8    89 00 07 D0 00 02 00 00 
   952)      2378.511 1  Rx        002B -  8    00 07 D0 00 63 88 0B ED 
   953)      2380.986 1  Rx        001A -  8    8A 00 07 D0 00 02 00 00 
   954)      2383.503 1  Rx        001B -  8    00 07 D0 00 14 16 D9 1D 
   955)      2386.489 1  Rx        002A -  8    8A 00 07 D0 00 02 00 00 
   956)      2388.495 1  Rx        002B -  8    00 07 D0 00 14 16 D9 1D 
   957)      2390.969 1  Rx        001A -  8    8B 00 07 D0 00 02 00 00 
   958)      2393.486 1  Rx        001B -  8    00 07 D0 00 8F B3 95 72 
   959)      2396.003 1  Rx        002A -  8    8B 00 07 D0 00 02 00 00 
   960)      2398.478 1  Rx        002B -  8    00 07 D0 00 8F B3 95 72 
   961)      2400.995 1  Rx        001A -  8    8C 00 07 D0 00 02 00 00 
   962)      2403.512 1  Rx        001B -  8    00 07 D0 00 FB 2B 7C FD 
   963)      2405.986 1  Rx        002A -  8    8C 00 07 D0 00 02 00 00 
   964)      2408.503 1  Rx        002B -  8    00 07 D0 00 FB 2B 7C FD 
   965)      2410.978 1  Rx        001A -  8    8D 00 07 D0 00 02 00 00 
   966)      2413.495 1  Rx        001B -  8    00 07 D0 00 60 8E 30 92 
   967)      2415.970 1  Rx        002A -  8    8D 00 07 D0 00 02 00 00 
   968)      2418.487 1  Rx        002B -  8    00 07 D0 00 60 8E 30 92 
   969)      2421.004 1  Rx        001A -  8    8E 00 07 D0 00 02 00 00 
   970)      2423.478 1  Rx        001B -  8    00 07 D0 00 17 10 E2 62 
   971)      2425.995 1  Rx        002A -  8    8E 00 07 D0 00 02 00 00 
   972)      2428.470 1  Rx        002B -  8    00 07 D0 00 17 10 E2 62 
   973)      2430.987 1  Rx        001A -  8    8F 00 07 D0 00 02 00 00 
   974)      2433.504 1  Rx        001B -  8    00 07 D0 00 8C B5 AE 0D 
   975)      2435.978 1  Rx        002A -  8    8F 00 07 D0 00 02 00 00 
   976)      2438.496 1  Rx        002B -  8    00 07 D0 00 8C B5 AE 0D 
   977)      2440.970 1  Rx        001A -  8    90 00 07 D0 00 02 00 00 
   978)      2443.487 1  Rx        001B -  8    00 07 D0 00 F2 39 DC 80 
   979)      2446.004 1  Rx        002A -  8    90 00 07 D0 00 02 00 00 
   980)      2448.479 1  Rx        002B -  8    00 07 D0 00 F2 39 DC 80 
   981)      2450.996 1  Rx        001A -  8    91 00 07 D0 00 02 00 00 
   982)      2453.470 1  Rx        001B -  8    00 07 D0 00 69 9C 90 EF 
   983)      2455.987 1  Rx        002A -  8    91 00 07 D0 00 02 00 00 
   984)      2458.505 1  Rx        002B -  8    00 07 D0 00 69 9C 90 EF 
   985)      2461.491 1  Rx        001A -  8    92 00 07 D0 00 02 00 00 
   986)      2463.496 1  Rx        001B -  8    00 07 D0 00 1E 02 42 1F 
   987)      2465.971 1  Rx        002A -  8    92 00 07 D0 00 02 00 00 
   988)      2468.488 1  Rx        002B -  8    00 07 D0 00 1E 02 42 1F 
   989)      2470.962 1  Rx        001A -  8    93 00 07 D0 00 02 00 00 
   990)      2473.479 1  Rx        001B -  8    00 07 D0 00 85 A7 0E 70 
   991)      2475.996 1  Rx        002A -  8    93 00 07 D0 00 02 00 00 
   992)      2478.471 1  Rx        002B -  8    00 07 D0 00 85 A7 0E 70 
   993)      2480.988 1  Rx        001A -  8    94 00 07 D0 00 02 00 00 
   994)      2483.505 1  Rx        001B -  8    00 07 D0 00 F1 3F E7 FF 
   995)      2485.980 1  Rx        002A -  8    94 00 07 D0 00 02 00 00 
   996)      2488.497 1  Rx        002B -  8    00 07 D0 00 F1 3F E7 FF 
   997)      2490.971 1  Rx        001A -  8    95 00 07 D0 00 02 00 00 
   998)      2493.488 1  Rx        001B -  8    00 07 D0 00 6A 9A AB 90 
   999)      2495.963 1  Rx        002A -  8    95 00 07 D0 00 02 00 00 
  1000)      2498.480 1  Rx        002B -  8    00 07 D0 00 6A 9A AB 90 
  1001)      2500.997 1  Rx        001A -  8    96 00 07 D0 00 02 00 00 
  1002)      2503.514 1  Rx        001B -  8    00 07 D0 00 1D 04 79 60 
  1003)      2505.988 1  Rx        002A -  8    96 00 07 D0 00 02 00 00 
  1004)      2508.506 1  Rx        002B -  8    00 07 D0 00 1D 04 79 60 
  1005)      2511.492 1  Rx        001A -  8    97 00 07 D0 00 02 00 00 
  1006)      2513.497 1  Rx        001B -  8    00 07 D0 00 86 A1 35 0F 
  1007)      2515.972 1  Rx        002A -  8    97 00 07 D0 00 02 00 00 
  1008)      2518.489 1  Rx        002B -  8    00 07 D0 00 86 A1 35 0F 
  1009)      2521.006 1  Rx        001A -  8    98 00 07 D0 00 02 00 00 
  1010)      2523.480 1  Rx        001B -  8    00 07 D0 00 F4 35 AA 7E 
  1011)      2525.997 1  Rx        002A -  8    98 00 07 D0 00 02 00 00 
  1012)      2528.472 1  Rx        002B -  8    00 07 D0 00 F4 35 AA 7E 
  1013)      2530.989 1  Rx        001A -  8    99 00 07 D0 00 02 00 00 
  1014)      2533.463 1  Rx        001B -  8    00 07 D0 00 6F 90 E6 11 
  1015)      2537.004 1  Rx        002A -  8    99 00 07 D0 00 02 00 00 
  1016)      2538.498 1  Rx        002B -  8    00 07 D0 00 6F 90 E6 11 
  1017)      2540.972 1  Rx        001A -  8    9A 00 07 D0 00 02 00 00 
  1018)      2543.489 1  Rx        001B -  8    00 07 D0 00 18 0E 34 E1 
  1019)      2546.006 1  Rx        002A -  8    9A 00 07 D0 00 02 00 00 
  1020)      2548.481 1  Rx        002B -  8    00 07 D0 00 18 0E 34 E1 
  1021)      2550.998 1  Rx        001A -  8    9B 00 07 D0 00 02 00 00 
  1022)      2553.472 1  Rx        001B -  8    00 07 D0 00 83 AB 78 8E 
  1023)      2555.989 1  Rx        002A -  8    9B 00 07 D0 00 02 00 00 
  1024)      2558.464 1  Rx        002B -  8    00 07 D0 00 83 AB 78 8E 
  1025)      2560.981 1  Rx        001A -  8    9C 00 07 D0 00 02 00 00 
  1026)      2563.498 1  Rx        001B -  8    00 07 D0 00 F7 33 91 01 
  1027)      2565.973 1  Rx        002A -  8    9C 00 07 D0 00 02 00 00 
  1028)      2568.490 1  Rx        002B -  8    00 07 D0 00 F7 33 91 01 
  1029)      2570.964 1  Rx        001A -  8    9D 00 07 D0 00 02 00 00 
  1030)      2573.481 1  Rx        001B -  8    00 07 D0 00 6C 96 DD 6E 
  1031)      2575.956 1  Rx        002A -  8    9D 00 07 D0 00 02 00 00 
  1032)      2578.985 1  Rx        002B -  8    00 07 D0 00 6C 96 DD 6E 
  1033)      2580.990 1  Rx        001A -  8    9E 00 07 D0 00 02 00 00 
  1034)      2583.507 1  Rx        001B -  8    00 07 D0 00 1B 08 0F 9E 
  1035)      2585.982 1  Rx        002A -  8    9E 00 07 D0 00 02 00 00 
  1036)      2588.499 1  Rx        002B -  8    00 07 D0 00 1B 08 0F 9E 
  1037)      2590.973 1  Rx        001A -  8    9F 00 07 D0 00 02 00 00 
  1038)      2593.490 1  Rx        001B -  8    00 07 D0 00 80 AD 43 F1 
  1039)      2595.965 1  Rx        002A -  8    9F 00 07 D0 00 02 00 00 
  1040)      2598.482 1  Rx        002B -  8    00 07 D0 00 80 AD 43 F1 
  1041)      2600.956 1  Rx        001A -  8    A0 00 07 D0 00 02 00 00 
  1042)      2603.473 1  Rx        001B -  8    00 07 D0 00 E6 10 EA 84 
  1043)      2605.991 1  Rx        002A -  8    A0 00 07 D0 00 02 00 00 
  1044)      2608.465 1  Rx        002B -  8    00 07 D0 00 E6 10 EA 84 
  1045)      2610.982 1  Rx        001A -  8    A1 00 07 D0 00 02 00 00 
  1046)      2613.499 1  Rx        001B -  8    00 07 D0 00 7D B5 A6 EB 
  1047)      2615.974 1  Rx        002A -  8    A1 00 07 D0 00 02 00 00 
  1048)      2618.491 1  Rx        002B -  8    00 07 D0 00 7D B5 A6 EB 
  1049)      2620.965 1  Rx        001A -  8    A2 00 07 D0 00 02 00 00 
  1050)      2623.482 1  Rx        001B -  8    00 07 D0 00 0A 2B 74 1B 
  1051)      2625.957 1  Rx        002A -  8    A2 00 07 D0 00 02 00 00 
  1052)      2628.986 1  Rx        002B -  8    00 07 D0 00 0A 2B 74 1B 
  1053)      2630.991 1  Rx        001A -  8    A3 00 07 D0 00 02 00 00 
  1054)      2633.465 1  Rx        001B -  8    00 07 D0 00 91 8E 38 74 
  1055)      2635.983 1  Rx        002A -  8    A3 00 07 D0 00 02 00 00 
  1056)      2638.457 1  Rx        002B -  8    00 07 D0 00 91 8E 38 74 
  1057)      2640.974 1  Rx        001A -  8    A4 00 07 D0 00 02 00 00 
  1058)      2643.491 1  Rx        001B -  8    00 07 D0 00 E5 16 D1 FB 
  1059)      2645.966 1  Rx        002A -  8    A4 00 07 D0 00 02 00 00 
  1060)      2648.483 1  Rx        002B -  8    00 07 D0 00 E5 16 D1 FB 
  1061)      2650.957 1  Rx        001A -  8    A5 00 07 D0 00 02 00 00 
  1062)      2653.474 1  Rx        001B -  8    00 07 D0 00 7E B3 9D 94 
  1063)      2655.992 1  Rx        002A -  8    A5 00 07 D0 00 02 00 00 
  1064)      2658.466 1  Rx        002B -  8    00 07 D0 00 7E B3 9D 94 
  1065)      2662.519 1  Rx        001A -  8    A6 00 07 D0 00 02 00 00 
  1066)      2663.458 1  Rx        001B -  8    00 07 D0 00 09 2D 4F 64 
  1067)      2665.975 1  Rx        002A -  8    A6 00 07 D0 00 02 00 00 
  1068)      2668.492 1  Rx        002B -  8    00 07 D0 00 09 2D 4F 64 
  1069)      2670.966 1  Rx        001A -  8    A7 00 07 D0 00 02 00 00 
  1070)      2673.483 1  Rx        001B -  8    00 07 D0 00 92 88 03 0B 
  1071)      2675.958 1  Rx        002A -  8    A7 00 07 D0 00 02 00 00 
  1072)      2678.475 1  Rx        002B -  8    00 07 D0 00 92 88 03 0B 
  1073)      2680.992 1  Rx        001A -  8    A8 00 07 D0 00 02 00 00 
  1074)      2683.467 1  Rx        001B -  8    00 07 D0 00 E0 1C 9C 7A 
  1075)      2685.984 1  Rx        002A -  8    A8 00 07 D0 00 02 00 00 
  1076)      2688.458 1  Rx        002B -  8    00 07 D0 00 E0 1C 9C 7A 
  1077)      2690.975 1  Rx        001A -  8    A9 00 07 D0 00 02 00 00 
  1078)      2693.492 1  Rx        001B -  8    00 07 D0 00 7B B9 D0 15 
  1079)      2695.967 1  Rx        002A -  8    A9 00 07 D0 00 02 00 00 
  1080)      2698.484 1  Rx        002B -  8    00 07 D0 00 7B B9 D0 15 
  1081)      2700.958 1  Rx        001A -  8    AA 00 07 D0 00 02 00 00 
  1082)      2703.475 1  Rx        001B -  8    00 07 D0 00 0C 27 02 E5 
  1083)      2705.993 1  Rx        002A -  8    AA 00 07 D0 00 02 00 00 
  1084)      2708.467 1  Rx        002B -  8    00 07 D0 00 0C 27 02 E5 
  1085)      2710.984 1  Rx        001A -  8    AB 00 07 D0 00 02 00 00 
  1086)      2713.459 1  Rx        001B -  8    00 07 D0 00 97 82 4E 8A 
  1087)      2715.976 1  Rx        002A -  8    AB 00 07 D0 00 02 00 00 
  1088)      2718.450 1  Rx        002B -  8    00 07 D0 00 97 82 4E 8A 
  1089)      2720.967 1  Rx        001A -  8    AC 00 07 D0 00 02 00 00 
  1090)      2723.484 1  Rx        001B -  8    00 07 D0 00 E3 1A A7 05 
  1091)      2725.959 1  Rx        002A -  8    AC 00 07 D0 00 02 00 00 
  1092)      2728.476 1  Rx        002B -  8    00 07 D0 00 E3 1A A7 05 
  1093)      2730.950 1  Rx        001A -  8    AD 00 07 D0 00 02 00 00 
  1094)      2733.468 1  Rx        001B -  8    00 07 D0 00 78 BF EB 6A 
  1095)      2735.985 1  Rx        002A -  8    AD 00 07 D0 00 02 00 00 
  1096)      2738.459 1  Rx        002B -  8    00 07 D0 00 78 BF EB 6A 
  1097)      2740.976 1  Rx        001A -  8    AE 00 07 D0 00 02 00 00 
  1098)      2743.493 1  Rx        001B -  8    00 07 D0 00 0F 21 39 9A 
  1099)      2745.968 1  Rx        002A -  8    AE 00 07 D0 00 02 00 00 
  1100)      2748.485 1  Rx        002B -  8    00 07 D0 00 0F 21 39 9A 
  1101)      2750.959 1  Rx        001A -  8    AF 00 07 D0 00 02 00 00 
  1102)      2753.477 1  Rx        001B -  8    00 07 D0 00 94 84 75 F5 
  1103)      2755.951 1  Rx        002A -  8    AF 00 07 D0 00 02 00 00 
  1104)      2758.468 1  Rx        002B -  8    00 07 D0 00 94 84 75 F5 
  1105)      2760.985 1  Rx        001A -  8    B0 00 07 D0 00 02 00 00 
  1106)      2763.460 1  Rx        001B -  8    00 07 D0 00 EA 08 07 78 
  1107)      2765.977 1  Rx        002A -  8    B0 00 07 D0 00 02 00 00 
  1108)      2768.451 1  Rx        002B -  8    00 07 D0 00 EA 08 07 78 
  1109)      2770.968 1  Rx        001A -  8    B1 00 07 D0 00 02 00 00 
  1110)      2773.443 1  Rx        001B -  8    00 07 D0 00 71 AD 4B 17 
  1111)      2775.960 1  Rx        002A -  8    B1 00 07 D0 00 02 00 00 
  1112)      2778.733 1  Rx        002B -  8    00 07 D0 00 71 AD 4B 17 
  1113)      2780.951 1  Rx        001A -  8    B2 00 07 D0 00 02 00 00 
  1114)      2783.469 1  Rx        001B -  8    00 07 D0 00 06 33 99 E7 
  1115)      2787.394 1  Rx        002A -  8    B2 00 07 D0 00 02 00 00 
  1116)      2788.460 1  Rx        002B -  8    00 07 D0 00 06 33 99 E7 
  1117)      2790.977 1  Rx        001A -  8    B3 00 07 D0 00 02 00 00 
  1118)      2793.452 1  Rx        001B -  8    00 07 D0 00 9D 96 D5 88 
  1119)      2795.969 1  Rx        002A -  8    B3 00 07 D0 00 02 00 00 
  1120)      2798.443 1  Rx        002B -  8    00 07 D0 00 9D 96 D5 88 
  1121)      2800.960 1  Rx        001A -  8    B4 00 07 D0 00 02 00 00 
  1122)      2803.478 1  Rx        001B -  8    00 07 D0 00 E9 0E 3C 07 
  1123)      2805.952 1  Rx        002A -  8    B4 00 07 D0 00 02 00 00 
  1124)      2808.469 1  Rx        002B -  8    00 07 D0 00 E9 0E 3C 07 
  1125)      2810.944 1  Rx        001A -  8    B5 00 07 D0 00 02 00 00 
  1126)      2813.461 1  Rx        001B -  8    00 07 D0 00 72 AB 70 68 
  1127)      2815.978 1  Rx        002A -  8    B5 00 07 D0 00 02 00 00 
  1128)      2818.452 1  Rx        002B -  8    00 07 D0 00 72 AB 70 68 
  1129)      2820.969 1  Rx        001A -  8    B6 00 07 D0 00 02 00 00 
  1130)      2823.486 1  Rx        001B -  8    00 07 D0 00 05 35 A2 98 
  1131)      2825.961 1  Rx        002A -  8    B6 00 07 D0 00 02 00 00 
  1132)      2828.478 1  Rx        002B -  8    00 07 D0 00 05 35 A2 98 
  1133)      2830.953 1  Rx        001A -  8    B7 00 07 D0 00 02 00 00 
  1134)      2833.470 1  Rx        001B -  8    00 07 D0 00 9E 90 EE F7 
  1135)      2836.456 1  Rx        002A -  8    B7 00 07 D0 00 02 00 00 
  1136)      2838.461 1  Rx        002B -  8    00 07 D0 00 9E 90 EE F7 
  1137)      2840.978 1  Rx        001A -  8    B8 00 0B B8 00 03 00 00 
  1138)      2843.453 1  Rx        001B -  8    00 0B B8 00 13 CA A1 CB 
  1139)      2845.970 1  Rx        002A -  8    B8 00 0B B8 00 03 00 00 
  1140)      2848.444 1  Rx        002B -  8    00 0B B8 00 13 CA A1 CB 
  1141)      2850.961 1  Rx        001A -  8    B9 00 0B B8 00 03 00 00 
  1142)      2853.479 1  Rx        001B -  8    00 0B B8 00 88 6F ED A4 
  1143)      2855.953 1  Rx        002A -  8    B9 00 0B B8 00 03 00 00 
  1144)      2858.470 1  Rx        002B -  8    00 0B B8 00 88 6F ED A4 
  1145)      2861.457 1  Rx        001A -  8    BA 00 0B B8 00 03 00 00 
  1146)      2863.462 1  Rx        001B -  8    00 0B B8 00 FF F1 3F 54 
  1147)      2865.979 1  Rx        002A -  8    BA 00 0B B8 00 03 00 00 
  1148)      2868.453 1  Rx        002B -  8    00 0B B8 00 FF F1 3F 54 
  1149)      2870.970 1  Rx        001A -  8    BB 00 0B B8 00 03 00 00 
  1150)      2873.445 1  Rx        001B -  8    00 0B B8 00 64 54 73 3B 
  1151)      2875.962 1  Rx        002A -  8    BB 00 0B B8 00 03 00 00 
  1152)      2878.948 1  Rx        002B -  8    00 0B B8 00 64 54 73 3B 
  1153)      2880.954 1  Rx        001A -  8    BC 00 0B B8 00 03 00 00 
  1154)      2883.471 1  Rx        001B -  8    00 0B B8 00 10 CC 9A B4 
  1155)      2885.945 1  Rx        002A -  8    BC 00 0B B8 00 03 00 00 
  1156)      2888.718 1  Rx        002B -  8    00 0B B8 00 10 CC 9A B4 
  1157)      2890.937 1  Rx        001A -  8    BD 00 0B B8 00 03 00 00 
  1158)      2893.454 1  Rx        001B -  8    00 0B B8 00 8B 69 D6 DB 
  1159)      2895.971 1  Rx        002A -  8    BD 00 0B B8 00 03 00 00 
  1160)      2898.445 1  Rx        002B -  8    00 0B B8 00 8B 69 D6 DB 
  1161)      2900.963 1  Rx        001A -  8    BE 00 0B B8 00 03 00 00 
  1162)      2903.480 1  Rx        001B -  8    00 0B B8 00 FC F7 04 2B 
  1163)      2905.954 1  Rx        002A -  8    BE 00 0B B8 00 03 00 00 
  1164)      2908.471 1  Rx        002B -  8    00 0B B8 00 FC F7 04 2B 
  1165)      2911.159 1  Rx        001A -  8    BF 00 0B B8 00 03 00 00 
  1166)      2913.463 1  Rx        001B -  8    00 0B B8 00 67 52 48 44 
  1167)      2915.980 1  Rx        002A -  8    BF 00 0B B8 00 03 00 00 
  1168)      2918.454 1  Rx        002B -  8    00 0B B8 00 67 52 48 44 
  1169)      2920.971 1  Rx        001A -  8    C0 00 0B B8 00 03 00 00 
  1170)      2923.446 1  Rx        001B -  8    00 0B B8 00 31 8C 56 C1 
  1171)      2925.963 1  Rx        002A -  8    C0 00 0B B8 00 03 00 00 
  1172)      2928.437 1  Rx        002B -  8    00 0B B8 00 31 8C 56 C1 
  1173)      2930.955 1  Rx        001A -  8    C1 00 0B B8 00 03 00 00 
  1174)      2933.472 1  Rx        001B -  8    00 0B B8 00 AA 29 1A AE 
  1175)      2935.946 1  Rx        002A -  8    C1 00 0B B8 00 03 00 00 
  1176)      2938.463 1  Rx        002B -  8    00 0B B8 00 AA 29 1A AE 
  1177)      2940.938 1  Rx        001A -  8    C2 00 0B B8 00 03 00 00 
  1178)      2943.455 1  Rx        001B -  8    00 0B B8 00 DD B7 C8 5E 
  1179)      2945.972 1  Rx        002A -  8    C2 00 0B B8 00 03 00 00 
  1180)      2948.446 1  Rx        002B -  8    00 0B B8 00 DD B7 C8 5E 
  1181)      2950.964 1  Rx        001A -  8    C3 00 0B B8 00 03 00 00 
  1182)      2953.950 1  Rx        001B -  8    00 0B B8 00 46 12 84 31 
  1183)      2955.955 1  Rx        002A -  8    C3 00 0B B8 00 03 00 00 
  1184)      2958.472 1  Rx        002B -  8    00 0B B8 00 46 12 84 31 
  1185)      2960.947 1  Rx        001A -  8    C4 00 0B B8 00 03 00 00 
  1186)      2963.464 1  Rx        001B -  8    00 0B B8 00 32 8A 6D BE 
  1187)      2965.938 1  Rx        002A -  8    C4 00 0B B8 00 03 00 00 
  1188)      2968.455 1  Rx        002B -  8    00 0B B8 00 32 8A 6D BE 
  1189)      2970.972 1  Rx        001A -  8    C5 00 0B B8 00 03 00 00 
  1190)      2973.447 1  Rx        001B -  8    00 0B B8 00 A9 2F 21 D1 
  1191)      2975.964 1  Rx        002A -  8    C5 00 0B B8 00 03 00 00 
  1192)      2978.694 1  Rx        002B -  8    00 0B B8 00 A9 2F 21 D1 
  1193)      2980.956 1  Rx        001A -  8    C6 00 0B B8 00 03 00 00 
  1194)      2983.473 1  Rx        001B -  8    00 0B B8 00 DE B1 F3 21 
  1195)      2986.331 1  Rx        002A -  8    C6 00 0B B8 00 03 00 00 
  1196)      2988.464 1  Rx        002B -  8    00 0B B8 00 DE B1 F3 21 
  1197)      2990.939 1  Rx        001A -  8    C7 00 0B B8 00 03 00 00 
  1198)      2993.456 1  Rx        001B -  8    00 0B B8 00 45 14 BF 4E 
  1199)      2995.930 1  Rx        002A -  8    C7 00 0B B8 00 03 00 00 
  1200)      2998.447 1  Rx        002B -  8    00 0B B8 00 45 14 BF 4E 
  1201)      3000.965 1  Rx        001A -  8    C8 00 0B B8 00 03 00 00 
  1202)      3003.439 1  Rx        001B -  8    00 0B B8 00 37 80 20 3F 
  1203)      3005.956 1  Rx        002A -  8    C8 00 0B B8 00 03 00 00 
  1204)      3008.473 1  Rx        002B -  8    00 0B B8 00 37 80 20 3F 
  1205)      3012.356 1  Rx        001A -  8    C9 00 0B B8 00 03 00 00 
  1206)      3013.465 1  Rx        001B -  8    00 0B B8 00 AC 25 6C 50 
  1207)      3015.939 1  Rx        002A -  8    C9 00 0B B8 00 03 00 00 
  1208)      3018.456 1  Rx        002B -  8    00 0B B8 00 AC 25 6C 50 
  1209)      3020.931 1  Rx        001A -  8    CA 00 0B B8 00 03 00 00 
  1210)      3023.448 1  Rx        001B -  8    00 0B B8 00 DB BB BE A0 
  1211)      3025.965 1  Rx        002A -  8    CA 00 0B B8 00 03 00 00 
  1212)      3028.696 1  Rx        002B -  8    00 0B B8 00 DB BB BE A0 
  1213)      3030.957 1  Rx        001A -  8    CB 00 0B B8 00 03 00 00 
  1214)      3033.431 1  Rx        001B -  8    00 0B B8 00 40 1E F2 CF 
  1215)      3035.948 1  Rx        002A -  8    CB 00 0B B8 00 03 00 00 
  1216)      3038.465 1  Rx        002B -  8    00 0B B8 00 40 1E F2 CF 
  1217)      3040.940 1  Rx        001A -  8    CC 00 0B B8 00 03 00 00 
  1218)      3043.457 1  Rx        001B -  8    00 0B B8 00 34 86 1B 40 
  1219)      3045.931 1  Rx        002A -  8    CC 00 0B B8 00 03 00 00 
  1220)      3048.448 1  Rx        002B -  8    00 0B B8 00 34 86 1B 40 
  1221)      3050.966 1  Rx        001A -  8    CD 00 0B B8 00 03 00 00 
  1222)      3053.440 1  Rx        001B -  8    00 0B B8 00 AF 23 57 2F 
  1223)      3055.957 1  Rx        002A -  8    CD 00 0B B8 00 03 00 00 
  1224)      3058.432 1  Rx        002B -  8    00 0B B8 00 AF 23 57 2F 
  1225)      3061.973 1  Rx        001A -  8    CE 00 0B B8 00 03 00 00 
  1226)      3063.466 1  Rx        001B -  8    00 0B B8 00 D8 BD 85 DF 
  1227)      3065.940 1  Rx        002A -  8    CE 00 0B B8 00 03 00 00 
  1228)      3068.457 1  Rx        002B -  8    00 0B B8 00 D8 BD 85 DF 
  1229)      3070.932 1  Rx        001A -  8    CF 00 0B B8 00 03 00 00 
  1230)      3073.449 1  Rx        001B -  8    00 0B B8 00 43 18 C9 B0 
  1231)      3075.966 1  Rx        002A -  8    CF 00 0B B8 00 03 00 00 
  1232)      3078.441 1  Rx        002B -  8    00 0B B8 00 43 18 C9 B0 
  1233)      3080.958 1  Rx        001A -  8    D0 00 0B B8 00 03 00 00 
  1234)      3083.432 1  Rx        001B -  8    00 0B B8 00 3D 94 BB 3D 
  1235)      3085.949 1  Rx        002A -  8    D0 00 0B B8 00 03 00 00 
  1236)      3088.424 1  Rx        002B -  8    00 0B B8 00 3D 94 BB 3D 
  1237)      3090.941 1  Rx        001A -  8    D1 00 0B B8 00 03 00 00 
  1238)      3093.458 1  Rx        001B -  8    00 0B B8 00 A6 31 F7 52 
  1239)      3095.932 1  Rx        002A -  8    D1 00 0B B8 00 03 00 00 
  1240)      3098.450 1  Rx        002B -  8    00 0B B8 00 A6 31 F7 52 
  1241)      3100.924 1  Rx        001A -  8    D2 00 0B B8 00 03 00 00 
  1242)      3103.441 1  Rx        001B -  8    00 0B B8 00 D1 AF 25 A2 
  1243)      3105.958 1  Rx        002A -  8    D2 00 0B B8 00 03 00 00 
  1244)      3108.433 1  Rx        002B -  8    00 0B B8 00 D1 AF 25 A2 
  1245)      3110.950 1  Rx        001A -  8    D3 00 0B B8 00 03 00 00 
  1246)      3113.467 1  Rx        001B -  8    00 0B B8 00 4A 0A 69 CD 
  1247)      3115.941 1  Rx        002A -  8    D3 00 0B B8 00 03 00 00 
  1248)      3118.458 1  Rx        002B -  8    00 0B B8 00 4A 0A 69 CD 
  1249)      3120.933 1  Rx        001A -  8    D4 00 0B B8 00 03 00 00 
  1250)      3123.450 1  Rx        001B -  8    00 0B B8 00 3E 92 80 42 
  1251)      3125.967 1  Rx        002A -  8    D4 00 0B B8 00 03 00 00 
  1252)      3128.954 1  Rx        002B -  8    00 0B B8 00 3E 92 80 42 
  1253)      3130.959 1  Rx        001A -  8    D5 00 0B B8 00 03 00 00 
  1254)      3133.433 1  Rx        001B -  8    00 0B B8 00 A5 37 CC 2D 
  1255)      3135.950 1  Rx        002A -  8    D5 00 0B B8 00 03 00 00 
  1256)      3138.467 1  Rx        002B -  8    00 0B B8 00 A5 37 CC 2D 
  1257)      3140.942 1  Rx        001A -  8    D6 00 0B B8 00 03 00 00 
  1258)      3143.459 1  Rx        001B -  8    00 0B B8 00 D2 A9 1E DD 
  1259)      3145.963 1  Rx        002A -  8    D6 00 0B B8 00 03 00 00 
  1260)      3148.481 1  Rx        002B -  8    00 0B B8 00 D2 A9 1E DD 
  1261)      3150.955 1  Rx        001A -  8    D7 00 0B B8 00 03 00 00 
  1262)      3153.472 1  Rx        001B -  8    00 0B B8 00 49 0C 52 B2 
  1263)      3155.989 1  Rx        002A -  8    D7 00 0B B8 00 03 00 00 
  1264)      3158.464 1  Rx        002B -  8    00 0B B8 00 49 0C 52 B2 
  1265)      3160.981 1  Rx        001A -  8    D8 00 0B B8 00 03 00 00 
  1266)      3163.455 1  Rx        001B -  8    00 0B B8 00 3B 98 CD C3 
  1267)      3165.972 1  Rx        002A -  8    D8 00 0B B8 00 03 00 00 
  1268)      3168.447 1  Rx        002B -  8    00 0B B8 00 3B 98 CD C3 
  1269)      3170.964 1  Rx        001A -  8    D9 00 0B B8 00 03 00 00 
  1270)      3173.481 1  Rx        001B -  8    00 0B B8 00 A0 3D 81 AC 
  1271)      3175.956 1  Rx        002A -  8    D9 00 0B B8 00 03 00 00 
  1272)      3178.473 1  Rx        002B -  8    00 0B B8 00 A0 3D 81 AC 
  1273)      3180.990 1  Rx        001A -  8    DA 00 0B B8 00 03 00 00 
  1274)      3183.464 1  Rx        001B -  8    00 0B B8 00 D7 A3 53 5C 
  1275)      3185.981 1  Rx        002A -  8    DA 00 0B B8 00 03 00 00 
  1276)      3188.456 1  Rx        002B -  8    00 0B B8 00 D7 A3 53 5C 
  1277)      3190.973 1  Rx        001A -  8    DB 00 0B B8 00 03 00 00 
  1278)      3193.490 1  Rx        001B -  8    00 0B B8 00 4C 06 1F 33 
  1279)      3195.964 1  Rx        002A -  8    DB 00 0B B8 00 03 00 00 
  1280)      3198.482 1  Rx        002B -  8    00 0B B8 00 4C 06 1F 33 
  1281)      3200.956 1  Rx        001A -  8    DC 00 0B B8 00 03 00 00 
  1282)      3203.473 1  Rx        001B -  8    00 0B B8 00 38 9E F6 BC 
  1283)      3205.990 1  Rx        002A -  8    DC 00 0B B8 00 03 00 00 
  1284)      3208.465 1  Rx        002B -  8    00 0B B8 00 38 9E F6 BC 
  1285)      3210.982 1  Rx        001A -  8    DD 00 0B B8 00 03 00 00 
  1286)      3213.456 1  Rx        001B -  8    00 0B B8 00 A3 3B BA D3 
  1287)      3215.973 1  Rx        002A -  8    DD 00 0B B8 00 03 00 00 
  1288)      3218.448 1  Rx        002B -  8    00 0B B8 00 A3 3B BA D3 
  1289)      3220.965 1  Rx        001A -  8    DE 00 0B B8 00 03 00 00 
  1290)      3223.482 1  Rx        001B -  8    00 0B B8 00 D4 A5 68 23 
  1291)      3225.957 1  Rx        002A -  8    DE 00 0B B8 00 03 00 00 
  1292)      3228.474 1  Rx        002B -  8    00 0B B8 00 D4 A5 68 23 
  1293)      3230.991 1  Rx        001A -  8    DF 00 0B B8 00 03 00 00 
  1294)      3233.465 1  Rx        001B -  8    00 0B B8 00 4F 00 24 4C 
  1295)      3235.982 1  Rx        002A -  8    DF 00 0B B8 00 03 00 00 
  1296)      3238.457 1  Rx        002B -  8    00 0B B8 00 4F 00 24 4C 
  1297)      3240.974 1  Rx        001A -  8    E0 00 0B B8 00 03 00 00 
  1298)      3243.448 1  Rx        001B -  8    00 0B B8 00 29 BD 8D 39 
  1299)      3245.966 1  Rx        002A -  8    E0 00 0B B8 00 03 00 00 
  1300)      3248.483 1  Rx        002B -  8    00 0B B8 00 29 BD 8D 39 
  1301)      3250.957 1  Rx        001A -  8    E1 00 0B B8 00 03 00 00 
  1302)      3253.474 1  Rx        001B -  8    00 0B B8 00 B2 18 C1 56 
  1303)      3255.949 1  Rx        002A -  8    E1 00 0B B8 00 03 00 00 
  1304)      3258.466 1  Rx        002B -  8    00 0B B8 00 B2 18 C1 56 
  1305)      3260.983 1  Rx        001A -  8    E2 00 0B B8 00 03 00 00 
  1306)      3263.457 1  Rx        001B -  8    00 0B B8 00 C5 86 13 A6 
  1307)      3265.974 1  Rx        002A -  8    E2 00 0B B8 00 03 00 00 
  1308)      3268.449 1  Rx        002B -  8    00 0B B8 00 C5 86 13 A6 
  1309)      3270.966 1  Rx        001A -  8    E3 00 0B B8 00 03 00 00 
  1310)      3273.483 1  Rx        001B -  8    00 0B B8 00 5E 23 5F C9 
  1311)      3275.958 1  Rx        002A -  8    E3 00 0B B8 00 03 00 00 
  1312)      3278.475 1  Rx        002B -  8    00 0B B8 00 5E 23 5F C9 
  1313)      3280.992 1  Rx        001A -  8    E4 00 0B B8 00 03 00 00 
  1314)      3283.466 1  Rx        001B -  8    00 0B B8 00 2A BB B6 46 
  1315)      3286.495 1  Rx        002A -  8    E4 00 0B B8 00 03 00 00 
  1316)      3288.458 1  Rx        002B -  8    00 0B B8 00 2A BB B6 46 
  1317)      3290.975 1  Rx        001A -  8    E5 00 0B B8 00 03 00 00 
  1318)      3293.449 1  Rx        001B -  8    00 0B B8 00 B1 1E FA 29 
  1319)      3295.967 1  Rx        002A -  8    E5 00 0B B8 00 03 00 00 
  1320)      3298.484 1  Rx        002B -  8    00 0B B8 00 B1 1E FA 29 
  1321)      3300.958 1  Rx        001A -  8    E6 00 0B B8 00 03 00 00 
  1322)      3303.945 1  Rx        001B -  8    00 0B B8 00 C6 80 28 D9 
  1323)      3305.950 1  Rx        002A -  8    E6 00 0B B8 00 03 00 00 
  1324)      3308.467 1  Rx        002B -  8    00 0B B8 00 C6 80 28 D9 
  1325)      3310.984 1  Rx        001A -  8    E7 00 0B B8 00 03 00 00 
  1326)      3313.458 1  Rx        001B -  8    00 0B B8 00 5D 25 64 B6 
  1327)      3315.976 1  Rx        002A -  8    E7 00 0B B8 00 03 00 00 
  1328)      3318.450 1  Rx        002B -  8    00 0B B8 00 5D 25 64 B6 
  1329)      3320.967 1  Rx        001A -  8    E8 00 0B B8 00 03 00 00 
  1330)      3323.484 1  Rx        001B -  8    00 0B B8 00 2F B1 FB C7 
  1331)      3325.959 1  Rx        002A -  8    E8 00 0B B8 00 03 00 00 
  1332)      3328.476 1  Rx        002B -  8    00 0B B8 00 2F B1 FB C7 
  1333)      3330.950 1  Rx        001A -  8    E9 00 0B B8 00 03 00 00 
  1334)      3333.467 1  Rx        001B -  8    00 0B B8 00 B4 14 B7 A8 
  1335)      3336.966 1  Rx        002A -  8    E9 00 0B B8 00 03 00 00 
  1336)      3338.459 1  Rx        002B -  8    00 0B B8 00 B4 14 B7 A8 
  1337)      3340.976 1  Rx        001A -  8    EA 00 0B B8 00 03 00 00 
  1338)      3343.450 1  Rx        001B -  8    00 0B B8 00 C3 8A 65 58 
  1339)      3345.968 1  Rx        002A -  8    EA 00 0B B8 00 03 00 00 
  1340)      3348.442 1  Rx        002B -  8    00 0B B8 00 C3 8A 65 58 
  1341)      3350.959 1  Rx        001A -  8    EB 00 0B B8 00 03 00 00 
  1342)      3353.476 1  Rx        001B -  8    00 0B B8 00 58 2F 29 37 
  1343)      3355.951 1  Rx        002A -  8    EB 00 0B B8 00 03 00 00 
  1344)      3358.468 1  Rx        002B -  8    00 0B B8 00 58 2F 29 37 
  1345)      3360.942 1  Rx        001A -  8    EC 00 0B B8 00 03 00 00 
  1346)      3363.459 1  Rx        001B -  8    00 0B B8 00 2C B7 C0 B8 
  1347)      3365.977 1  Rx        002A -  8    EC 00 0B B8 00 03 00 00 
  1348)      3368.451 1  Rx        002B -  8    00 0B B8 00 2C B7 C0 B8 
  1349)      3370.968 1  Rx        001A -  8    ED 00 0B B8 00 03 00 00 
  1350)      3373.485 1  Rx        001B -  8    00 0B B8 00 B7 12 8C D7 
  1351)      3375.960 1  Rx        002A -  8    ED 00 0B B8 00 03 00 00 
  1352)      3378.477 1  Rx        002B -  8    00 0B B8 00 B7 12 8C D7 
  1353)      3380.951 1  Rx        001A -  8    EE 00 0B B8 00 03 00 00 
  1354)      3383.468 1  Rx        001B -  8    00 0B B8 00 C0 8C 5E 27 
  1355)      3385.943 1  Rx        002A -  8    EE 00 0B B8 00 03 00 00 
  1356)      3388.460 1  Rx        002B -  8    00 0B B8 00 C0 8C 5E 27 
  1357)      3390.977 1  Rx        001A -  8    EF 00 0B B8 00 03 00 00 
